Time Stamp,ID,Extended,Dir,Bus,LEN,D1,D2,D3,D4,D5,D6,D7,D8
117762809,0110483C,true,Rx,0,8,08,E7,62,00,44,66,FC,52,
117764992,01C04026,true,Rx,0,8,80,00,80,00,80,00,80,00,
117765283,02000026,true,Rx,0,8,7E,34,00,FC,4C,01,E0,EF,
117765562,02104136,true,Rx,0,8,BB,00,3F,FF,06,E0,00,00,
117765842,02804026,true,Rx,0,8,B7,E7,78,00,F7,63,3D,FD,
117766123,02C00020,true,Rx,0,8,00,00,00,00,00,02,75,81,
117766413,0300410E,true,Rx,0,8,38,11,38,2A,08,28,6C,01,
117766689,19A00002,true,Rx,0,8,12,C8,2C,39,AB,22,00,F7,
117767207,0340412E,true,Rx,0,8,39,80,00,D0,80,00,00,9F,
117772089,19000026,true,Rx,0,8,00,FF,01,40,38,11,8E,00,
117772386,0100082C,true,Rx,0,8,00,C0,84,E8,66,18,00,00,
117772665,0110483C,true,Rx,0,8,08,E7,62,00,44,66,FC,52,
117776036,00800006,true,Rx,0,8,0A,18,0E,0A,42,18,AE,74,
117776311,0090411E,true,Rx,0,8,42,01,E2,C3,0D,00,00,00,
117776590,0300410E,true,Rx,0,8,B8,11,B8,2A,88,28,FC,01,
117776871,03800006,true,Rx,0,8,18,00,DE,61,0E,22,04,01,
117777151,19E00006,true,Rx,0,8,00,0D,18,C0,83,00,C0,00,
117777441,0340412E,true,Rx,0,8,3A,80,00,C0,80,00,00,9F,
117779107,01C04026,true,Rx,0,8,80,00,80,00,80,00,80,00,
117779397,02000026,true,Rx,0,8,7E,34,00,FC,4C,01,E0,EF,
117779676,02104136,true,Rx,0,8,BB,00,3F,FF,06,E0,00,00,
117779958,02804026,true,Rx,0,8,B7,E7,78,00,F7,63,3D,FD,
117780240,02C00020,true,Rx,0,8,00,00,00,00,00,02,75,81,
117782658,0100082C,true,Rx,0,8,00,C0,84,E8,76,18,00,00,
117782940,0110483C,true,Rx,0,8,08,E7,E2,00,44,66,FC,52,
117786031,0300410E,true,Rx,0,8,B8,11,38,2A,88,27,FC,01,
117786316,1B600002,true,Rx,0,8,00,80,00,0C,02,1C,4C,00,
117787277,0340412E,true,Rx,0,8,3B,80,00,B0,80,00,00,9F,
117787557,19000026,true,Rx,0,8,00,FF,01,40,38,11,86,00,
117792642,0100082C,true,Rx,0,8,00,C0,84,E8,66,18,00,00,
117792919,0110483C,true,Rx,0,8,08,E7,62,00,44,66,FC,52,
117793209,01C04026,true,Rx,0,8,80,00,80,00,80,00,80,00,
117793488,02000026,true,Rx,0,8,7E,34,00,FC,4C,01,E0,EF,
117793779,02104136,true,Rx,0,8,BB,00,3F,FF,06,E0,00,00,
117794051,02804026,true,Rx,0,8,B7,E7,77,FF,F3,63,3D,FD,
117794340,02C00020,true,Rx,0,8,00,00,00,00,00,02,75,81,
117794610,19A00002,true,Rx,0,8,6E,C8,2C,39,AB,22,00,F7,
117796075,00800006,true,Rx,0,8,42,18,0E,0A,42,18,2E,74,
117796354,0090411E,true,Rx,0,8,02,01,62,C3,0D,00,00,00,
117796633,0300410E,true,Rx,0,8,38,11,38,2A,08,27,6C,01,
117796915,03800006,true,Rx,0,8,18,00,DE,61,0E,22,04,01,
117797225,0340412E,true,Rx,0,8,3C,80,00,A0,80,00,00,9F,
117802086,19000026,true,Rx,0,8,00,FF,01,40,38,11,8E,00,
117802506,0100082C,true,Rx,0,8,00,C0,84,E8,66,18,00,00,
117802785,0110483C,true,Rx,0,8,08,E7,62,00,44,66,FC,52,
117806064,0300410E,true,Rx,0,8,B8,10,B8,2A,88,27,FC,01,
117807061,01C04026,true,Rx,0,8,80,00,80,00,80,00,80,00,
117807350,02000026,true,Rx,0,8,7E,34,00,FC,4C,01,E0,EF,
117807630,02104136,true,Rx,0,8,BB,00,3F,FF,06,E0,00,00,
117807911,02804026,true,Rx,0,8,B7,E7,77,FE,F3,63,3D,FD,
117808192,02C00020,true,Rx,0,8,00,00,00,00,00,02,75,81,
117808483,0340412E,true,Rx,0,8,3D,80,00,90,80,00,00,9F,
117812524,0100082C,true,Rx,0,8,00,C0,84,E8,66,18,00,00,
117812800,0110483C,true,Rx,0,8,08,E7,62,00,44,66,FC,52,
117816056,00800006,true,Rx,0,8,8A,17,0E,0A,42,17,AE,74,
117816335,0090411E,true,Rx,0,8,42,01,E2,C7,0D,00,00,00,
117816613,0300410E,true,Rx,0,8,B8,10,38,2B,88,26,FC,01,
117816894,03800006,true,Rx,0,8,18,00,DE,61,0E,22,04,01,
117817277,0340412E,true,Rx,0,8,3E,80,00,80,80,00,00,9F,
117817557,19000026,true,Rx,0,8,00,FF,01,40,38,11,86,00,
117817837,1BA0493C,true,Rx,0,8,07,01,03,00,02,01,01,01,
117821083,01C04026,true,Rx,0,8,80,00,80,00,80,00,80,00,
117821359,02000026,true,Rx,0,8,7E,34,00,FC,4C,01,E0,EF,
117821649,02104136,true,Rx,0,8,BB,00,3F,FF,06,E0,00,00,
117821919,02804026,true,Rx,0,8,B7,E7,77,FE,F3,63,3D,FD,
117822210,02C00020,true,Rx,0,8,00,00,00,00,00,02,75,81,
117822479,19A00002,true,Rx,0,8,12,C8,2C,39,AB,22,00,F7,
117822768,0100082C,true,Rx,0,8,00,C0,84,E8,66,18,00,00,
117823051,0110483C,true,Rx,0,8,08,E7,62,00,44,66,FC,52,
117823328,1A200020,true,Rx,0,8,0F,00,9E,3E,00,6A,02,3E,
117823619,1AE0092C,true,Rx,0,8,C0,00,22,E0,41,A0,00,00,
117823900,1B700030,true,Rx,0,8,6C,91,22,00,22,C0,03,00,
117826119,0300410E,true,Rx,0,8,38,10,38,2B,08,26,6C,01,
117826398,19E00006,true,Rx,0,8,00,0D,18,E0,83,00,C0,00,
117827213,0340412E,true,Rx,0,8,3F,80,00,70,80,00,00,9F,
117832101,19000026,true,Rx,0,8,00,FF,01,40,38,11,86,00,
117832386,0100082C,true,Rx,0,8,00,C0,84,E8,66,18,00,00,
117832665,0110483C,true,Rx,0,8,08,E7,E2,00,44,66,FC,52,
117834997,01C04026,true,Rx,0,8,80,00,80,00,80,00,80,00,
117835277,02000026,true,Rx,0,8,7E,34,00,FC,4C,01,E0,EF,
117835567,02104136,true,Rx,0,8,BB,00,3F,FF,06,E0,00,00,
117835846,02804026,true,Rx,0,8,B7,E7,77,FE,F3,63,3D,FD,
117836117,00800006,true,Rx,0,8,CA,18,0E,09,42,18,2E,74,
117836401,0090411E,true,Rx,0,8,81,FC,E2,C0,0D,00,00,00,
117836692,02C00020,true,Rx,0,8,00,00,00,00,00,02,75,81,
117836973,0300410E,true,Rx,0,8,B8,0F,B8,2B,88,27,FC,01,
117837252,0340412E,true,Rx,0,8,30,80,00,60,80,00,00,9F,
117837533,03800006,true,Rx,0,8,58,00,DE,61,0E,22,04,01,
117842528,0100082C,true,Rx,0,8,00,C0,84,E8,66,18,00,00,
117842804,0110483C,true,Rx,0,8,08,E7,62,00,44,66,FC,52,
117843096,1B200002,true,Rx,0,8,00,00,00,00,00,00,0F,73,
117846228,0300410E,true,Rx,0,8,38,0F,38,2B,08,27,6C,01,
117847205,0340412E,true,Rx,0,8,31,80,00,50,80,00,00,9F,
117847485,19000026,true,Rx,0,8,00,FF,01,40,38,11,8E,00,
117849072,01C04026,true,Rx,0,8,80,00,80,00,80,00,80,00,
117849352,02000026,true,Rx,0,8,7E,34,00,FC,4C,01,E0,EF,
117849641,02104136,true,Rx,0,8,BB,00,3F,FF,06,E0,00,00,
117849913,02804026,true,Rx,0,8,B7,E7,77,FF,F3,63,3D,FD,
117850202,02C00020,true,Rx,0,8,00,00,00,00,00,02,75,81,
117850482,19A00002,true,Rx,0,8,02,C8,2C,39,AB,22,00,F7,
117852531,0100082C,true,Rx,0,8,00,C0,84,E8,66,18,00,00,
117852807,0110483C,true,Rx,0,8,08,E7,62,00,44,66,FC,52,
117856103,00800006,true,Rx,0,8,02,1E,0E,0A,42,1E,2E,74,
117856392,0090411E,true,Rx,0,8,01,FC,62,C0,0D,00,00,00,
117856681,0300410E,true,Rx,0,8,B8,0F,38,2B,88,31,FC,01,
117856951,03800006,true,Rx,0,8,18,00,DE,61,0E,22,04,01,
117857282,0340412E,true,Rx,0,8,32,80,00,40,80,00,00,9F,
117862094,19000026,true,Rx,0,8,00,FF,01,40,38,11,86,00,
117862452,0100082C,true,Rx,0,8,00,C0,84,E8,66,18,00,00,
117862731,0110483C,true,Rx,0,8,08,E7,62,00,44,66,FC,52,
117863085,01C04026,true,Rx,0,8,80,00,80,00,80,00,80,00,
117863364,02000026,true,Rx,0,8,7E,34,00,FC,4B,01,E0,EF,
117863644,02104136,true,Rx,0,8,BB,00,3F,FF,06,E0,00,00,
117863925,02804026,true,Rx,0,8,B7,E7,77,FF,F7,63,3D,FD,
117864211,02C00020,true,Rx,0,8,00,00,00,00,00,02,75,81,
117866151,0300410E,true,Rx,0,8,B8,0F,B8,2B,88,31,FC,01,
117867222,0340412E,true,Rx,0,8,33,80,00,30,80,00,00,9F,
117872778,0100082C,true,Rx,0,8,00,C0,84,E8,76,18,00,00,
117873055,0110483C,true,Rx,0,8,08,E7,62,00,44,66,FC,52,
117876123,00800006,true,Rx,0,8,4A,1E,0E,0A,42,1E,AE,74,
117876413,0090411E,true,Rx,0,8,41,FC,E2,C0,0D,00,00,00,
117876683,0300410E,true,Rx,0,8,38,0F,38,2B,08,31,6C,01,
117876964,03800006,true,Rx,0,8,18,00,DE,61,0E,22,04,01,
117877253,01C04026,true,Rx,0,8,80,00,80,00,80,00,80,00,
117877544,02000026,true,Rx,0,8,7D,34,00,FC,4C,01,E0,EF,
117877823,02104136,true,Rx,0,8,BB,00,3F,FF,06,E0,00,00,
117878104,02804026,true,Rx,0,8,B7,E7,77,FF,F7,63,3D,FA,
117878394,02C00020,true,Rx,0,8,00,00,00,00,00,02,75,81,
117878684,0340412E,true,Rx,0,8,34,80,00,20,80,00,00,9F,
117878964,19000026,true,Rx,0,8,00,FF,01,40,38,11,8E,00,
117879233,19A00002,true,Rx,0,8,12,C8,2C,39,AB,22,00,F7,
117879523,19E00006,true,Rx,0,8,00,0D,18,C0,83,00,C0,00,
117882762,0100082C,true,Rx,0,8,00,C0,84,E8,66,18,00,00,
117883039,0110483C,true,Rx,0,8,08,E7,E2,00,44,66,FC,52,
117886139,0300410E,true,Rx,0,8,B8,10,38,2B,88,33,FC,01,
117887229,0340412E,true,Rx,0,8,35,80,00,10,80,00,00,9F,
117891093,01C04026,true,Rx,0,8,80,00,80,00,80,00,80,00,
117891370,02000026,true,Rx,0,8,7E,34,00,FC,4C,01,E0,EF,
117891659,02104136,true,Rx,0,8,BB,00,3F,FF,06,E0,00,00,
117891929,02804026,true,Rx,0,8,B7,E7,78,00,F7,63,3D,FD,
117892220,02C00020,true,Rx,0,8,00,00,00,00,00,02,75,81,
117892510,19000026,true,Rx,0,8,00,FF,01,40,38,11,86,00,
117892790,0100082C,true,Rx,0,8,00,C0,84,E8,66,18,00,00,
117893071,0110483C,true,Rx,0,8,08,E7,62,00,44,66,FC,52,
117896169,00800006,true,Rx,0,8,8A,1D,0E,0A,42,1D,2E,74,
117896465,0090411E,true,Rx,0,8,01,FE,E2,BC,0D,00,00,00,
117896735,0300410E,true,Rx,0,8,B8,10,B8,2B,88,31,FC,01,
117897015,03800006,true,Rx,0,8,18,00,DE,61,0E,22,04,01,
117897305,0340412E,true,Rx,0,8,36,80,00,00,80,00,00,9F,
117902504,0100082C,true,Rx,0,8,00,C0,84,E8,66,18,00,00,
117902781,0110483C,true,Rx,0,8,08,E7,62,00,44,66,FC,52,
117905077,01C04026,true,Rx,0,8,80,00,80,00,80,00,80,00,
117905357,02000026,true,Rx,0,8,7E,34,00,FC,4C,01,E0,EF,
117905636,02104136,true,Rx,0,8,BB,00,3F,FF,06,E0,00,00,
117905918,02804026,true,Rx,0,8,B7,E7,78,00,F7,63,3D,FD,
117906207,02C00020,true,Rx,0,8,00,00,00,00,00,02,75,81,
117906487,0300410E,true,Rx,0,8,38,10,38,2B,08,31,6C,01,
117906753,19A00002,true,Rx,0,8,6E,C8,2C,39,AB,22,00,F7,
117907219,0340412E,true,Rx,0,8,37,80,00,F0,80,00,00,9F,
117907499,19000026,true,Rx,0,8,00,FF,01,40,38,11,86,00,
117912437,0100082C,true,Rx,0,8,00,C0,84,E8,66,18,00,00,
117912713,0110483C,true,Rx,0,8,08,E7,62,00,44,66,FC,52,
117916164,00800006,true,Rx,0,8,C2,1D,0E,0A,42,1D,AE,74,
117916443,0090411E,true,Rx,0,8,C1,FE,62,BC,0D,00,00,00,
117916732,0300410E,true,Rx,0,8,B8,10,38,2A,88,31,FC,01,
117917002,03800006,true,Rx,0,8,58,00,DE,61,0E,22,04,01,
117917292,0340412E,true,Rx,0,8,38,80,00,E0,80,00,00,9F,
117919119,01C04026,true,Rx,0,8,80,00,80,00,80,00,80,00,
117919398,02000026,true,Rx,0,8,7E,34,00,FC,4C,01,E0,EF,
117919689,02104136,true,Rx,0,8,BB,00,3F,FF,06,E0,00,00,
117919959,02804026,true,Rx,0,8,B7,E7,77,FF,F3,63,3D,FD,
117920249,02C00020,true,Rx,0,8,00,00,00,00,00,02,75,81,
117922090,19000026,true,Rx,0,8,00,FF,01,40,38,11,8E,00,
117922643,0100082C,true,Rx,0,8,00,C0,84,E8,66,18,00,00,
117922914,0110483C,true,Rx,0,8,08,E7,62,00,44,66,FC,52,
117926180,0300410E,true,Rx,0,8,38,10,B8,2A,08,31,6C,01,
117926469,19E00006,true,Rx,0,8,00,0D,18,E0,83,00,C0,00,
117927273,0340412E,true,Rx,0,8,39,80,00,D0,80,00,00,9F,
117927636,1B200002,true,Rx,0,8,00,00,00,00,00,00,0F,73,
117932376,0100082C,true,Rx,0,8,00,C0,84,E8,66,18,00,00,
117932651,0110483C,true,Rx,0,8,08,E7,E2,00,44,66,FC,52,
117933087,01C04026,true,Rx,0,8,80,00,80,00,80,00,80,00,
117933366,02000026,true,Rx,0,8,7E,34,00,FC,4C,01,E0,EF,
117933657,02104136,true,Rx,0,8,BB,00,3F,FF,06,E0,00,00,
117933938,02804026,true,Rx,0,8,B7,E7,77,FF,F7,63,3D,FD,
117934228,02C00020,true,Rx,0,8,00,00,00,00,00,02,75,81,
117934494,19A00002,true,Rx,0,8,12,C8,2C,39,AB,22,00,F7,
117936206,00800006,true,Rx,0,8,0A,1A,0E,0A,42,1A,2E,74,
117936494,0090411E,true,Rx,0,8,02,01,E2,BE,0D,00,00,00,
117936774,0300410E,true,Rx,0,8,B8,10,38,2A,88,2A,FC,01,
117937055,03800006,true,Rx,0,8,18,00,DE,61,0E,22,04,01,
117937346,0340412E,true,Rx,0,8,3A,80,00,C0,80,00,00,9F,
117937625,19000026,true,Rx,0,8,00,FF,01,40,38,11,86,00,
117942548,0100082C,true,Rx,0,8,00,C0,84,E8,66,18,00,00,
117942824,0110483C,true,Rx,0,8,08,E7,62,00,44,66,FC,52,
117946202,0300410E,true,Rx,0,8,B8,10,38,2A,88,2A,FC,01,
117947096,01C04026,true,Rx,0,8,80,00,80,00,80,00,80,00,
117947377,02000026,true,Rx,0,8,7E,34,00,FC,4C,01,E0,EF,
117947656,02104136,true,Rx,0,8,BB,00,3F,FF,06,E0,00,00,
117947936,02804026,true,Rx,0,8,B7,E7,77,FF,F7,63,3D,FD,
117948227,02C00020,true,Rx,0,8,00,00,00,00,00,02,75,81,
117948507,0340412E,true,Rx,0,8,3B,80,00,B0,80,00,00,9F,
117952100,19000026,true,Rx,0,8,00,FF,01,40,38,11,8E,00,
117952674,0100082C,true,Rx,0,8,00,C0,84,E8,66,18,00,00,
117952955,0110483C,true,Rx,0,8,08,E7,62,00,44,66,FC,52,
117956211,00800006,true,Rx,0,8,4A,1A,0E,0A,42,1A,2E,74,
117956497,0090411E,true,Rx,0,8,02,01,E2,BE,0D,00,00,00,
117956777,0300410E,true,Rx,0,8,38,10,B8,2A,08,2A,6C,01,
117957057,03800006,true,Rx,0,8,18,00,DE,61,0E,22,04,01,
117957348,0340412E,true,Rx,0,8,3C,80,00,A0,80,00,00,9F,
117957627,1B600002,true,Rx,0,8,00,80,00,0C,02,1C,4C,00,
117961102,01C04026,true,Rx,0,8,80,00,80,00,80,00,80,00,
117961377,02000026,true,Rx,0,8,7E,34,00,FC,4C,01,E0,EF,
117961667,02104136,true,Rx,0,8,BB,00,3F,FF,06,E0,00,00,
117961938,02804026,true,Rx,0,8,B7,E7,78,00,F7,63,3D,FD,
117962228,02C00020,true,Rx,0,8,00,00,00,00,00,02,75,81,
117962507,19A00002,true,Rx,0,8,02,C8,2C,39,AB,22,00,F7,
117962787,0100082C,true,Rx,0,8,00,C0,84,E8,76,18,00,00,
117963068,0110483C,true,Rx,0,8,08,E7,62,00,44,66,FC,52,
117966238,0300410E,true,Rx,0,8,B8,11,38,2A,88,29,FC,01,
117967214,0340412E,true,Rx,0,8,3D,80,00,90,80,00,00,9F,
117967494,19000026,true,Rx,0,8,00,FF,01,40,38,11,86,00,
117972370,0100082C,true,Rx,0,8,00,C0,84,E8,66,18,00,00,
117972646,0110483C,true,Rx,0,8,08,E7,62,00,44,66,FC,52,
117975067,01C04026,true,Rx,0,8,80,00,80,00,80,00,80,00,
117975346,02000026,true,Rx,0,8,7E,34,00,FC,4C,01,E0,EF,
117975636,02104136,true,Rx,0,8,BB,00,3F,FF,06,E0,00,00,
117975907,02804026,true,Rx,0,8,B7,E7,77,FF,F3,63,3D,FD,
117976197,02C00020,true,Rx,0,8,00,00,00,00,00,02,75,81,
117976472,00800006,true,Rx,0,8,82,19,0E,0A,42,19,AE,74,
117976761,0090411E,true,Rx,0,8,42,01,62,BE,0D,00,00,00,
117977031,0300410E,true,Rx,0,8,B8,11,38,2A,88,29,FC,01,
117977322,0340412E,true,Rx,0,8,3E,80,00,80,80,00,00,9F,
117977602,03800006,true,Rx,0,8,18,00,DE,61,0E,22,04,01,
117977882,19E00006,true,Rx,0,8,00,0D,18,C0,83,00,C0,00,
117982095,19000026,true,Rx,0,8,00,FF,01,40,38,11,8E,00,
117982525,0100082C,true,Rx,0,8,00,C0,84,E8,66,18,00,00,
117982805,0110483C,true,Rx,0,8,08,E7,E2,00,44,66,FC,52,
117986247,0300410E,true,Rx,0,8,38,11,B8,2A,08,29,6C,01,
117987214,0340412E,true,Rx,0,8,3F,80,00,70,80,00,00,9F,
117989078,01C04026,true,Rx,0,8,80,00,80,00,80,00,80,00,
117989357,02000026,true,Rx,0,8,7E,34,00,FC,4C,01,E0,EF,
117989638,02104136,true,Rx,0,8,BB,00,3F,FF,06,E0,00,00,
117989918,02804026,true,Rx,0,8,B7,E7,77,FF,F7,63,3D,FD,
117990208,02C00020,true,Rx,0,8,00,00,00,00,00,02,75,81,
117990483,19A00002,true,Rx,0,8,12,C8,2C,39,AB,22,00,F7,
117992561,0100082C,true,Rx,0,8,00,C0,84,E8,66,18,00,00,
117992841,0110483C,true,Rx,0,8,08,E7,62,00,44,66,FC,52,
117996243,00800006,true,Rx,0,8,CA,1A,0E,0A,42,1A,2E,74,
117996530,0090411E,true,Rx,0,8,02,00,E2,BF,0D,00,00,00,
117996809,0300410E,true,Rx,0,8,B8,11,38,2A,88,2A,FC,01,
117997089,03800006,true,Rx,0,8,18,00,DE,61,0E,22,04,01,
117997370,0340412E,true,Rx,0,8,30,80,00,60,80,00,00,9F,
117997660,19000026,true,Rx,0,8,00,FF,01,40,38,11,86,00,
118002584,0100082C,true,Rx,0,8,00,C0,84,E8,66,18,00,00,
118002859,0110483C,true,Rx,0,8,08,E7,62,00,44,66,FC,52,
118003150,01C04026,true,Rx,0,8,80,00,80,00,80,00,80,00,
118003431,02000026,true,Rx,0,8,7E,34,00,FC,4C,01,E0,EF,
118003720,02104136,true,Rx,0,8,BB,00,3F,FF,06,E0,00,00,
118003990,02804026,true,Rx,0,8,B7,E7,77,FF,F7,63,3D,FD,
118004281,02C00020,true,Rx,0,8,00,00,00,00,00,02,75,81,
118006288,0300410E,true,Rx,0,8,38,11,38,2A,08,2A,6C,01,
118007224,0340412E,true,Rx,0,8,31,80,00,50,80,00,00,9F,
118012095,19000026,true,Rx,0,8,00,FF,01,40,38,11,8E,00,
118012380,0100082C,true,Rx,0,8,00,C0,84,E8,66,18,00,00,
118012661,0110483C,true,Rx,0,8,08,E7,62,00,44,66,FC,52,
118012951,1B200002,true,Rx,0,8,00,00,00,00,00,00,0F,73,
118016272,00800006,true,Rx,0,8,0A,1A,0E,0A,42,1A,AE,74,
118016549,0090411E,true,Rx,0,8,C1,FC,E2,B7,0D,00,00,00,
118016828,0300410E,true,Rx,0,8,B8,11,B8,2A,88,2B,FC,01,
118017119,01C04026,true,Rx,0,8,80,00,80,00,80,00,80,00,
118017399,02000026,true,Rx,0,8,7E,34,00,FC,4B,01,E0,EF,
118017679,02104136,true,Rx,0,8,BB,00,3F,FF,06,E0,00,00,
118017960,02804026,true,Rx,0,8,B7,E7,78,00,F7,63,3D,FD,
118018250,02C00020,true,Rx,0,8,00,00,00,00,00,02,75,81,
118018528,0340412E,true,Rx,0,8,32,80,00,40,80,00,00,9F,
118018808,03800006,true,Rx,0,8,58,00,DE,61,0E,22,04,01,
118019079,19A00002,true,Rx,0,8,6E,C8,2C,39,AB,22,00,F7,
118022688,0100082C,true,Rx,0,8,00,C0,84,E8,66,18,00,00,
118022975,0110483C,true,Rx,0,8,08,E7,62,00,44,66,FC,52,
118026269,0300410E,true,Rx,0,8,B8,11,38,2A,88,34,FC,01,
118026560,19E00006,true,Rx,0,8,00,0D,18,E0,83,00,C0,00,
118027210,0340412E,true,Rx,0,8,33,80,00,30,80,00,00,9F,
118027499,19000026,true,Rx,0,8,00,FF,01,40,38,11,86,00,
118031067,01C04026,true,Rx,0,8,80,00,80,00,80,00,80,00,
118031353,02000026,true,Rx,0,8,7E,34,00,FC,4C,01,E0,EF,
118031632,02104136,true,Rx,0,8,BB,00,3F,FF,06,E0,00,00,
118031914,02804026,true,Rx,0,8,B7,E7,78,00,F7,63,3D,FD,
118032204,02C00020,true,Rx,0,8,00,00,00,00,00,02,75,81,
118032556,0100082C,true,Rx,0,8,00,C0,84,E8,66,18,00,00,
118032835,0110483C,true,Rx,0,8,08,E7,E2,00,44,66,FC,52,
118033135,1B700030,true,Rx,0,8,6C,91,22,00,22,C0,03,00,
118036317,00800006,true,Rx,0,8,42,20,0E,0A,42,20,2E,74,
118036597,0090411E,true,Rx,0,8,01,FC,62,B7,0D,00,00,00,
118036878,0300410E,true,Rx,0,8,38,11,38,2A,08,34,6C,01,
118037169,03800006,true,Rx,0,8,18,00,DE,61,0E,22,04,01,
118037448,0340412E,true,Rx,0,8,34,80,00,20,80,00,00,9F,
118042111,19000026,true,Rx,0,8,00,FF,01,40,38,11,86,00,
118042489,0100082C,true,Rx,0,8,00,C0,84,E8,66,18,00,00,
118042770,0110483C,true,Rx,0,8,08,E7,62,00,44,66,FC,52,
118045006,01C04026,true,Rx,0,8,80,00,80,00,80,00,80,00,
118045286,02000026,true,Rx,0,8,7E,34,00,FC,4C,01,E0,EF,
118045577,02104136,true,Rx,0,8,BB,00,3F,FF,06,E0,00,00,
118045846,02804026,true,Rx,0,8,B7,E7,78,00,F7,63,3D,FD,
118046137,02C00020,true,Rx,0,8,00,00,00,00,00,02,75,81,
118046411,0300410E,true,Rx,0,8,B8,11,B8,2A,88,34,FC,01,
118046691,19A00002,true,Rx,0,8,12,C8,2C,39,AB,22,00,F7,
118047219,0340412E,true,Rx,0,8,35,80,00,10,80,00,00,9F,
118052387,0100082C,true,Rx,0,8,00,C0,84,E8,66,18,00,00,
118052663,0110483C,true,Rx,0,8,08,E7,62,00,44,66,FC,52,
118056308,00800006,true,Rx,0,8,8A,1B,0E,0B,42,1B,2E,74,
118056584,0090411E,true,Rx,0,8,02,00,E2,B8,0D,00,00,00,
118056864,0300410E,true,Rx,0,8,B8,12,38,2A,88,2D,FC,01,
118057145,03800006,true,Rx,0,8,18,00,DE,61,0E,22,04,01,
118057424,0340412E,true,Rx,0,8,36,80,00,00,80,00,00,9F,
118057714,19000026,true,Rx,0,8,00,FF,01,40,38,11,8E,00,
118059102,01C04026,true,Rx,0,8,80,00,80,00,80,00,80,00,
118059381,02000026,true,Rx,0,8,7E,34,00,FC,4C,01,E0,EF,
118059662,02104136,true,Rx,0,8,BB,00,3F,FF,06,E0,00,00,
118059943,02804026,true,Rx,0,8,B7,E7,78,00,F7,63,3D,FD,
118060234,02C00020,true,Rx,0,8,00,00,00,00,00,02,75,81,
118062672,0100082C,true,Rx,0,8,00,C0,84,E8,66,18,00,00,
118062948,0110483C,true,Rx,0,8,08,E7,62,00,44,66,FC,52,
118066316,0300410E,true,Rx,0,8,38,12,38,29,08,2D,6C,01,
118067292,0340412E,true,Rx,0,8,37,80,00,F0,80,00,00,9F,
118068845,1BA0493C,true,Rx,0,8,08,02,01,12,01,01,01,02,
118072110,19000026,true,Rx,0,8,00,FF,01,40,38,11,86,00,
118072462,0100082C,true,Rx,0,8,00,C0,84,E8,66,18,00,00,
118072731,0110483C,true,Rx,0,8,08,E7,62,00,44,66,FC,52,
118073063,01C04026,true,Rx,0,8,80,00,80,00,80,00,80,00,
118073354,02000026,true,Rx,0,8,7E,34,00,FC,4C,01,E0,EF,
118073634,02104136,true,Rx,0,8,BB,00,3F,FF,06,E0,00,00,
118073914,02804026,true,Rx,0,8,B7,E7,78,00,F7,63,3D,FD,
118074205,02C00020,true,Rx,0,8,00,00,00,00,00,02,75,81,
118074474,19A00002,true,Rx,0,8,02,C8,2C,39,AB,22,00,F7,
118076359,00800006,true,Rx,0,8,CA,1B,0E,0B,42,1B,AE,74,
118076638,0090411E,true,Rx,0,8,42,00,E2,B8,0D,00,00,00,
118076907,0300410E,true,Rx,0,8,B8,12,B8,29,88,2D,FC,01,
118077197,03800006,true,Rx,0,8,18,00,DE,61,0E,22,04,01,
118077477,0340412E,true,Rx,0,8,38,80,00,E0,80,00,00,9F,
118077766,19E00006,true,Rx,0,8,00,0D,18,C0,83,00,C0,00,
118082500,0100082C,true,Rx,0,8,00,C0,84,E8,66,18,00,00,
118082775,0110483C,true,Rx,0,8,08,E7,E2,00,44,66,FC,52,
118086339,0300410E,true,Rx,0,8,38,12,38,29,08,2D,6C,01,
118087059,01C04026,true,Rx,0,8,80,00,80,00,80,00,80,00,
118087348,02000026,true,Rx,0,8,7E,34,00,FC,4C,01,E0,EF,
118087628,02104136,true,Rx,0,8,BB,00,3F,FF,06,E0,00,00,
118087909,02804026,true,Rx,0,8,B7,E7,77,FF,F7,63,3D,FD,
118088199,02C00020,true,Rx,0,8,00,00,00,00,00,02,75,81,
118088478,0340412E,true,Rx,0,8,39,80,00,D0,80,00,00,9F,
118088765,19000026,true,Rx,0,8,00,FF,01,40,38,11,8E,00,
118092546,0100082C,true,Rx,0,8,00,C0,84,E8,66,18,00,00,
118092821,0110483C,true,Rx,0,8,08,E7,62,00,44,66,FC,52,
118096345,00800006,true,Rx,0,8,02,1A,0E,0B,42,1A,2E,74,
118096631,0090411E,true,Rx,0,8,02,00,62,B8,0D,00,00,00,
118096911,0300410E,true,Rx,0,8,B8,12,38,29,88,2B,FC,01,
118097192,03800006,true,Rx,0,8,18,00,DE,61,0E,22,04,01,
118097471,0340412E,true,Rx,0,8,3A,80,00,C0,80,00,00,9F,
118097771,1B200002,true,Rx,0,8,00,00,00,00,00,00,0F,73,
118101080,01C04026,true,Rx,0,8,80,00,80,00,80,00,80,00,
118101365,02000026,true,Rx,0,8,7E,34,00,FC,4C,01,E0,EF,
118101646,02104136,true,Rx,0,8,BB,00,3F,FF,06,E0,00,00,
118101927,02804026,true,Rx,0,8,B7,E7,77,FF,F7,63,3D,FD,
118102217,02C00020,true,Rx,0,8,00,00,00,00,00,02,75,81,
118102497,19000026,true,Rx,0,8,00,FF,01,40,38,11,86,00,
118102787,0100082C,true,Rx,0,8,00,C0,84,E8,76,18,00,00,
118103068,0110483C,true,Rx,0,8,08,E7,62,00,44,66,FC,52,
118103336,19A00002,true,Rx,0,8,12,C8,2C,39,AB,22,00,F7,
118106384,0300410E,true,Rx,0,8,B8,12,B8,29,88,2B,FC,01,
118107218,0340412E,true,Rx,0,8,3B,80,00,B0,80,00,00,9F,
118112653,0100082C,true,Rx,0,8,00,C0,84,E8,66,18,00,00,
118112930,0110483C,true,Rx,0,8,08,E7,62,00,44,66,FC,52,
118115081,01C04026,true,Rx,0,8,80,00,80,00,80,00,80,00,
118115361,02000026,true,Rx,0,8,7E,34,00,FC,4C,01,E0,EF,
118115641,02104136,true,Rx,0,8,BB,00,3F,FF,06,E0,00,00,
118115923,02804026,true,Rx,0,8,B7,E7,77,FF,F7,63,3D,FD,
118116212,02C00020,true,Rx,0,8,00,00,00,00,00,02,75,81,
118116493,00800006,true,Rx,0,8,4A,1A,0E,0B,42,1A,AE,74,
118116768,0090411E,true,Rx,0,8,C2,02,E2,BE,0D,00,00,00,
118117050,0300410E,true,Rx,0,8,38,12,38,29,08,2B,6C,01,
118117340,0340412E,true,Rx,0,8,3C,80,00,A0,80,00,00,9F,
118117619,03800006,true,Rx,0,8,58,00,DE,61,0E,22,04,01,
118117901,19000026,true,Rx,0,8,00,FF,01,40,38,11,86,00,
118122586,0100082C,true,Rx,0,8,00,C0,84,E8,66,18,00,00,
118122871,0110483C,true,Rx,0,8,08,E7,62,00,44,66,FC,52,
118126374,0300410E,true,Rx,0,8,B8,12,38,29,88,27,FC,01,
118126659,19E00006,true,Rx,0,8,00,0D,18,E0,83,00,C0,00,
118126950,1B600002,true,Rx,0,8,00,80,00,0C,02,1C,4C,00,
118127231,0340412E,true,Rx,0,8,3D,80,00,90,80,00,00,9F,
118129108,01C04026,true,Rx,0,8,80,00,80,00,80,00,80,00,
118129388,02000026,true,Rx,0,8,7E,34,00,FC,4C,01,E0,EF,
118129667,02104136,true,Rx,0,8,BB,00,3F,FF,06,E0,00,00,
118129948,02804026,true,Rx,0,8,B7,E7,77,FF,F7,63,3D,FD,
118130239,02C00020,true,Rx,0,8,00,00,00,00,00,02,75,81,
118130508,19A00002,true,Rx,0,8,6E,C8,2C,39,AB,22,00,F7,
118132104,19000026,true,Rx,0,8,00,FF,01,40,38,11,8E,00,
118132610,0100082C,true,Rx,0,8,00,C0,84,E8,66,18,00,00,
118132889,0110483C,true,Rx,0,8,08,E7,E2,00,44,66,FC,52,
118136391,00800006,true,Rx,0,8,8A,17,0E,0B,42,17,2E,74,
118136670,0090411E,true,Rx,0,8,02,02,E2,C3,0D,00,00,00,
118136949,0300410E,true,Rx,0,8,B8,12,B8,29,88,26,FC,01,
118137229,03800006,true,Rx,0,8,18,00,DE,61,0E,22,04,01,
118137519,0340412E,true,Rx,0,8,3E,80,00,80,80,00,00,9F,
118137799,1A200020,true,Rx,0,8,4F,00,9E,3E,00,6A,02,3E,
118142534,0100082C,true,Rx,0,8,00,C0,84,E8,66,18,00,00,
118142810,0110483C,true,Rx,0,8,08,E7,62,00,44,66,FC,52,
118143101,01C04026,true,Rx,0,8,80,00,80,00,80,00,80,00,
118143381,02000026,true,Rx,0,8,7E,34,00,FC,4C,01,E0,EF,
118143670,02104136,true,Rx,0,8,BB,00,3F,FF,06,E0,00,00,
118143942,02804026,true,Rx,0,8,B7,E7,77,FF,F3,63,3D,FD,
118144231,02C00020,true,Rx,0,8,00,00,00,00,00,02,75,81,
118146424,0300410E,true,Rx,0,8,38,12,38,29,08,26,6C,01,
118147237,0340412E,true,Rx,0,8,3F,80,00,70,80,00,00,9F,
118147516,19000026,true,Rx,0,8,00,FF,01,40,38,11,86,00,
118152442,0100082C,true,Rx,0,8,00,C0,84,E8,66,18,00,00,
118152728,0110483C,true,Rx,0,8,08,E7,62,00,44,66,FC,52,
118156405,00800006,true,Rx,0,8,C2,17,0E,0B,42,17,2E,74,
118156680,0090411E,true,Rx,0,8,02,02,62,C3,0D,00,00,00,
118156951,0300410E,true,Rx,0,8,B8,12,38,29,88,26,FC,01,
118157241,01C04026,true,Rx,0,8,80,00,80,00,80,00,80,00,
118157530,02000026,true,Rx,0,8,7E,34,00,FC,4C,01,E0,EF,
118157811,02104136,true,Rx,0,8,BB,00,3F,FF,06,E0,00,00,
118158092,02804026,true,Rx,0,8,B7,E7,77,FF,F7,63,3D,FD,
118158381,02C00020,true,Rx,0,8,00,00,00,00,00,02,75,81,
118158670,0340412E,true,Rx,0,8,30,80,00,60,80,00,00,9F,
118158951,03800006,true,Rx,0,8,18,00,DE,61,0E,22,04,01,
118159220,19A00002,true,Rx,0,8,12,C8,2C,39,AB,22,00,F7,
118162108,19000026,true,Rx,0,8,00,FF,01,40,38,11,8E,00,
118162651,0100082C,true,Rx,0,8,00,C0,84,E8,66,18,00,00,
118162933,0110483C,true,Rx,0,8,08,E7,62,00,44,66,FC,52,
118166426,0300410E,true,Rx,0,8,38,12,B8,2A,08,26,6C,01,
118167289,0340412E,true,Rx,0,8,31,80,00,50,80,00,00,9F,
118171082,01C04026,true,Rx,0,8,80,00,80,00,80,00,80,00,
118171357,02000026,true,Rx,0,8,7E,34,00,FC,4C,01,E0,EF,
118171638,02104136,true,Rx,0,8,BB,00,3F,FF,06,E0,00,00,
118171918,02804026,true,Rx,0,8,B7,E7,77,FF,F3,63,3D,FD,
118172208,02C00020,true,Rx,0,8,00,00,00,00,00,02,75,81,
118172509,0100082C,true,Rx,0,8,00,C0,84,E8,66,18,00,00,
118172788,0110483C,true,Rx,0,8,08,E7,62,00,44,66,FC,52,
118176452,00800006,true,Rx,0,8,0A,17,0E,0B,42,17,AE,74,
118176727,0090411E,true,Rx,0,8,42,02,E2,C3,0D,00,00,00,
118176999,0300410E,true,Rx,0,8,B8,12,38,2A,88,26,FC,01,
118177289,0340412E,true,Rx,0,8,32,80,00,40,80,00,00,9F,
118177568,03800006,true,Rx,0,8,18,00,DE,61,0E,22,04,01,
118177859,19000026,true,Rx,0,8,00,FF,01,40,38,11,86,00,
118178139,19E00006,true,Rx,0,8,00,0D,18,C0,83,00,C0,00,
118182600,1B200002,true,Rx,0,8,00,00,00,00,00,00,0F,73,
118182887,0100082C,true,Rx,0,8,00,C0,84,E8,66,18,00,00,
118183167,0110483C,true,Rx,0,8,08,E7,E2,00,44,66,FC,52,
118185084,01C04026,true,Rx,0,8,80,00,80,00,80,00,80,00,
118185365,02000026,true,Rx,0,8,7E,34,00,FC,4C,01,E0,EF,
118185654,02104136,true,Rx,0,8,BB,00,3F,FF,06,E0,00,00,
118185935,02804026,true,Rx,0,8,B7,E7,77,FF,F7,63,3D,FD,
118186215,02C00020,true,Rx,0,8,00,00,00,00,00,02,75,81,
118186495,0300410E,true,Rx,0,8,B8,10,38,2A,88,26,FC,01,
118186770,19A00002,true,Rx,0,8,02,C8,2C,39,AB,22,00,F7,
118187227,0340412E,true,Rx,0,8,33,80,00,30,80,00,00,9F,
118192108,19000026,true,Rx,0,8,00,FF,01,40,38,11,8E,00,
118192683,0100082C,true,Rx,0,8,00,C0,84,E8,76,18,00,00,
118192963,0110483C,true,Rx,0,8,08,E7,62,00,44,66,FC,52,
118196449,00800006,true,Rx,0,8,4A,17,0E,0A,42,17,2E,74,
118196725,0090411E,true,Rx,0,8,02,01,E2,C5,0D,00,00,00,
118197007,0300410E,true,Rx,0,8,38,10,B8,2A,08,26,6C,01,
118197296,0340412E,true,Rx,0,8,34,80,00,20,80,00,00,9F,
118197575,03800006,true,Rx,0,8,18,00,DE,61,0E,22,04,01,
118199115,01C04026,true,Rx,0,8,80,00,80,00,80,00,80,00,
118199406,02000026,true,Rx,0,8,7E,34,00,FC,4C,01,E0,EF,
118199685,02104136,true,Rx,0,8,BB,00,3F,FF,06,E0,00,00,
118199957,02804026,true,Rx,0,8,B7,E7,78,00,F7,63,3D,FD,
118200246,02C00020,true,Rx,0,8,00,00,00,00,00,02,75,81,
118202654,0100082C,true,Rx,0,8,00,C0,84,E8,66,18,00,00,
118202940,0110483C,true,Rx,0,8,08,E7,62,00,44,66,FC,52,
118206462,0300410E,true,Rx,0,8,B8,10,38,2A,88,28,FC,01,
118207295,0340412E,true,Rx,0,8,35,80,00,10,80,00,00,9F,
118207584,19000026,true,Rx,0,8,00,FF,01,40,38,11,86,00,
118212469,0100082C,true,Rx,0,8,00,C0,84,E8,66,18,00,00,
118212744,0110483C,true,Rx,0,8,08,E7,62,00,44,66,FC,52,
118213099,01C04026,true,Rx,0,8,80,00,80,00,80,00,80,00,
118213388,02000026,true,Rx,0,8,7E,34,00,FC,4C,01,E0,EF,
118213667,02104136,true,Rx,0,8,BB,00,3F,FF,06,E0,00,00,
118213949,02804026,true,Rx,0,8,B7,E7,78,00,F7,63,3D,FD,
118214239,02C00020,true,Rx,0,8,00,00,00,00,00,02,75,81,
118214508,19A00002,true,Rx,0,8,12,C8,2C,39,AB,22,00,F7,
118216489,00800006,true,Rx,0,8,82,18,0E,0A,42,18,AE,74,
118216765,0090411E,true,Rx,0,8,42,01,62,C5,0D,00,00,00,
118217046,0300410E,true,Rx,0,8,B8,10,38,2B,88,28,FC,01,
118217336,0340412E,true,Rx,0,8,36,80,00,00,80,00,00,9F,
118217616,03800006,true,Rx,0,8,18,00,DE,61,0E,22,04,01,
118222111,19000026,true,Rx,0,8,00,FF,01,40,38,11,8E,00,
118222541,0100082C,true,Rx,0,8,00,C0,84,E8,66,18,00,00,
118222821,0110483C,true,Rx,0,8,08,E7,62,00,44,66,FC,52,
118226483,0300410E,true,Rx,0,8,38,10,B8,2B,08,28,6C,01,
118226768,19E00006,true,Rx,0,8,00,0D,18,E0,83,00,C0,00,
118227102,01C04026,true,Rx,0,8,80,00,80,00,80,00,80,00,
118227391,02000026,true,Rx,0,8,7E,34,00,FC,4C,01,E0,EF,
118227672,02104136,true,Rx,0,8,BB,00,3F,FF,06,E0,00,00,
118227953,02804026,true,Rx,0,8,B7,E7,78,00,F7,63,3D,FD,
118228243,02C00020,true,Rx,0,8,00,00,00,00,00,02,75,81,
118228540,0340412E,true,Rx,0,8,37,80,00,F0,80,00,00,9F,
118232535,0100082C,true,Rx,0,8,00,C0,84,E8,66,18,00,00,
118232810,0110483C,true,Rx,0,8,08,E7,E2,00,44,66,FC,52,
118236489,00800006,true,Rx,0,8,CA,18,0E,0A,42,18,2E,74,
118236764,0090411E,true,Rx,0,8,82,01,E2,C7,0D,00,00,00,
118237046,0300410E,true,Rx,0,8,B8,10,38,2B,88,28,FC,01,
118237325,0340412E,true,Rx,0,8,38,80,00,E0,80,00,00,9F,
118237605,03800006,true,Rx,0,8,58,00,DE,61,0E,22,04,01,
118237896,19000026,true,Rx,0,8,00,FF,01,40,38,11,86,00,
118241109,01C04026,true,Rx,0,8,80,00,80,00,80,00,80,00,
118241395,02000026,true,Rx,0,8,7E,34,00,FC,4C,01,E0,EF,
118241675,02104136,true,Rx,0,8,BB,00,3F,FF,06,E0,00,00,
118241956,02804026,true,Rx,0,8,B7,E7,78,00,F7,63,3D,FD,
118242246,02C00020,true,Rx,0,8,00,00,00,00,00,02,75,81,
118242515,19A00002,true,Rx,0,8,6E,C8,2C,39,AB,22,00,F7,
118242805,0100082C,true,Rx,0,8,00,C0,84,E8,66,18,00,00,
118243076,0110483C,true,Rx,0,8,08,E7,62,00,44,66,FC,52,
118243365,1AE0092C,true,Rx,0,8,00,00,22,E0,41,A0,00,00,
118243644,1B700030,true,Rx,0,8,7C,91,22,00,22,C0,03,00,
118246530,0300410E,true,Rx,0,8,38,10,38,2B,08,28,6C,01,
118247229,0340412E,true,Rx,0,8,39,80,00,D0,80,00,00,9F,
118252117,19000026,true,Rx,0,8,00,FF,01,40,38,11,86,00,
118252404,0100082C,true,Rx,0,8,00,C0,84,E8,66,18,00,00,
118252683,0110483C,true,Rx,0,8,08,E7,62,00,44,66,FC,52,
118255023,01C04026,true,Rx,0,8,80,00,80,00,80,00,80,00,
118255304,02000026,true,Rx,0,8,7E,34,00,FC,4C,01,E0,EF,
118255583,02104136,true,Rx,0,8,BB,00,3F,FF,06,E0,00,00,
118255862,02804026,true,Rx,0,8,B7,E7,78,00,F7,63,3D,FD,
118256154,02C00020,true,Rx,0,8,00,00,00,00,00,02,75,81,
118256541,00800006,true,Rx,0,8,0A,18,0E,0A,42,18,2E,74,
118256821,0090411E,true,Rx,0,8,02,02,E2,CC,0D,00,00,00,
118257102,0300410E,true,Rx,0,8,B8,10,B8,2B,88,28,FC,01,
118257381,0340412E,true,Rx,0,8,3A,80,00,C0,80,00,00,9F,
118257662,03800006,true,Rx,0,8,18,00,DE,61,0E,22,04,01,
118262504,0100082C,true,Rx,0,8,00,C0,84,E8,66,18,00,00,
118262779,0110483C,true,Rx,0,8,08,E7,62,00,44,66,FC,52,
118266520,0300410E,true,Rx,0,8,B8,0F,38,2B,88,24,FC,01,
118267219,0340412E,true,Rx,0,8,3B,80,00,B0,80,00,00,9F,
118267508,19000026,true,Rx,0,8,00,FF,01,40,38,11,8E,00,
118267799,1B200002,true,Rx,0,8,00,00,00,00,00,00,0F,73,
118269090,01C04026,true,Rx,0,8,80,00,80,00,80,00,80,00,
118269380,02000026,true,Rx,0,8,7E,34,00,FC,4C,01,E0,EF,
118269659,02104136,true,Rx,0,8,BB,00,3F,FF,06,E0,00,00,
118269941,02804026,true,Rx,0,8,B7,E7,77,FF,F3,63,3D,FD,
118270231,02C00020,true,Rx,0,8,00,00,00,00,00,02,75,81,
118270500,19A00002,true,Rx,0,8,12,C8,2C,39,AB,22,00,F7,
118272798,0100082C,true,Rx,0,8,00,C0,84,E8,66,18,00,00,
118273076,0110483C,true,Rx,0,8,08,E7,62,00,44,66,FC,52,
118276524,00800006,true,Rx,0,8,42,16,0E,09,42,16,AE,75,
118276805,0090411E,true,Rx,0,8,42,02,62,CC,0D,00,00,00,
118277084,0300410E,true,Rx,0,8,38,0F,38,2B,08,24,6C,01,
118277373,0340412E,true,Rx,0,8,3C,80,00,A0,80,00,00,9F,
118277654,03800006,true,Rx,0,8,18,00,DE,61,0E,22,04,01,
118277934,19E00006,true,Rx,0,8,00,0D,18,C0,83,00,C0,00,
118282108,19000026,true,Rx,0,8,00,FF,01,40,38,11,86,00,
118282548,0100082C,true,Rx,0,8,00,C0,84,E8,76,18,00,00,
118282828,0110483C,true,Rx,0,8,08,E7,E2,00,44,66,FC,52,
118283120,01C04026,true,Rx,0,8,80,00,80,00,80,00,80,00,
118283409,02000026,true,Rx,0,8,7E,34,00,FC,4C,01,E0,EF,
118283690,02104136,true,Rx,0,8,BB,00,3F,FF,06,E0,00,00,
118283970,02804026,true,Rx,0,8,B7,E7,77,FF,F7,63,3D,FD,
118284256,02C00020,true,Rx,0,8,00,00,00,00,00,02,75,81,
118286572,0300410E,true,Rx,0,8,B8,0F,B8,2B,88,24,FC,01,
118287244,0340412E,true,Rx,0,8,3D,80,00,90,80,00,00,9F,
118292410,0100082C,true,Rx,0,8,00,C0,84,E8,66,18,00,00,
118292685,0110483C,true,Rx,0,8,08,E7,62,00,44,66,FC,52,
118296547,00800006,true,Rx,0,8,8A,16,0E,09,42,16,2E,75,
118296824,0090411E,true,Rx,0,8,02,02,E2,CC,0D,00,00,00,
118297114,01C04026,true,Rx,0,8,80,00,80,00,80,00,80,00,
118297394,02000026,true,Rx,0,8,7E,34,00,FC,4C,01,E0,EF,
118297685,02104136,true,Rx,0,8,BB,00,3F,FF,06,E0,00,00,
118297955,02804026,true,Rx,0,8,B7,E7,77,FF,F7,63,3D,FD,
118298245,02C00020,true,Rx,0,8,00,00,00,00,00,02,75,81,
118298525,0300410E,true,Rx,0,8,B8,0E,38,2B,88,23,FC,01,
118298813,0340412E,true,Rx,0,8,3E,80,00,80,80,00,00,9F,
118299095,03800006,true,Rx,0,8,18,00,DE,61,0E,22,04,01,
118299384,19000026,true,Rx,0,8,00,FF,01,40,38,11,8E,00,
118299653,19A00002,true,Rx,0,8,02,C8,2C,39,AB,22,00,F7,
118299945,1B600002,true,Rx,0,8,00,80,00,0C,02,1C,4C,00,
118302836,0100082C,true,Rx,0,8,00,C0,84,E8,66,18,00,00,
118303113,0110483C,true,Rx,0,8,08,E7,62,00,44,66,FC,52,
118306551,0300410E,true,Rx,0,8,38,0E,38,2B,08,23,6C,01,
118307251,0340412E,true,Rx,0,8,3F,80,00,70,80,00,00,9F,
118311073,01C04026,true,Rx,0,8,80,00,80,00,80,00,80,00,
118311349,02000026,true,Rx,0,8,7E,34,00,FC,4C,01,E0,EF,
118311639,02104136,true,Rx,0,8,BB,00,3F,FF,06,E0,00,00,
118311909,02804026,true,Rx,0,8,B7,E7,77,FF,F7,63,3D,FD,
118312200,02C00020,true,Rx,0,8,00,00,00,00,00,02,75,81,
118312490,19000026,true,Rx,0,8,00,FF,01,40,38,11,86,00,
118312779,0100082C,true,Rx,0,8,00,C0,84,E8,66,18,00,00,
118313051,0110483C,true,Rx,0,8,08,E7,62,00,44,66,FC,52,
118316592,00800006,true,Rx,0,8,CA,16,0E,09,42,16,AE,75,
118316869,0090411E,true,Rx,0,8,42,03,E2,D3,0D,00,00,00,
118317149,0300410E,true,Rx,0,8,B8,0E,B8,2C,88,23,FC,01,
118317440,0340412E,true,Rx,0,8,30,80,00,60,80,00,00,9F,
118317719,03800006,true,Rx,0,8,18,00,DE,61,0E,22,04,01,
118318000,1BA0493C,true,Rx,0,8,09,00,00,01,01,01,01,01,
118318280,1BE0493C,true,Rx,0,8,01,10,2A,88,B7,6C,FD,FB,
118322565,0100082C,true,Rx,0,8,00,C0,84,E8,66,18,00,00,
118322841,0110483C,true,Rx,0,8,08,E7,62,00,44,66,FC,52,
118325076,01C04026,true,Rx,0,8,80,00,80,00,80,00,80,00,
118325357,02000026,true,Rx,0,8,7E,34,00,FC,4C,01,E0,EF,
118325646,02104136,true,Rx,0,8,BB,00,3F,FF,06,E0,00,00,
118325918,02804026,true,Rx,0,8,B7,E7,77,FF,F7,63,3D,FD,
118326207,02C00020,true,Rx,0,8,00,00,00,00,00,02,75,81,
118326487,19A00002,true,Rx,0,8,12,C8,2C,39,AB,22,00,F7,
118326763,0300410E,true,Rx,0,8,38,0E,38,2C,08,23,6C,01,
118327044,19E00006,true,Rx,0,8,00,0C,18,E0,83,00,C0,00,
118327334,0340412E,true,Rx,0,8,31,80,00,50,80,00,00,9F,
118327614,19000026,true,Rx,0,8,00,FF,01,40,38,11,86,00,
118332368,0100082C,true,Rx,0,8,00,C0,84,E8,66,18,00,00,
118332643,0110483C,true,Rx,0,8,08,E7,E2,00,44,66,FC,52,
118336588,00800006,true,Rx,0,8,02,14,0E,09,42,14,2E,75,
118336865,0090411E,true,Rx,0,8,82,03,62,D3,0D,00,00,00,
118337145,0300410E,true,Rx,0,8,B8,0E,38,2C,88,21,FC,01,
118337426,0340412E,true,Rx,0,8,32,80,00,40,80,00,00,9F,
118337705,03800006,true,Rx,0,8,58,00,DE,61,0E,22,04,01,
118339122,01C04026,true,Rx,0,8,80,00,80,00,80,00,80,00,
118339401,02000026,true,Rx,0,8,7E,34,00,FC,4C,01,E0,EF,
118339691,02104136,true,Rx,0,8,BB,00,3F,FF,06,E0,00,00,
118339962,02804026,true,Rx,0,8,B7,E7,78,00,F7,63,3D,FD,
118340252,02C00020,true,Rx,0,8,00,00,00,00,00,02,75,81,
118342114,19000026,true,Rx,0,8,00,FF,01,40,38,11,8E,00,
118342697,0100082C,true,Rx,0,8,00,C0,84,E8,66,18,00,00,
118342969,0110483C,true,Rx,0,8,08,E7,62,00,44,66,FC,52,
118346606,0300410E,true,Rx,0,8,B8,0C,B8,2C,88,22,FC,01,
118347304,0340412E,true,Rx,0,8,33,80,00,30,80,00,00,9F,
118352599,1B200002,true,Rx,0,8,00,00,00,00,00,00,0F,73,
118352887,0100082C,true,Rx,0,8,00,C0,84,E8,66,18,00,00,
118353166,0110483C,true,Rx,0,8,08,E7,62,00,44,66,FC,52,
118353455,01C04026,true,Rx,0,8,80,00,80,00,80,00,80,00,
118353736,02000026,true,Rx,0,8,7E,34,00,FC,4C,01,E0,EF,
118354027,02104136,true,Rx,0,8,BB,00,3F,FF,06,E0,00,00,
118354296,02804026,true,Rx,0,8,B7,E7,77,FF,F3,63,3D,FD,
118354586,02C00020,true,Rx,0,8,00,00,00,00,00,02,75,81,
118354864,19A00002,true,Rx,0,8,6E,C8,2C,39,AB,22,00,F7,
118356629,00800006,true,Rx,0,8,4A,15,0E,08,42,15,2E,75,
118356908,0090411E,true,Rx,0,8,01,FC,E2,CD,0D,00,00,00,
118357187,0300410E,true,Rx,0,8,38,0C,38,2C,08,22,6C,01,
118357478,0340412E,true,Rx,0,8,34,80,00,20,80,00,00,9F,
118357757,03800006,true,Rx,0,8,18,00,DE,61,0E,22,04,01,
118358048,19000026,true,Rx,0,8,00,FF,01,40,38,11,86,00,
118362588,0100082C,true,Rx,0,8,00,C0,84,E8,66,18,00,00,
118362865,0110483C,true,Rx,0,8,08,E7,62,00,44,66,FC,52,
118366614,0300410E,true,Rx,0,8,B8,0C,38,2D,88,2E,FC,01,
118367075,01C04026,true,Rx,0,8,80,00,80,00,80,00,80,00,
118367354,02000026,true,Rx,0,8,7E,34,00,FC,4C,01,E0,EF,
118367635,02104136,true,Rx,0,8,BB,00,3F,FF,06,E0,00,00,
118367915,02804026,true,Rx,0,8,B7,E7,77,FF,F7,63,3D,FD,
118368206,02C00020,true,Rx,0,8,00,00,00,00,00,02,75,81,
118368486,0340412E,true,Rx,0,8,35,80,00,10,80,00,00,9F,
118372120,19000026,true,Rx,0,8,00,FF,01,40,38,11,8E,00,
118372539,0100082C,true,Rx,0,8,00,C0,84,E8,76,18,00,00,
118372820,0110483C,true,Rx,0,8,08,E7,62,00,44,66,FC,52,
118376636,00800006,true,Rx,0,8,8A,1D,0E,08,42,1D,AE,75,
118376912,0090411E,true,Rx,0,8,41,FC,E2,CD,0D,00,00,00,
118377191,0300410E,true,Rx,0,8,B8,0C,B8,2D,88,2F,FC,01,
118377482,0340412E,true,Rx,0,8,36,80,00,00,80,00,00,9F,
118377761,03800006,true,Rx,0,8,18,00,DE,61,0E,22,04,01,
118378042,19E00006,true,Rx,0,8,00,0C,18,C0,83,00,C0,00,
118381100,01C04026,true,Rx,0,8,80,00,80,00,80,00,80,00,
118381387,02000026,true,Rx,0,8,7D,34,00,FC,4C,01,E0,EF,
118381666,02104136,true,Rx,0,8,BB,00,3F,FF,06,E0,00,00,
118381947,02804026,true,Rx,0,8,B7,E7,77,FF,F7,63,3D,FA,
118382238,02C00020,true,Rx,0,8,00,00,00,00,00,02,75,81,
118382517,19A00002,true,Rx,0,8,12,C8,2C,39,AB,22,00,F7,
118382797,0100082C,true,Rx,0,8,00,C0,84,E8,66,18,00,00,
118383078,0110483C,true,Rx,0,8,08,E7,E2,00,44,66,FC,52,
118386662,0300410E,true,Rx,0,8,38,0C,38,2D,08,2F,6C,01,
118387236,0340412E,true,Rx,0,8,37,80,00,F0,80,00,00,9F,
118387517,19000026,true,Rx,0,8,00,FF,01,40,38,11,86,00,
118392379,0100082C,true,Rx,0,8,00,C0,84,E8,66,18,00,00,
118392654,0110483C,true,Rx,0,8,08,E7,62,00,44,66,FC,52,
118395075,01C04026,true,Rx,0,8,80,00,80,00,80,00,80,00,
118395365,02000026,true,Rx,0,8,7E,34,00,FC,4C,01,E0,EF,
118395644,02104136,true,Rx,0,8,BB,00,3F,FF,06,E0,00,00,
118395916,02804026,true,Rx,0,8,B7,E7,77,FF,F3,63,3D,FD,
118396205,02C00020,true,Rx,0,8,00,00,00,00,00,02,75,81,
118396675,00800006,true,Rx,0,8,C2,1E,0E,08,42,1E,2E,74,
118396956,0090411E,true,Rx,0,8,01,FC,62,CD,0D,00,00,00,
118397225,0300410E,true,Rx,0,8,B8,0D,38,2D,88,31,FC,01,
118397516,0340412E,true,Rx,0,8,38,80,00,E0,80,00,00,9F,
118397795,03800006,true,Rx,0,8,18,00,DE,61,0E,22,04,01,
118402110,19000026,true,Rx,0,8,00,FF,01,40,38,11,8E,00,
118402509,0100082C,true,Rx,0,8,00,C0,84,E8,66,18,00,00,
118402789,0110483C,true,Rx,0,8,08,E7,62,00,44,66,FC,52,
118406667,0300410E,true,Rx,0,8,38,0D,B8,2D,08,31,6C,01,
118407231,0340412E,true,Rx,0,8,39,80,00,D0,80,00,00,9F,
118409094,01C04026,true,Rx,0,8,80,00,80,00,80,00,80,00,
118409373,02000026,true,Rx,0,8,7E,34,00,FC,4C,01,E0,EF,
118409654,02104136,true,Rx,0,8,BB,00,3F,FF,06,E0,00,00,
118409935,02804026,true,Rx,0,8,B7,E7,77,FF,F7,63,3D,FD,
118410224,02C00020,true,Rx,0,8,00,00,00,00,00,02,75,81,
118410505,19A00002,true,Rx,0,8,02,C8,2C,39,AB,22,00,F7,
118412542,0100082C,true,Rx,0,8,00,C0,84,E8,66,18,00,00,
118412818,0110483C,true,Rx,0,8,08,E7,62,00,44,66,FC,52,
118416670,00800006,true,Rx,0,8,0A,24,0E,08,42,24,AE,74,
118416957,0090411E,true,Rx,0,8,C1,F9,E2,BE,0E,00,00,00,
118417236,0300410E,true,Rx,0,8,B8,0C,38,2D,88,3B,FC,01,
118417516,0340412E,true,Rx,0,8,3A,80,00,C0,80,00,00,9F,
118417796,03800006,true,Rx,0,8,58,00,DE,61,0E,22,04,01,
118418077,19000026,true,Rx,0,8,00,FF,01,40,38,11,86,00,
118422605,0100082C,true,Rx,0,8,00,C0,84,E8,66,18,00,00,
118422883,0110483C,true,Rx,0,8,08,E7,62,00,44,66,FC,52,
118423173,01C04026,true,Rx,0,8,80,00,80,00,80,00,80,00,
118423453,02000026,true,Rx,0,8,7D,34,00,FC,4C,01,E0,EF,
118423732,02104136,true,Rx,0,8,BB,00,3F,FF,06,E0,00,00,
118424013,02804026,true,Rx,0,8,B7,E7,77,FF,F7,63,3D,FA,
118424304,02C00020,true,Rx,0,8,00,00,00,00,00,02,75,81,
118426702,0300410E,true,Rx,0,8,B8,0F,38,2D,88,3A,FC,01,
118426989,19E00006,true,Rx,0,8,00,0E,18,E0,83,00,C0,00,
118427269,0340412E,true,Rx,0,8,3B,80,00,B0,80,00,00,9F,
118432120,19000026,true,Rx,0,8,00,FF,01,40,38,11,8E,00,
118432725,0100082C,true,Rx,0,8,00,C0,84,E8,66,18,00,00,
118433006,0110483C,true,Rx,0,8,08,E7,E2,00,44,66,FC,52,
118436687,00800006,true,Rx,0,8,4A,23,0E,09,42,23,2E,74,
118436974,0090411E,true,Rx,0,8,02,02,E2,C4,0E,00,00,00,
118437265,01C04026,true,Rx,0,8,80,00,80,00,80,00,80,00,
118437544,02000026,true,Rx,0,8,7E,34,00,FC,4C,01,E0,EF,
118437834,02104136,true,Rx,0,8,BB,00,3F,FF,06,E0,00,00,
118438105,02804026,true,Rx,0,8,B7,E7,77,FF,F3,63,3D,FD,
118438395,02C00020,true,Rx,0,8,00,00,00,00,00,02,75,81,
118438674,0300410E,true,Rx,0,8,38,0F,B8,2D,08,3A,6C,01,
118438965,0340412E,true,Rx,0,8,3C,80,00,A0,80,00,00,9F,
118439244,03800006,true,Rx,0,8,18,00,DE,61,0E,22,04,01,
118439513,19A00002,true,Rx,0,8,12,C8,2C,39,AB,22,00,F7,
118439814,1B200002,true,Rx,0,8,00,00,00,00,00,00,0F,73,
118442684,0100082C,true,Rx,0,8,00,C0,84,E8,66,18,00,00,
118442971,0110483C,true,Rx,0,8,08,E7,62,00,44,66,FC,52,
118446698,0300410E,true,Rx,0,8,B8,0E,38,2D,88,2A,FC,01,
118447253,0340412E,true,Rx,0,8,3D,80,00,90,80,00,00,9F,
118447543,19000026,true,Rx,0,8,00,FF,01,40,38,11,86,00,
118451121,01C04026,true,Rx,0,8,80,00,80,00,80,00,80,00,
118451406,02000026,true,Rx,0,8,7E,34,00,FC,4C,01,E0,EF,
118451686,02104136,true,Rx,0,8,BB,00,3F,FF,06,E0,00,00,
118451958,02804026,true,Rx,0,8,B7,E7,77,FF,F3,63,3D,FD,
118452258,02C00020,true,Rx,0,8,00,00,00,00,00,02,75,81,
118452662,0100082C,true,Rx,0,8,00,C0,84,E8,66,18,00,00,
118452943,0110483C,true,Rx,0,8,08,E7,62,00,44,66,FC,52,
118453219,1A200020,true,Rx,0,8,8F,00,9E,3E,00,6A,02,3E,
118453499,1B700030,true,Rx,0,8,6C,91,22,00,22,C0,03,00,
118456734,00800006,true,Rx,0,8,82,19,0E,09,42,19,2E,74,
118457015,0090411E,true,Rx,0,8,02,02,62,C4,0E,00,00,00,
118457294,0300410E,true,Rx,0,8,B8,0E,38,2D,88,2A,FC,01,
118457583,0340412E,true,Rx,0,8,3E,80,00,80,80,00,00,9F,
118457862,03800006,true,Rx,0,8,18,00,DE,61,0E,22,04,01,
118462128,19000026,true,Rx,0,8,00,FF,01,40,38,11,86,00,
118462537,0100082C,true,Rx,0,8,00,C0,84,E8,66,18,00,00,
118462807,0110483C,true,Rx,0,8,08,E7,62,00,44,66,FC,52,
118465106,01C04026,true,Rx,0,8,80,00,80,00,80,00,80,00,
118465395,02000026,true,Rx,0,8,7E,34,00,FC,4C,01,E0,EF,
118465676,02104136,true,Rx,0,8,BB,00,3F,FF,06,E0,00,00,
118465957,02804026,true,Rx,0,8,B7,E7,77,FF,F7,63,3D,FD,
118466238,02C00020,true,Rx,0,8,00,00,00,00,00,02,75,81,
118466519,19A00002,true,Rx,0,8,6E,C8,2C,39,AB,22,00,F7,
118466798,0300410E,true,Rx,0,8,38,0E,B8,2A,08,2A,6C,01,
118467079,1B600002,true,Rx,0,8,00,80,00,0C,02,1C,4C,00,
118467359,0340412E,true,Rx,0,8,3F,80,00,70,80,00,00,9F,
118472438,0100082C,true,Rx,0,8,00,C0,84,E8,66,18,00,00,
118472715,0110483C,true,Rx,0,8,08,E7,62,00,44,66,FC,52,
118476723,00800006,true,Rx,0,8,CA,1B,0E,0A,42,1B,AE,74,
118477009,0090411E,true,Rx,0,8,41,FF,E2,C4,0E,00,00,00,
118477290,0300410E,true,Rx,0,8,B8,10,38,2A,88,2C,FC,01,
118477569,0340412E,true,Rx,0,8,30,80,00,60,80,00,00,9F,
118477859,03800006,true,Rx,0,8,18,00,DE,61,0E,22,04,01,
118478141,19000026,true,Rx,0,8,00,FF,01,40,38,11,8E,00,
118478430,19E00006,true,Rx,0,8,00,0E,18,C0,83,00,C0,00,
118479140,01C04026,true,Rx,0,8,80,00,80,00,80,00,80,00,
118479419,02000026,true,Rx,0,8,7D,34,00,FC,4C,01,E0,EF,
118479700,02104136,true,Rx,0,8,BB,00,3F,FF,06,E0,00,00,
118479980,02804026,true,Rx,0,8,B7,E7,77,FF,F7,63,3D,FA,
118480271,02C00020,true,Rx,0,8,00,00,00,00,00,02,75,81,
118482751,0100082C,true,Rx,0,8,00,C0,84,E8,66,18,00,00,
118483027,0110483C,true,Rx,0,8,08,E7,E2,00,44,66,FC,52,
118486735,0300410E,true,Rx,0,8,38,10,38,2A,08,2C,6C,01,
118487310,0340412E,true,Rx,0,8,31,80,00,50,80,00,00,9F,
118492127,19000026,true,Rx,0,8,00,FF,01,40,38,11,86,00,
118492412,0100082C,true,Rx,0,8,00,C0,84,E8,66,18,00,00,
118492683,0110483C,true,Rx,0,8,08,E7,62,00,44,66,FC,52,
118493097,01C04026,true,Rx,0,8,80,00,80,00,80,00,80,00,
118493377,02000026,true,Rx,0,8,7E,34,00,FC,4C,01,E0,EF,
118493667,02104136,true,Rx,0,8,BB,00,3F,FF,06,E0,00,00,
118493938,02804026,true,Rx,0,8,B7,E7,78,00,F7,63,3D,FD,
118494225,02C00020,true,Rx,0,8,00,00,00,00,00,02,75,81,
118494504,19A00002,true,Rx,0,8,12,C8,2C,39,AB,22,00,F7,
118496781,00800006,true,Rx,0,8,0A,1B,0E,0A,42,1B,2E,74,
118497061,0090411E,true,Rx,0,8,01,FF,E2,C4,0E,00,00,00,
118497342,0300410E,true,Rx,0,8,B8,10,B8,2A,88,2C,FC,01,
118497621,0340412E,true,Rx,0,8,32,80,00,40,80,00,00,9F,
118497912,03800006,true,Rx,0,8,18,00,DE,61,0E,22,04,01,
118502610,0100082C,true,Rx,0,8,00,C0,84,E8,76,18,00,00,
118502887,0110483C,true,Rx,0,8,08,E7,62,00,44,66,FC,52,
118506758,0300410E,true,Rx,0,8,B8,10,38,2A,88,2D,FC,01,
118507087,01C04026,true,Rx,0,8,80,00,80,00,80,00,80,00,
118507367,02000026,true,Rx,0,8,7E,34,00,FC,4C,01,E0,EF,
118507657,02104136,true,Rx,0,8,BB,00,3F,FF,06,E0,00,00,
118507928,02804026,true,Rx,0,8,B7,E7,77,FF,F7,63,3D,FD,
118508218,02C00020,true,Rx,0,8,00,00,00,00,00,02,75,81,
118508507,0340412E,true,Rx,0,8,33,80,00,30,80,00,00,9F,
118508788,19000026,true,Rx,0,8,00,FF,01,40,38,11,8E,00,
118512476,0100082C,true,Rx,0,8,00,C0,84,E8,66,18,00,00,
118512763,0110483C,true,Rx,0,8,08,E7,62,00,44,66,FC,52,
118516771,00800006,true,Rx,0,8,42,1B,0E,0A,42,1B,AE,74,
118517047,0090411E,true,Rx,0,8,C1,FF,62,C4,0E,00,00,00,
118517338,0300410E,true,Rx,0,8,38,10,38,2A,08,2D,6C,01,
118517617,0340412E,true,Rx,0,8,34,80,00,20,80,00,00,9F,
118517899,03800006,true,Rx,0,8,58,00,DE,61,0E,22,04,01,
118521079,01C04026,true,Rx,0,8,80,00,80,00,80,00,80,00,
118521365,02000026,true,Rx,0,8,7E,34,00,FC,4C,01,E0,EF,
118521644,02104136,true,Rx,0,8,BB,00,3F,FF,06,E0,00,00,
118521926,02804026,true,Rx,0,8,B7,E7,77,FE,F3,63,3D,FD,
118522216,02C00020,true,Rx,0,8,00,00,00,00,00,02,75,81,
118522506,19000026,true,Rx,0,8,00,FF,01,40,38,11,86,00,
118522786,0100082C,true,Rx,0,8,00,C0,84,E8,66,18,00,00,
118523066,0110483C,true,Rx,0,8,08,E7,62,00,44,66,FC,52,
118523335,19A00002,true,Rx,0,8,02,C8,2C,39,AB,22,00,F7,
118523635,1B200002,true,Rx,0,8,00,00,00,00,00,00,0F,73,
118526797,0300410E,true,Rx,0,8,B8,0F,B8,2A,88,2D,FC,01,
118527088,19E00006,true,Rx,0,8,00,0D,18,E0,83,00,C0,00,
118527367,0340412E,true,Rx,0,8,35,80,00,10,80,00,00,9F,
118532399,0100082C,true,Rx,0,8,00,C0,84,E8,66,18,00,00,
118532686,0110483C,true,Rx,0,8,08,E7,E2,00,44,66,FC,52,
118535013,01C04026,true,Rx,0,8,80,00,80,00,80,00,80,00,
118535303,02000026,true,Rx,0,8,7E,34,00,FC,4C,01,E0,EF,
118535583,02104136,true,Rx,0,8,BB,00,3F,FF,06,E0,00,00,
118535862,02804026,true,Rx,0,8,B7,E7,77,FF,F7,63,3D,FD,
118536153,02C00020,true,Rx,0,8,00,00,00,00,00,02,75,81,
118536818,00800006,true,Rx,0,8,8A,1F,0E,0A,42,1F,2E,74,
118537100,0090411E,true,Rx,0,8,01,FD,E2,BE,0E,00,00,00,
118537379,0300410E,true,Rx,0,8,B8,10,38,2A,88,32,FC,01,
118537669,0340412E,true,Rx,0,8,36,80,00,00,80,00,00,9F,
118537951,03800006,true,Rx,0,8,18,00,DE,61,0E,22,04,01,
118538240,19000026,true,Rx,0,8,00,FF,01,40,38,11,86,00,
118542599,0100082C,true,Rx,0,8,00,C0,84,E8,66,18,00,00,
118542874,0110483C,true,Rx,0,8,08,E7,62,00,44,66,FC,52,
118546798,0300410E,true,Rx,0,8,38,10,38,2A,08,32,6C,01,
118547240,0340412E,true,Rx,0,8,37,80,00,F0,80,00,00,9F,
118549092,01C04026,true,Rx,0,8,80,00,80,00,80,00,80,00,
118549373,02000026,true,Rx,0,8,7E,34,00,FC,4C,01,E0,EF,
118549663,02104136,true,Rx,0,8,BB,00,3F,FF,06,E0,00,00,
118549933,02804026,true,Rx,0,8,B7,E7,77,FF,F7,63,3D,FD,
118550224,02C00020,true,Rx,0,8,00,00,00,00,00,02,75,81,
118550503,19A00002,true,Rx,0,8,12,C8,2C,39,AB,22,00,F7,
118552119,19000026,true,Rx,0,8,00,FF,01,40,38,11,8E,00,
118552595,0100082C,true,Rx,0,8,00,C0,84,E8,66,18,00,00,
118552885,0110483C,true,Rx,0,8,08,E7,62,00,44,66,FC,52,
118556807,00800006,true,Rx,0,8,CA,1E,0E,0A,42,1E,2E,74,
118557095,0090411E,true,Rx,0,8,02,01,E2,C1,0E,00,00,00,
118557374,0300410E,true,Rx,0,8,B8,10,B8,2A,88,32,FC,01,
118557654,0340412E,true,Rx,0,8,38,80,00,E0,80,00,00,9F,
118557935,03800006,true,Rx,0,8,18,00,DE,61,0E,22,04,01,
118562523,0100082C,true,Rx,0,8,00,C0,84,E8,66,18,00,00,
118562809,0110483C,true,Rx,0,8,08,E7,62,00,44,66,FC,52,
118563110,01C04026,true,Rx,0,8,80,00,80,00,80,00,80,00,
118563401,02000026,true,Rx,0,8,7E,34,00,FC,4C,01,E0,EF,
118563680,02104136,true,Rx,0,8,BB,00,3F,FF,06,E0,00,00,
118563960,02804026,true,Rx,0,8,B7,E7,77,FF,F3,63,3D,FD,
118564241,02C00020,true,Rx,0,8,00,00,00,00,00,02,75,81,
118566846,0300410E,true,Rx,0,8,38,10,38,2A,08,32,6C,01,
118567257,0340412E,true,Rx,0,8,39,80,00,D0,80,00,00,9F,
118567537,19000026,true,Rx,0,8,00,FF,01,40,38,11,86,00,
118569124,1BA0493C,true,Rx,0,8,0A,01,01,01,01,02,06,01,
118569415,1BE0493C,true,Rx,0,8,05,00,00,00,00,00,07,8F,
118572402,0100082C,true,Rx,0,8,00,C0,84,E8,66,18,00,00,
118572672,0110483C,true,Rx,0,8,08,E7,62,00,44,66,FC,52,
118576825,00800006,true,Rx,0,8,02,1A,0E,0A,42,1A,AE,74,
118577113,0090411E,true,Rx,0,8,42,01,62,C1,0E,00,00,00,
118577403,01C04026,true,Rx,0,8,80,00,80,00,80,00,80,00,
118577682,02000026,true,Rx,0,8,7E,34,00,FC,4C,01,E0,EF,
118577964,02104136,true,Rx,0,8,BB,00,3F,FF,06,E0,00,00,
118578243,02804026,true,Rx,0,8,B7,E7,77,FF,F7,63,3D,FD,
118578533,02C00020,true,Rx,0,8,00,00,00,00,00,02,75,81,
118578813,0300410E,true,Rx,0,8,B8,10,38,2A,88,2B,FC,01,
118579092,0340412E,true,Rx,0,8,3A,80,00,C0,80,00,00,9F,
118579372,03800006,true,Rx,0,8,18,00,DE,61,0E,22,04,01,
118579652,19A00002,true,Rx,0,8,6E,C8,2C,39,AB,22,00,F7,
118579932,19E00006,true,Rx,0,8,00,0D,18,C0,83,00,C0,00,
118582131,19000026,true,Rx,0,8,00,FF,01,40,38,11,8E,00,
118582751,0100082C,true,Rx,0,8,00,C0,84,E8,66,18,00,00,
118583030,0110483C,true,Rx,0,8,08,E7,E2,00,44,66,FC,52,
118586839,0300410E,true,Rx,0,8,B8,10,B8,2A,88,2B,FC,01,
118587302,0340412E,true,Rx,0,8,3B,80,00,B0,80,00,00,9F,
118591103,01C04026,true,Rx,0,8,80,00,80,00,80,00,80,00,
118591378,02000026,true,Rx,0,8,7E,34,00,FC,4C,01,E0,EF,
118591669,02104136,true,Rx,0,8,BB,00,3F,FF,06,E0,00,00,
118591949,02804026,true,Rx,0,8,B7,E7,77,FF,F7,63,3D,FD,
118592239,02C00020,true,Rx,0,8,00,00,00,00,00,02,75,81,
118592911,0100082C,true,Rx,0,8,00,C0,84,E8,76,18,00,00,
118593196,0110483C,true,Rx,0,8,08,E7,62,00,44,66,FC,52,
118596860,00800006,true,Rx,0,8,4A,1A,0E,0A,42,1A,2E,74,
118597142,0090411E,true,Rx,0,8,02,01,E2,C1,0E,00,00,00,
118597430,0300410E,true,Rx,0,8,38,10,38,2A,08,2B,6C,01,
118597709,0340412E,true,Rx,0,8,3C,80,00,A0,80,00,00,9F,
118598001,03800006,true,Rx,0,8,18,00,DE,61,0E,22,04,01,
118598280,19000026,true,Rx,0,8,00,FF,01,40,38,11,86,00,
118602621,0100082C,true,Rx,0,8,00,C0,84,E8,66,18,00,00,
118602897,0110483C,true,Rx,0,8,08,E7,62,00,44,66,FC,52,
118605100,01C04026,true,Rx,0,8,80,00,80,00,80,00,80,00,
118605379,02000026,true,Rx,0,8,7E,34,00,FC,4C,01,E0,EF,
118605660,02104136,true,Rx,0,8,BB,00,3F,FF,06,E0,00,00,
118605940,02804026,true,Rx,0,8,B7,E7,78,00,F7,63,3D,FD,
118606231,02C00020,true,Rx,0,8,00,00,00,00,00,02,75,81,
118606500,19A00002,true,Rx,0,8,12,C8,2C,39,AB,22,00,F7,
118606890,0300410E,true,Rx,0,8,B8,10,38,2A,88,28,FC,01,
118607242,0340412E,true,Rx,0,8,3D,80,00,90,80,00,00,9F,
118607717,1B200002,true,Rx,0,8,00,00,00,00,00,00,0F,73,
118612130,19000026,true,Rx,0,8,00,FF,01,40,38,11,8E,00,
118612416,0100082C,true,Rx,0,8,00,C0,84,E8,66,18,00,00,
118612696,0110483C,true,Rx,0,8,08,E7,62,00,44,66,FC,52,
118616872,00800006,true,Rx,0,8,8A,18,0E,0A,42,18,AE,74,
118617150,0090411E,true,Rx,0,8,42,01,E2,C4,0E,00,00,00,
118617429,0300410E,true,Rx,0,8,B8,10,B8,2A,88,27,FC,01,
118617719,0340412E,true,Rx,0,8,3E,80,00,80,80,00,00,9F,
118618000,03800006,true,Rx,0,8,18,00,DE,61,0E,22,04,01,
118619127,01C04026,true,Rx,0,8,80,00,80,00,80,00,80,00,
118619407,02000026,true,Rx,0,8,7E,34,00,FC,4C,01,E0,EF,
118619687,02104136,true,Rx,0,8,BB,00,3F,FF,06,E0,00,00,
118619967,02804026,true,Rx,0,8,B7,E7,78,00,F7,63,3D,FD,
118620258,02C00020,true,Rx,0,8,00,00,00,00,00,02,75,81,
118622664,0100082C,true,Rx,0,8,00,C0,84,E8,66,18,00,00,
118622945,0110483C,true,Rx,0,8,08,E7,62,00,44,66,FC,52,
118626881,0300410E,true,Rx,0,8,38,10,38,2A,08,27,6C,01,
118627167,19E00006,true,Rx,0,8,00,0D,18,E0,83,00,C0,00,
118627447,0340412E,true,Rx,0,8,3F,80,00,70,80,00,00,9F,
118627737,19000026,true,Rx,0,8,00,FF,01,40,38,11,86,00,
118632488,0100082C,true,Rx,0,8,00,C0,84,E8,66,18,00,00,
118632774,0110483C,true,Rx,0,8,08,E7,E2,00,44,66,FC,52,
118633075,01C04026,true,Rx,0,8,80,00,80,00,80,00,80,00,
118633355,02000026,true,Rx,0,8,7E,34,00,FC,4C,01,E0,EF,
118633645,02104136,true,Rx,0,8,BB,00,3F,FF,06,E0,00,00,
118633917,02804026,true,Rx,0,8,B7,E7,78,00,F7,63,3D,FD,
118634207,02C00020,true,Rx,0,8,00,00,00,00,00,02,75,81,
118634486,19A00002,true,Rx,0,8,02,C8,2C,39,AB,22,00,F7,
118636910,00800006,true,Rx,0,8,C2,18,0E,0A,42,18,2E,74,
118637197,0090411E,true,Rx,0,8,82,01,62,C4,0E,00,00,00,
118637477,0300410E,true,Rx,0,8,B8,10,38,2A,88,27,FC,01,
118637757,0340412E,true,Rx,0,8,30,80,00,60,80,00,00,9F,
118638037,03800006,true,Rx,0,8,58,00,DE,61,0E,22,04,01,
118638327,1B600002,true,Rx,0,8,00,80,00,1C,02,1C,4C,00,
118642122,19000026,true,Rx,0,8,00,FF,01,40,38,11,8E,00,
118642635,0100082C,true,Rx,0,8,00,C0,84,E8,66,18,00,00,
118642915,0110483C,true,Rx,0,8,08,E7,62,00,44,66,FC,52,
118646906,0300410E,true,Rx,0,8,38,10,B8,2A,08,27,6C,01,
118647193,01C04026,true,Rx,0,8,80,00,80,00,80,00,80,00,
118647483,02000026,true,Rx,0,8,7E,34,00,FC,4C,01,E0,EF,
118647763,02104136,true,Rx,0,8,BB,00,3F,FF,06,E0,00,00,
118648044,02804026,true,Rx,0,8,B7,E7,78,00,F7,63,3D,FD,
118648333,02C00020,true,Rx,0,8,00,00,00,00,00,02,75,81,
118648614,0340412E,true,Rx,0,8,31,80,00,50,80,00,00,9F,
118652567,0100082C,true,Rx,0,8,00,C0,84,E8,66,18,00,00,
118652843,0110483C,true,Rx,0,8,08,E7,62,00,44,66,FC,52,
118656904,00800006,true,Rx,0,8,0A,15,0E,0A,42,15,2E,75,
118657189,0090411E,true,Rx,0,8,02,03,E2,CB,0E,00,00,00,
118657469,0300410E,true,Rx,0,8,B8,10,38,2A,88,23,FC,01,
118657749,0340412E,true,Rx,0,8,32,80,00,40,80,00,00,9F,
118658030,03800006,true,Rx,0,8,18,00,DE,61,0E,22,04,01,
118658319,19000026,true,Rx,0,8,00,FF,01,40,38,11,86,00,
118661099,01C04026,true,Rx,0,8,80,00,80,00,80,00,80,00,
118661374,02000026,true,Rx,0,8,7E,34,00,FC,4C,01,E0,EF,
118661665,02104136,true,Rx,0,8,BB,00,3F,FF,06,E0,00,00,
118661935,02804026,true,Rx,0,8,B7,E7,78,00,F7,63,3D,FD,
118662225,02C00020,true,Rx,0,8,00,00,00,00,00,02,75,81,
118662505,19A00002,true,Rx,0,8,12,C8,2C,39,AB,22,00,F7,
118662784,0100082C,true,Rx,0,8,00,C0,84,E8,66,18,00,00,
118663066,0110483C,true,Rx,0,8,08,E7,62,00,44,66,FC,52,
118663354,1AE0092C,true,Rx,0,8,40,00,22,E0,41,A0,00,00,
118663634,1B700030,true,Rx,0,8,6C,91,22,00,22,C0,03,00,
118666943,0300410E,true,Rx,0,8,B8,10,38,2B,88,23,FC,01,
118667249,0340412E,true,Rx,0,8,33,80,00,30,80,00,00,9F,
118672136,19000026,true,Rx,0,8,00,FF,01,40,38,11,86,00,
118672948,0100082C,true,Rx,0,8,00,C0,84,E8,66,18,00,00,
118673218,0110483C,true,Rx,0,8,08,E7,62,00,44,66,FC,52,
118675103,01C04026,true,Rx,0,8,80,00,80,00,80,00,80,00,
118675384,02000026,true,Rx,0,8,7E,34,00,FC,4C,01,E0,EF,
118675663,02104136,true,Rx,0,8,BB,00,3F,FF,06,E0,00,00,
118675944,02804026,true,Rx,0,8,B7,E7,78,00,F7,63,3D,FD,
118676237,02C00020,true,Rx,0,8,00,00,00,00,00,02,75,81,
118676960,00800006,true,Rx,0,8,4A,15,0E,0A,42,15,AE,75,
118677240,0090411E,true,Rx,0,8,42,03,E2,CB,0E,00,00,00,
118677519,0300410E,true,Rx,0,8,38,10,B8,2B,08,23,6C,01,
118677799,0340412E,true,Rx,0,8,34,80,00,20,80,00,00,9F,
118678080,03800006,true,Rx,0,8,18,00,DE,61,0E,22,04,01,
118678366,19E00006,true,Rx,0,8,00,0D,18,C0,83,00,C0,00,
118682601,0100082C,true,Rx,0,8,00,C0,84,E8,76,18,00,00,
118682877,0110483C,true,Rx,0,8,08,E7,E2,00,44,66,FC,52,
118686938,0300410E,true,Rx,0,8,B8,0E,38,2B,88,23,FC,01,
118687244,0340412E,true,Rx,0,8,35,80,00,10,80,00,00,9F,
118687523,19000026,true,Rx,0,8,00,FF,01,40,38,11,8E,00,
118689100,01C04026,true,Rx,0,8,80,00,80,00,80,00,80,00,
118689381,02000026,true,Rx,0,8,7E,34,00,FC,4C,01,E0,EF,
118689670,02104136,true,Rx,0,8,BB,00,3F,FF,06,E0,00,00,
118689942,02804026,true,Rx,0,8,B7,E7,77,FF,F3,63,3D,FD,
118690231,02C00020,true,Rx,0,8,00,00,00,00,00,02,75,81,
118690511,19A00002,true,Rx,0,8,6E,C8,2C,39,AB,22,00,F7,
118692602,1B200002,true,Rx,0,8,00,00,00,00,00,00,0F,73,
118692882,0100082C,true,Rx,0,8,00,C0,84,E8,66,18,00,00,
118693161,0110483C,true,Rx,0,8,08,E7,62,00,44,66,FC,52,
118696950,00800006,true,Rx,0,8,82,16,0E,09,42,16,2E,74,
118697236,0090411E,true,Rx,0,8,02,03,62,CB,0E,00,00,00,
118697505,0300410E,true,Rx,0,8,B8,0E,38,2B,88,23,FC,01,
118697796,0340412E,true,Rx,0,8,36,80,00,00,80,00,00,9F,
118698076,03800006,true,Rx,0,8,18,00,DE,61,0E,22,04,01,
118702136,19000026,true,Rx,0,8,00,FF,01,40,38,11,86,00,
118702577,0100082C,true,Rx,0,8,00,C0,84,E8,66,18,00,00,
118702856,0110483C,true,Rx,0,8,08,E7,62,00,44,66,FC,52,
118703148,01C04026,true,Rx,0,8,80,00,80,00,80,00,80,00,
118703427,02000026,true,Rx,0,8,7E,34,00,FC,4C,01,E0,EF,
118703706,02104136,true,Rx,0,8,BB,00,3F,FF,06,E0,00,00,
118703989,02804026,true,Rx,0,8,B7,E7,77,FF,F7,63,3D,FD,
118704275,02C00020,true,Rx,0,8,00,00,00,00,00,02,75,81,
118706985,0300410E,true,Rx,0,8,38,0E,B8,2B,08,23,6C,01,
118707275,0340412E,true,Rx,0,8,37,80,00,F0,80,00,00,9F,
118712399,0100082C,true,Rx,0,8,00,C0,84,E8,66,18,00,00,
118712684,0110483C,true,Rx,0,8,08,E7,62,00,44,66,FC,52,
118716963,00800006,true,Rx,0,8,CA,1B,0E,09,42,1B,AE,74,
118717248,0090411E,true,Rx,0,8,C1,FE,E2,C7,0E,00,00,00,
118717538,01C04026,true,Rx,0,8,80,00,80,00,80,00,80,00,
118717818,02000026,true,Rx,0,8,7E,34,00,FC,4C,01,E0,EF,
118718099,02104136,true,Rx,0,8,BB,00,3F,FF,06,E0,00,00,
118718379,02804026,true,Rx,0,8,B7,E7,77,FF,F7,63,3D,FD,
118718669,02C00020,true,Rx,0,8,00,00,00,00,00,02,75,81,
118718939,0300410E,true,Rx,0,8,B8,0E,38,2C,88,2C,FC,01,
118719228,0340412E,true,Rx,0,8,38,80,00,E0,80,00,00,9F,
118719508,03800006,true,Rx,0,8,58,00,DE,61,0E,22,04,01,
118719797,19000026,true,Rx,0,8,00,FF,01,40,38,11,8E,00,
118720069,19A00002,true,Rx,0,8,12,C8,2C,39,AB,22,00,F7,
118722802,0100082C,true,Rx,0,8,00,C0,84,E8,66,18,00,00,
118723080,0110483C,true,Rx,0,8,08,E7,62,00,44,66,FC,52,
118726974,0300410E,true,Rx,0,8,38,0E,38,2C,08,2C,6C,01,
118727260,19E00006,true,Rx,0,8,00,0D,18,E0,83,00,C0,00,
118727551,0340412E,true,Rx,0,8,39,80,00,D0,80,00,00,9F,
118731095,01C04026,true,Rx,0,8,80,00,80,00,80,00,80,00,
118731380,02000026,true,Rx,0,8,7E,34,00,FC,4C,01,E0,EF,
118731661,02104136,true,Rx,0,8,BB,00,3F,FF,06,E0,00,00,
118731941,02804026,true,Rx,0,8,B7,E7,77,FF,F3,63,3D,FD,
118732232,02C00020,true,Rx,0,8,00,00,00,00,00,02,75,81,
118732511,19000026,true,Rx,0,8,00,FF,01,40,38,11,86,00,
118732801,0100082C,true,Rx,0,8,00,C0,84,E8,66,18,00,00,
118733083,0110483C,true,Rx,0,8,08,E7,E2,00,44,66,FC,52,
118737010,00800006,true,Rx,0,8,0A,1B,0E,09,42,1B,2E,74,
118737295,0090411E,true,Rx,0,8,01,FF,E2,C5,0E,00,00,00,
118737566,0300410E,true,Rx,0,8,B8,0E,B8,2C,88,2C,FC,01,
118737855,0340412E,true,Rx,0,8,3A,80,00,C0,80,00,00,9F,
118738136,03800006,true,Rx,0,8,18,00,DE,61,0E,22,04,01,
118742570,0100082C,true,Rx,0,8,00,C0,84,E8,66,18,00,00,
118742845,0110483C,true,Rx,0,8,08,E7,62,00,44,66,FC,52,
118745131,01C04026,true,Rx,0,8,80,00,80,00,80,00,80,00,
118745422,02000026,true,Rx,0,8,7E,34,00,FC,4C,01,E0,EF,
118745701,02104136,true,Rx,0,8,BB,00,3F,FF,06,E0,00,00,
118745983,02804026,true,Rx,0,8,B7,E7,77,FF,F7,63,3D,FD,
118746272,02C00020,true,Rx,0,8,00,00,00,00,00,02,75,81,
118746541,19A00002,true,Rx,0,8,02,C8,2C,39,AB,22,00,F7,
118747025,0300410E,true,Rx,0,8,B8,0E,38,2C,88,2C,FC,01,
118747304,0340412E,true,Rx,0,8,3B,80,00,B0,80,00,00,9F,
118747595,19000026,true,Rx,0,8,00,FF,01,40,38,11,86,00,
118752585,0100082C,true,Rx,0,8,00,C0,84,E8,66,18,00,00,
118752861,0110483C,true,Rx,0,8,08,E7,62,00,44,66,FC,52,
118757242,00800006,true,Rx,0,8,42,1B,0E,09,42,1B,2E,74,
118757529,0090411E,true,Rx,0,8,01,FF,62,C5,0E,00,00,00,
118757798,0300410E,true,Rx,0,8,38,0E,38,2C,08,2C,6C,01,
118758088,0340412E,true,Rx,0,8,3C,80,00,A0,80,00,00,9F,
118758369,03800006,true,Rx,0,8,18,00,DE,61,0E,22,04,01,
118759123,01C04026,true,Rx,0,8,80,00,80,00,80,00,80,00,
118759407,02000026,true,Rx,0,8,7E,34,00,FC,4C,01,E0,EF,
118759686,02104136,true,Rx,0,8,BB,00,3F,FF,06,E0,00,00,
118759968,02804026,true,Rx,0,8,B7,E7,77,FF,F7,63,3D,FD,
118760258,02C00020,true,Rx,0,8,00,00,00,00,00,02,75,81,
118762138,19000026,true,Rx,0,8,00,FF,01,40,38,11,8E,00,
118762664,0100082C,true,Rx,0,8,00,C0,84,E8,66,18,00,00,
118762945,0110483C,true,Rx,0,8,08,E7,62,00,44,66,FC,52,
118767027,0300410E,true,Rx,0,8,B8,0E,B8,2B,88,2C,FC,01,
118767323,0340412E,true,Rx,0,8,3D,80,00,90,80,00,00,9F,
118768633,1A200020,true,Rx,0,8,CF,00,9E,3E,00,6A,02,3E,
118772423,0100082C,true,Rx,0,8,00,C0,84,E8,76,18,00,00,
118772708,0110483C,true,Rx,0,8,08,E7,62,00,44,66,FC,52,
118773123,01C04026,true,Rx,0,8,80,00,80,00,80,00,80,00,
118773403,02000026,true,Rx,0,8,7E,34,00,FC,4C,01,E0,EF,
118773683,02104136,true,Rx,0,8,BB,00,3F,FF,06,E0,00,00,
118773963,02804026,true,Rx,0,8,B7,E7,77,FF,F7,63,3D,FD,
118774253,02C00020,true,Rx,0,8,00,00,00,00,00,02,75,81,
118774530,19A00002,true,Rx,0,8,12,C8,2C,39,AB,22,00,F7,
118777053,00800006,true,Rx,0,8,8A,18,0E,08,42,18,AE,74,
118777332,0090411E,true,Rx,0,8,42,01,E2,C8,0E,00,00,00,
118777602,0300410E,true,Rx,0,8,B8,0D,38,2B,88,27,FC,01,
118777893,0340412E,true,Rx,0,8,3E,80,00,80,80,00,00,9F,
118778172,03800006,true,Rx,0,8,18,00,DE,61,0E,22,04,01,
118778463,19000026,true,Rx,0,8,00,FF,01,40,38,11,86,00,
118778749,19E00006,true,Rx,0,8,00,0D,18,C0,83,00,C0,00,
118779041,1B200002,true,Rx,0,8,00,00,00,00,00,00,0F,73,
118782657,0100082C,true,Rx,0,8,00,C0,84,E8,66,18,00,00,
118782935,0110483C,true,Rx,0,8,08,E7,E2,00,44,66,FC,52,
118787035,0300410E,true,Rx,0,8,38,0D,38,2B,08,27,6C,01,
118787331,01C04026,true,Rx,0,8,80,00,80,00,80,00,80,00,
118787612,02000026,true,Rx,0,8,7E,34,00,FC,4C,01,E0,EF,
118787892,02104136,true,Rx,0,8,BB,00,3F,FF,06,E0,00,00,
118788171,02804026,true,Rx,0,8,B7,E7,77,FF,F7,63,3D,FD,
118788462,02C00020,true,Rx,0,8,00,00,00,00,00,02,75,81,
118788741,0340412E,true,Rx,0,8,3F,80,00,70,80,00,00,9F,
118792137,19000026,true,Rx,0,8,00,FF,01,40,38,11,8E,00,
118792577,0100082C,true,Rx,0,8,00,C0,84,E8,66,18,00,00,
118792857,0110483C,true,Rx,0,8,08,E7,62,00,44,66,FC,52,
118797057,00800006,true,Rx,0,8,CA,18,0E,08,42,18,2E,74,
118797343,0090411E,true,Rx,0,8,02,01,E2,C8,0E,00,00,00,
118797613,0300410E,true,Rx,0,8,B8,0D,B8,2B,88,27,FC,01,
118797904,0340412E,true,Rx,0,8,30,80,00,60,80,00,00,9F,
118798183,03800006,true,Rx,0,8,18,00,DE,61,0E,22,04,01,
118801103,01C04026,true,Rx,0,8,80,00,80,00,80,00,80,00,
118801390,02000026,true,Rx,0,8,7E,34,00,FC,4C,01,E0,EF,
118801670,02104136,true,Rx,0,8,BB,00,3F,FF,06,E0,00,00,
118801950,02804026,true,Rx,0,8,B7,E7,78,00,F7,63,3D,FD,
118802241,02C00020,true,Rx,0,8,00,00,00,00,00,02,75,81,
118802510,19A00002,true,Rx,0,8,6E,C8,2C,39,AB,22,00,F7,
118802799,0100082C,true,Rx,0,8,00,C0,84,E8,66,18,00,00,
118803071,0110483C,true,Rx,0,8,08,E7,62,00,44,66,FC,52,
118807062,0300410E,true,Rx,0,8,38,0D,38,2B,08,27,6C,01,
118807348,0340412E,true,Rx,0,8,31,80,00,50,80,00,00,9F,
118807638,19000026,true,Rx,0,8,00,FF,01,40,38,11,86,00,
118807919,1B600002,true,Rx,0,8,00,80,00,0C,02,1C,4C,00,
118812544,0100082C,true,Rx,0,8,00,C0,84,E8,66,18,00,00,
118812821,0110483C,true,Rx,0,8,08,E7,62,00,44,66,FC,52,
118815086,01C04026,true,Rx,0,8,80,00,80,00,80,00,80,00,
118815377,02000026,true,Rx,0,8,7E,34,00,FC,4C,01,E0,EF,
118815656,02104136,true,Rx,0,8,BB,00,3F,FF,06,E0,00,00,
118815938,02804026,true,Rx,0,8,B7,E7,77,FF,F7,63,3D,FD,
118816227,02C00020,true,Rx,0,8,00,00,00,00,00,02,75,81,
118817089,00800006,true,Rx,0,8,02,17,0E,08,42,17,AE,75,
118817368,0090411E,true,Rx,0,8,C2,01,62,C8,0E,00,00,00,
118817649,0300410E,true,Rx,0,8,B8,0D,38,2C,88,26,FC,01,
118817929,0340412E,true,Rx,0,8,32,80,00,40,80,00,00,9F,
118818210,03800006,true,Rx,0,8,58,00,DE,61,0E,22,04,01,
118818489,1BA0493C,true,Rx,0,8,0B,01,01,01,02,03,03,01,
118822145,19000026,true,Rx,0,8,00,FF,01,40,38,11,8E,00,
118822605,0100082C,true,Rx,0,8,00,C0,84,E8,66,18,00,00,
118822887,0110483C,true,Rx,0,8,08,E7,62,00,44,66,FC,52,
118827086,0300410E,true,Rx,0,8,B8,0E,B8,2C,88,26,FC,01,
118827361,0340412E,true,Rx,0,8,33,80,00,30,80,00,00,9F,
118827652,19E00006,true,Rx,0,8,00,0D,18,E0,83,00,C0,00,
118829118,01C04026,true,Rx,0,8,80,00,80,00,80,00,80,00,
118829397,02000026,true,Rx,0,8,7E,34,00,FC,4C,01,E0,EF,
118829687,02104136,true,Rx,0,8,BB,00,3F,FF,06,E0,00,00,
118829958,02804026,true,Rx,0,8,B7,E7,78,00,F7,63,3D,FD,
118830248,02C00020,true,Rx,0,8,00,00,00,00,00,02,75,81,
118830528,19A00002,true,Rx,0,8,12,C8,2C,39,AB,22,00,F7,
118832574,0100082C,true,Rx,0,8,00,C0,84,E8,66,18,00,00,
118832855,0110483C,true,Rx,0,8,08,E7,E2,00,44,66,FC,52,
118837090,00800006,true,Rx,0,8,4A,17,0E,08,42,17,2E,75,
118837366,0090411E,true,Rx,0,8,02,02,E2,CE,0E,00,00,00,
118837646,0300410E,true,Rx,0,8,38,0E,38,2C,08,26,6C,01,
118837937,0340412E,true,Rx,0,8,34,80,00,20,80,00,00,9F,
118838218,03800006,true,Rx,0,8,18,00,DE,61,0E,22,04,01,
118838507,19000026,true,Rx,0,8,00,FF,01,40,38,11,86,00,
118842603,0100082C,true,Rx,0,8,00,C0,84,E8,66,18,00,00,
118842881,0110483C,true,Rx,0,8,08,E7,62,00,44,66,FC,52,
118843171,01C04026,true,Rx,0,8,80,00,80,00,80,00,80,00,
118843450,02000026,true,Rx,0,8,7E,34,00,FC,4C,01,E0,EF,
118843741,02104136,true,Rx,0,8,BB,00,3F,FF,06,E0,00,00,
118844011,02804026,true,Rx,0,8,B7,E7,78,00,F7,63,3D,FD,
118844301,02C00020,true,Rx,0,8,00,00,00,00,00,02,75,81,
118847125,0300410E,true,Rx,0,8,B8,0E,38,2C,88,23,FC,01,
118847402,0340412E,true,Rx,0,8,35,80,00,10,80,00,00,9F,
118852135,19000026,true,Rx,0,8,00,FF,01,40,38,11,8E,00,
118852503,0100082C,true,Rx,0,8,00,C0,84,E8,66,18,00,00,
118852783,0110483C,true,Rx,0,8,08,E7,62,00,44,66,FC,52,
118857035,01C04026,true,Rx,0,8,80,00,80,00,80,00,80,00,
118857310,00800006,true,Rx,0,8,8A,1A,0E,08,42,1A,2E,75,
118857590,0090411E,true,Rx,0,8,01,FE,E2,CA,0E,00,00,00,
118857870,02000026,true,Rx,0,8,7E,34,00,FC,4C,01,E0,EF,
118858162,02104136,true,Rx,0,8,BB,00,3F,FF,06,E0,00,00,
118858431,02804026,true,Rx,0,8,B7,E7,78,00,F7,63,3D,FD,
118858720,02C00020,true,Rx,0,8,00,00,00,00,00,02,75,81,
118859002,0300410E,true,Rx,0,8,B8,0D,B8,2C,88,2B,FC,01,
118859290,0340412E,true,Rx,0,8,36,80,00,00,80,00,00,9F,
118859569,03800006,true,Rx,0,8,18,00,DE,61,0E,22,04,01,
118859839,19A00002,true,Rx,0,8,02,C8,2C,39,AB,22,00,F7,
118862685,1B200002,true,Rx,0,8,00,00,00,00,00,00,0F,73,
118862966,0100082C,true,Rx,0,8,00,C0,84,E8,76,18,00,00,
118863244,0110483C,true,Rx,0,8,08,E7,62,00,44,66,FC,52,
118867118,0300410E,true,Rx,0,8,38,0D,38,2C,08,2B,6C,01,
118867404,0340412E,true,Rx,0,8,37,80,00,F0,80,00,00,9F,
118867694,19000026,true,Rx,0,8,00,FF,01,40,38,11,86,00,
118871084,01C04026,true,Rx,0,8,80,00,80,00,80,00,80,00,
118871371,02000026,true,Rx,0,8,7E,34,00,FC,4C,01,E0,EF,
118871650,02104136,true,Rx,0,8,BB,00,3F,FF,06,E0,00,00,
118871931,02804026,true,Rx,0,8,B7,E7,78,00,F7,63,3D,FD,
118872221,02C00020,true,Rx,0,8,00,00,00,00,00,02,75,81,
118872562,0100082C,true,Rx,0,8,00,C0,84,E8,66,18,00,00,
118872833,0110483C,true,Rx,0,8,08,E7,62,00,44,66,FC,52,
118873113,1B700030,true,Rx,0,8,7C,91,22,00,22,C0,03,00,
118877143,00800006,true,Rx,0,8,C2,1A,0E,08,42,1A,AE,75,
118877419,0090411E,true,Rx,0,8,41,FE,62,CA,0E,00,00,00,
118877699,0300410E,true,Rx,0,8,B8,0D,38,2C,88,2B,FC,01,
118877989,0340412E,true,Rx,0,8,38,80,00,E0,80,00,00,9F,
118878270,03800006,true,Rx,0,8,18,00,DE,61,0E,22,04,01,
118878549,19E00006,true,Rx,0,8,00,0D,18,C0,83,00,C0,00,
118882148,19000026,true,Rx,0,8,00,FF,01,40,38,11,86,00,
118882577,0100082C,true,Rx,0,8,00,C0,84,E8,66,18,00,00,
118882858,0110483C,true,Rx,0,8,08,E7,E2,00,44,66,FC,52,
118885115,01C04026,true,Rx,0,8,80,00,80,00,80,00,80,00,
118885394,02000026,true,Rx,0,8,7E,34,00,FC,4C,01,E0,EF,
118885684,02104136,true,Rx,0,8,BB,00,3F,FF,06,E0,00,00,
118885955,02804026,true,Rx,0,8,B7,E7,78,00,F7,63,3D,FD,
118886247,02C00020,true,Rx,0,8,00,00,00,00,00,02,75,81,
118886516,19A00002,true,Rx,0,8,12,C8,2C,39,AB,22,00,F7,
118887168,0300410E,true,Rx,0,8,38,0D,B8,2C,08,2B,6C,01,
118887459,0340412E,true,Rx,0,8,39,80,00,D0,80,00,00,9F,
118892390,0100082C,true,Rx,0,8,00,C0,84,E8,66,18,00,00,
118892665,0110483C,true,Rx,0,8,08,E7,62,00,44,66,FC,52,
118897152,00800006,true,Rx,0,8,0A,1C,0E,08,42,1C,2E,74,
118897428,0090411E,true,Rx,0,8,01,FE,E2,CA,0E,00,00,00,
118897707,0300410E,true,Rx,0,8,B8,0D,38,2C,88,2E,FC,01,
118897989,0340412E,true,Rx,0,8,3A,80,00,C0,80,00,00,9F,
118898270,03800006,true,Rx,0,8,18,00,DE,61,0E,22,04,01,
118898559,19000026,true,Rx,0,8,00,FF,01,40,38,11,8E,00,
118899139,01C04026,true,Rx,0,8,80,00,80,00,80,00,80,00,
118899425,02000026,true,Rx,0,8,7E,34,00,FC,4C,01,E0,EF,
118899705,02104136,true,Rx,0,8,BB,00,3F,FF,06,E0,00,00,
118899986,02804026,true,Rx,0,8,B7,E7,78,00,F7,63,3D,FD,
118900276,02C00020,true,Rx,0,8,00,00,00,00,00,02,75,81,
118902784,0100082C,true,Rx,0,8,00,C0,84,E8,66,18,00,00,
118903065,0110483C,true,Rx,0,8,08,E7,62,00,44,66,FC,52,
118907156,0300410E,true,Rx,0,8,B8,0D,38,2C,88,2E,FC,01,
118907443,0340412E,true,Rx,0,8,3B,80,00,B0,80,00,00,9F,
118912144,19000026,true,Rx,0,8,00,FF,01,40,38,11,86,00,
118912574,0100082C,true,Rx,0,8,00,C0,84,E8,66,18,00,00,
118912854,0110483C,true,Rx,0,8,08,E7,62,00,44,66,FC,52,
118913145,01C04026,true,Rx,0,8,80,00,80,00,80,00,80,00,
118913426,02000026,true,Rx,0,8,7E,34,00,FC,4C,01,E0,EF,
118913705,02104136,true,Rx,0,8,BB,00,3F,FF,06,E0,00,00,
118913986,02804026,true,Rx,0,8,B7,E7,78,00,F7,63,3D,FD,
118914276,02C00020,true,Rx,0,8,00,00,00,00,00,02,75,81,
118914545,19A00002,true,Rx,0,8,6E,C8,2C,39,AB,22,00,F7,
118917203,00800006,true,Rx,0,8,4A,1C,0E,08,42,1C,AE,74,
118917483,0090411E,true,Rx,0,8,C1,FD,E2,C4,0E,00,00,00,
118917763,0300410E,true,Rx,0,8,38,0D,B8,2C,08,2E,6C,01,
118918055,0340412E,true,Rx,0,8,3C,80,00,A0,80,00,00,9F,
118918336,03800006,true,Rx,0,8,58,00,DE,61,0E,22,04,01,
118922561,0100082C,true,Rx,0,8,00,C0,84,E8,66,18,00,00,
118922838,0110483C,true,Rx,0,8,08,E7,62,00,44,66,FC,52,
118927032,01C04026,true,Rx,0,8,80,00,80,00,80,00,80,00,
118927309,02000026,true,Rx,0,8,7E,34,00,FC,4C,01,E0,EF,
118927598,02104136,true,Rx,0,8,BB,00,3F,FF,06,E0,00,00,
118927867,02804026,true,Rx,0,8,B7,E7,78,00,F7,63,3D,FD,
118928160,02C00020,true,Rx,0,8,00,00,00,00,00,02,75,81,
118928439,0300410E,true,Rx,0,8,B8,0D,38,2C,88,31,FC,01,
118928718,0340412E,true,Rx,0,8,3D,80,00,90,80,00,00,9F,
118929011,19000026,true,Rx,0,8,00,FF,01,40,38,11,8E,00,
118929288,19E00006,true,Rx,0,8,00,0D,18,E0,83,00,C0,00,
118932666,0100082C,true,Rx,0,8,00,C0,84,E8,66,18,00,00,
118932948,0110483C,true,Rx,0,8,08,E7,E2,00,44,66,FC,52,
118937186,00800006,true,Rx,0,8,82,1D,0E,09,42,1D,2E,74,
118937473,0090411E,true,Rx,0,8,01,FD,62,C4,0E,00,00,00,
118937752,0300410E,true,Rx,0,8,B8,0E,38,2C,88,30,FC,01,
118938034,0340412E,true,Rx,0,8,3E,80,00,80,80,00,00,9F,
118938323,03800006,true,Rx,0,8,18,00,DE,61,0E,22,04,01,
118941110,01C04026,true,Rx,0,8,80,00,80,00,80,00,80,00,
118941396,02000026,true,Rx,0,8,7E,34,00,FC,4C,01,E0,EF,
118941675,02104136,true,Rx,0,8,BB,00,3F,FF,06,E0,00,00,
118941946,02804026,true,Rx,0,8,B7,E7,78,00,F7,63,3D,FD,
118942246,02C00020,true,Rx,0,8,00,00,00,00,00,02,75,81,
118942525,19000026,true,Rx,0,8,00,FF,01,40,38,11,86,00,
118942816,0100082C,true,Rx,0,8,00,C0,84,E8,66,18,00,00,
118943097,0110483C,true,Rx,0,8,08,E7,62,00,44,66,FC,52,
118943366,19A00002,true,Rx,0,8,12,C8,2C,39,AB,22,00,F7,
118947217,0300410E,true,Rx,0,8,38,0E,B8,2C,08,30,6C,01,
118947503,0340412E,true,Rx,0,8,3F,80,00,70,80,00,00,9F,
118947792,1B200002,true,Rx,0,8,00,00,00,00,00,00,0F,73,
118952457,0100082C,true,Rx,0,8,00,C0,84,E8,66,18,00,00,
118952744,0110483C,true,Rx,0,8,08,E7,62,00,44,66,FC,52,
118955103,01C04026,true,Rx,0,8,80,00,80,00,80,00,80,00,
118955383,02000026,true,Rx,0,8,7E,34,00,FC,4C,01,E0,EF,
118955663,02104136,true,Rx,0,8,BB,00,3F,FF,06,E0,00,00,
118955944,02804026,true,Rx,0,8,B7,E7,77,FF,F7,63,3D,FD,
118956233,02C00020,true,Rx,0,8,00,00,00,00,00,02,75,81,
118957230,00800006,true,Rx,0,8,CA,19,0E,09,42,19,2E,74,
118957509,0090411E,true,Rx,0,8,02,01,E2,C6,0E,00,00,00,
118957788,0300410E,true,Rx,0,8,B8,0E,38,2C,88,29,FC,01,
118958080,0340412E,true,Rx,0,8,30,80,00,60,80,00,00,9F,
118958360,03800006,true,Rx,0,8,18,00,DE,61,0E,22,04,01,
118958643,19000026,true,Rx,0,8,00,FF,01,40,38,11,86,00,
118962589,0100082C,true,Rx,0,8,00,C0,84,E8,66,18,00,00,
118962864,0110483C,true,Rx,0,8,08,E7,62,00,44,66,FC,52,
118967215,0300410E,true,Rx,0,8,38,0E,38,2B,08,29,6C,01,
118967501,0340412E,true,Rx,0,8,31,80,00,50,80,00,00,9F,
118969100,01C04026,true,Rx,0,8,80,00,80,00,80,00,80,00,
118969388,02000026,true,Rx,0,8,7E,34,00,FC,4C,01,E0,EF,
118969668,02104136,true,Rx,0,8,BB,00,3F,FF,06,E0,00,00,
118969949,02804026,true,Rx,0,8,B7,E7,78,00,F7,63,3D,FD,
118970239,02C00020,true,Rx,0,8,00,00,00,00,00,02,75,81,
118970508,19A00002,true,Rx,0,8,02,C8,2C,39,AB,22,00,F7,
118972143,19000026,true,Rx,0,8,00,FF,01,40,38,11,8E,00,
118972598,0100082C,true,Rx,0,8,00,C0,84,E8,66,18,00,00,
118972879,0110483C,true,Rx,0,8,08,E7,62,00,44,66,FC,52,
118977231,00800006,true,Rx,0,8,0A,19,0E,09,42,19,AE,74,
118977516,0090411E,true,Rx,0,8,41,FF,E2,C5,0E,00,00,00,
118977785,0300410E,true,Rx,0,8,B8,0E,B8,2B,88,29,FC,01,
118978078,0340412E,true,Rx,0,8,32,80,00,40,80,00,00,9F,
118978357,03800006,true,Rx,0,8,18,00,DE,61,0E,22,04,01,
118978636,19E00006,true,Rx,0,8,00,0D,18,C0,83,00,C0,00,
118978929,1B600002,true,Rx,0,8,00,80,00,0C,02,1C,4C,00,
118982633,0100082C,true,Rx,0,8,00,C0,84,E8,66,18,00,00,
118982920,0110483C,true,Rx,0,8,08,E7,E2,00,44,66,FC,52,
118983209,01C04026,true,Rx,0,8,80,00,80,00,80,00,80,00,
118983490,02000026,true,Rx,0,8,7E,34,00,FC,4C,01,E0,EF,
118983769,02104136,true,Rx,0,8,BB,00,3F,FF,06,E0,00,00,
118984049,02804026,true,Rx,0,8,B7,E7,78,00,F7,63,3D,FD,
118984340,02C00020,true,Rx,0,8,00,00,00,00,00,02,75,81,
118987270,0300410E,true,Rx,0,8,B8,0E,38,2B,88,2C,FC,01,
118987545,0340412E,true,Rx,0,8,33,80,00,30,80,00,00,9F,
118987835,19000026,true,Rx,0,8,00,FF,01,40,38,11,86,00,
118992656,0100082C,true,Rx,0,8,00,C0,84,E8,66,18,00,00,
118992933,0110483C,true,Rx,0,8,08,E7,62,00,44,66,FC,52,
118997095,01C04026,true,Rx,0,8,80,00,80,00,80,00,80,00,
118997371,00800006,true,Rx,0,8,42,1A,0E,09,42,1A,2E,74,
118997661,0090411E,true,Rx,0,8,01,FF,62,C5,0E,00,00,00,
118997943,02000026,true,Rx,0,8,7E,34,00,FC,4C,01,E0,EF,
118998222,02104136,true,Rx,0,8,BB,00,3F,FF,06,E0,00,00,
118998501,02804026,true,Rx,0,8,B7,E7,78,00,F7,63,3D,FD,
118998792,02C00020,true,Rx,0,8,00,00,00,00,00,02,75,81,
118999062,0300410E,true,Rx,0,8,38,0E,38,2B,08,2C,6C,01,
118999350,0340412E,true,Rx,0,8,34,80,00,20,80,00,00,9F,
118999631,03800006,true,Rx,0,8,18,00,DE,61,0E,22,04,01,
118999912,19A00002,true,Rx,0,8,12,C8,2C,39,AB,22,00,F7,
119002150,19000026,true,Rx,0,8,00,FF,01,40,38,11,8E,00,
119002718,0100082C,true,Rx,0,8,00,C0,84,E8,76,18,00,00,
119002999,0110483C,true,Rx,0,8,08,E7,62,00,44,66,FC,52,
119007259,0300410E,true,Rx,0,8,B8,0E,B8,2B,88,2C,FC,01,
119007545,0340412E,true,Rx,0,8,35,80,00,10,80,00,00,9F,
119011140,01C04026,true,Rx,0,8,80,00,80,00,80,00,80,00,
119011425,02000026,true,Rx,0,8,7E,34,00,FC,4C,01,E0,EF,
119011705,02104136,true,Rx,0,8,BB,00,3F,FF,06,E0,00,00,
119011986,02804026,true,Rx,0,8,B7,E7,78,00,F7,63,3D,FD,
119012276,02C00020,true,Rx,0,8,00,00,00,00,00,02,75,81,
119012587,0100082C,true,Rx,0,8,00,C0,84,E8,66,18,00,00,
119012866,0110483C,true,Rx,0,8,08,E7,62,00,44,66,FC,52,
119017267,0340412E,true,Rx,0,8,36,80,00,00,80,00,00,9F,
119017542,00800006,true,Rx,0,8,8A,1B,0E,09,42,1B,AE,74,
119017821,0090411E,true,Rx,0,8,41,FF,E2,C5,0E,00,00,00,
119018103,0300410E,true,Rx,0,8,B8,0E,38,2B,88,2C,FC,01,
119018382,03800006,true,Rx,0,8,18,00,DE,61,0E,22,04,01,
119018673,19000026,true,Rx,0,8,00,FF,01,40,38,11,86,00,
119022604,0100082C,true,Rx,0,8,00,C0,84,E8,66,18,00,00,
119022881,0110483C,true,Rx,0,8,08,E7,62,00,44,66,FC,52,
119025124,01C04026,true,Rx,0,8,80,00,80,00,80,00,80,00,
119025414,02000026,true,Rx,0,8,7E,34,00,FC,4C,01,E0,EF,
119025694,02104136,true,Rx,0,8,BB,00,3F,FF,06,E0,00,00,
119025975,02804026,true,Rx,0,8,B7,E7,77,FF,F3,63,3D,FD,
119026265,02C00020,true,Rx,0,8,00,00,00,00,00,02,75,81,
119026535,19A00002,true,Rx,0,8,6E,C8,2C,39,AB,22,00,F7,
119027265,0340412E,true,Rx,0,8,37,80,00,F0,80,00,00,9F,
119027544,0300410E,true,Rx,0,8,38,0E,38,2B,08,2C,6C,01,
119027834,19E00006,true,Rx,0,8,00,0D,18,E0,83,00,C0,00,
119032142,19000026,true,Rx,0,8,00,FF,01,40,38,11,8E,00,
119032438,0100082C,true,Rx,0,8,00,C0,84,E8,66,18,00,00,
119032718,0110483C,true,Rx,0,8,08,E7,E2,00,44,66,FC,52,
119033020,1B200002,true,Rx,0,8,00,00,00,00,00,00,0F,73,
119037263,0340412E,true,Rx,0,8,38,80,00,E0,80,00,00,9F,
119037538,00800006,true,Rx,0,8,CA,1B,0E,09,42,1B,2E,74,
119037829,0090411E,true,Rx,0,8,82,00,E2,C6,0E,00,00,00,
119038099,0300410E,true,Rx,0,8,B8,0E,B8,2B,88,2C,FC,01,
119038378,03800006,true,Rx,0,8,58,00,DE,61,0E,22,04,01,
119039164,01C04026,true,Rx,0,8,80,00,80,00,80,00,80,00,
119039438,02000026,true,Rx,0,8,7E,34,00,FC,4C,01,E0,EF,
119039728,02104136,true,Rx,0,8,BB,00,3F,FF,06,E0,00,00,
119039999,02804026,true,Rx,0,8,B7,E7,77,FF,F3,63,3D,FD,
119040290,02C00020,true,Rx,0,8,00,00,00,00,00,02,75,81,
119042695,0100082C,true,Rx,0,8,00,C0,84,E8,66,18,00,00,
119042965,0110483C,true,Rx,0,8,08,E7,62,00,44,66,FC,52,
119047293,0300410E,true,Rx,0,8,38,0E,38,2B,08,2C,6C,01,
119047578,0340412E,true,Rx,0,8,39,80,00,D0,80,00,00,9F,
119047869,19000026,true,Rx,0,8,00,FF,01,40,38,11,86,00,
119052472,0100082C,true,Rx,0,8,00,C0,84,E8,66,18,00,00,
119052747,0110483C,true,Rx,0,8,08,E7,62,00,44,66,FC,52,
119053120,01C04026,true,Rx,0,8,80,00,80,00,80,00,80,00,
119053400,02000026,true,Rx,0,8,7E,34,00,FC,4C,01,E0,EF,
119053680,02104136,true,Rx,0,8,BB,00,3F,FF,06,E0,00,00,
119053961,02804026,true,Rx,0,8,B7,E7,77,FF,F3,63,3D,FD,
119054251,02C00020,true,Rx,0,8,00,00,00,00,00,02,75,81,
119054537,19A00002,true,Rx,0,8,12,C8,2C,39,AB,22,00,F7,
119057276,0340412E,true,Rx,0,8,3A,80,00,C0,80,00,00,9F,
119057555,00800006,true,Rx,0,8,02,19,0E,09,42,19,2E,74,
119057836,0090411E,true,Rx,0,8,02,00,62,C6,0E,00,00,00,
119058116,0300410E,true,Rx,0,8,B8,0E,38,2B,88,29,FC,01,
119058396,03800006,true,Rx,0,8,18,00,DE,61,0E,22,04,01,
119062152,19000026,true,Rx,0,8,00,FF,01,40,38,11,8E,00,
119062521,0100082C,true,Rx,0,8,00,C0,84,E8,66,18,00,00,
119062800,0110483C,true,Rx,0,8,08,E7,62,00,44,66,FC,52,
119067094,01C04026,true,Rx,0,8,80,00,80,00,80,00,80,00,
119067369,02000026,true,Rx,0,8,7E,34,00,FC,4C,01,E0,EF,
119067659,02104136,true,Rx,0,8,BB,00,3F,FF,06,E0,00,00,
119067930,02804026,true,Rx,0,8,B7,E7,77,FE,F3,63,3D,FD,
119068220,02C00020,true,Rx,0,8,00,00,00,00,00,02,75,81,
119068499,0300410E,true,Rx,0,8,B8,0E,B8,2B,88,2A,FC,01,
119068779,0340412E,true,Rx,0,8,3B,80,00,B0,80,00,00,9F,
119069892,1BA0493C,true,Rx,0,8,0C,03,01,01,02,02,01,09,
119070162,1BE0493C,true,Rx,0,8,11,4D,57,32,31,34,32,37,
119072933,0100082C,true,Rx,0,8,00,C0,84,E8,66,18,00,00,
119073210,0110483C,true,Rx,0,8,08,E7,62,00,44,66,FC,52,
119077268,0340412E,true,Rx,0,8,3C,80,00,A0,80,00,00,9F,
119077543,00800006,true,Rx,0,8,4A,19,0E,09,42,19,AE,74,
119077834,0090411E,true,Rx,0,8,41,FD,E2,C0,0E,00,00,00,
119078104,0300410E,true,Rx,0,8,38,0E,38,2B,08,2A,6C,01,
119078393,03800006,true,Rx,0,8,18,00,DE,61,0E,22,04,01,
119078674,19000026,true,Rx,0,8,00,FF,01,40,38,11,86,00,
119078955,19E00006,true,Rx,0,8,00,0D,18,C0,83,00,C0,00,
119081097,01C04026,true,Rx,0,8,80,00,80,00,80,00,80,00,
119081383,02000026,true,Rx,0,8,7E,34,00,FC,4C,01,E0,EF,
119081663,02104136,true,Rx,0,8,BB,00,3F,FF,06,E0,00,00,
119081944,02804026,true,Rx,0,8,B7,E7,77,FE,F3,63,3D,FD,
119082233,02C00020,true,Rx,0,8,00,00,00,00,00,02,75,81,
119082504,19A00002,true,Rx,0,8,02,C8,2C,39,AB,22,00,F7,
119082834,0100082C,true,Rx,0,8,00,C0,84,E8,66,18,00,00,
119083115,0110483C,true,Rx,0,8,08,E7,E2,00,44,66,FC,52,
119083404,1A200020,true,Rx,0,8,0F,00,A2,3E,00,6A,02,3E,
119083694,1AE0092C,true,Rx,0,8,80,00,22,E0,41,A0,00,00,
119083965,1B700030,true,Rx,0,8,6C,91,22,00,22,C0,03,00,
119087274,0340412E,true,Rx,0,8,3D,80,00,90,80,00,00,9F,
119087549,0300410E,true,Rx,0,8,B8,0E,38,2B,88,30,FC,01,
119092157,19000026,true,Rx,0,8,00,FF,01,40,38,11,86,00,
119092444,0100082C,true,Rx,0,8,00,C0,84,E8,76,18,00,00,
119092723,0110483C,true,Rx,0,8,08,E7,62,00,44,66,FC,52,
119095106,01C04026,true,Rx,0,8,80,00,80,00,80,00,80,00,
119095385,02000026,true,Rx,0,8,7E,34,00,FC,4C,01,E0,EF,
119095666,02104136,true,Rx,0,8,BB,00,3F,FF,06,E0,00,00,
119095946,02804026,true,Rx,0,8,B7,E7,77,FF,F3,63,3D,FD,
119096239,02C00020,true,Rx,0,8,00,00,00,00,00,02,75,81,
119097271,0340412E,true,Rx,0,8,3E,80,00,80,80,00,00,9F,
119097550,00800006,true,Rx,0,8,8A,1D,0E,09,42,1D,2E,74,
119097841,0090411E,true,Rx,0,8,01,FD,E2,C0,0E,00,00,00,
119098112,0300410E,true,Rx,0,8,B8,0E,B8,2B,88,30,FC,01,
119098396,03800006,true,Rx,0,8,18,00,DE,61,0E,22,04,01,
119102569,0100082C,true,Rx,0,8,00,C0,84,E8,66,18,00,00,
119102855,0110483C,true,Rx,0,8,08,E7,62,00,44,66,FC,52,
119107267,0340412E,true,Rx,0,8,3F,80,00,70,80,00,00,9F,
119107542,0300410E,true,Rx,0,8,38,0E,38,2B,08,30,6C,01,
119107833,19000026,true,Rx,0,8,00,FF,01,40,38,11,8E,00,
119109102,01C04026,true,Rx,0,8,80,00,80,00,80,00,80,00,
119109393,02000026,true,Rx,0,8,7D,34,00,FC,4C,01,E0,EF,
119109673,02104136,true,Rx,0,8,BB,00,3F,FF,06,E0,00,00,
119109953,02804026,true,Rx,0,8,B7,E7,77,FF,F3,63,3D,FA,
119110244,02C00020,true,Rx,0,8,00,00,00,00,00,02,75,81,
119110513,19A00002,true,Rx,0,8,12,C8,2C,39,AB,22,00,F7,
119112663,0100082C,true,Rx,0,8,00,C0,84,E8,66,18,00,00,
119112944,0110483C,true,Rx,0,8,08,E7,62,00,44,66,FC,52,
119117344,0340412E,true,Rx,0,8,30,80,00,60,80,00,00,9F,
119117609,00800006,true,Rx,0,8,C2,1D,0E,09,42,1D,AE,74,
119117902,0090411E,true,Rx,0,8,C1,FD,62,C0,0E,00,00,00,
119118181,0300410E,true,Rx,0,8,B8,0F,38,2A,88,30,FC,01,
119118462,03800006,true,Rx,0,8,58,00,DE,61,0E,22,04,01,
119118751,1B200002,true,Rx,0,8,00,00,00,00,00,00,0F,73,
119122152,19000026,true,Rx,0,8,00,FF,01,40,38,11,86,00,
119122562,0100082C,true,Rx,0,8,00,C0,84,E8,66,18,00,00,
119122842,0110483C,true,Rx,0,8,08,E7,62,00,44,66,FC,52,
119123134,01C04026,true,Rx,0,8,80,00,80,00,80,00,80,00,
119123413,02000026,true,Rx,0,8,7E,34,00,FC,4C,01,E0,EF,
119123692,02104136,true,Rx,0,8,BB,00,3F,FF,06,E0,00,00,
119123974,02804026,true,Rx,0,8,B7,E7,77,FF,F7,63,3D,FD,
119124260,02C00020,true,Rx,0,8,00,00,00,00,00,02,75,81,
119127278,0340412E,true,Rx,0,8,31,80,00,50,80,00,00,9F,
119127557,0300410E,true,Rx,0,8,38,0F,B8,2A,08,30,6C,01,
119127848,19E00006,true,Rx,0,8,00,0D,18,E0,83,00,C0,00,
119132459,0100082C,true,Rx,0,8,00,C0,84,E8,66,18,00,00,
119132734,0110483C,true,Rx,0,8,08,E7,E2,00,44,66,FC,52,
119137034,01C04026,true,Rx,0,8,80,00,80,00,80,00,80,00,
119137319,02000026,true,Rx,0,8,7D,34,00,FC,4C,01,E0,EF,
119137598,00800006,true,Rx,0,8,0A,16,0E,09,42,16,2E,74,
119137891,0090411E,true,Rx,0,8,02,03,E2,C7,0E,00,00,00,
119138170,02104136,true,Rx,0,8,BB,00,3F,FF,06,E0,00,00,
119138450,02804026,true,Rx,0,8,B7,E7,77,FF,F7,63,3D,FA,
119138740,02C00020,true,Rx,0,8,00,00,00,00,00,02,75,81,
119139020,0300410E,true,Rx,0,8,B8,0F,38,2A,88,25,FC,01,
119139299,0340412E,true,Rx,0,8,32,80,00,40,80,00,00,9F,
119139578,03800006,true,Rx,0,8,18,00,DE,61,0E,22,04,01,
119139868,19000026,true,Rx,0,8,00,FF,01,40,38,11,8E,00,
119140140,19A00002,true,Rx,0,8,6E,C8,2C,39,AB,22,00,F7,
119142781,0100082C,true,Rx,0,8,00,C0,84,E8,66,18,00,00,
119143063,0110483C,true,Rx,0,8,08,E7,62,00,44,66,FC,52,
119147289,0340412E,true,Rx,0,8,33,80,00,30,80,00,00,9F,
119147564,0300410E,true,Rx,0,8,B8,0E,38,2A,88,25,FC,01,
119147855,1B600002,true,Rx,0,8,00,80,00,0C,02,1C,4C,00,
119151102,01C04026,true,Rx,0,8,80,00,80,00,80,00,80,00,
119151387,02000026,true,Rx,0,8,7D,34,00,FC,4C,01,E0,EF,
119151668,02104136,true,Rx,0,8,BB,00,3F,FF,06,E0,00,00,
119151949,02804026,true,Rx,0,8,B7,E7,78,00,F7,63,3D,FA,
119152238,02C00020,true,Rx,0,8,00,00,00,00,00,02,75,81,
119152529,19000026,true,Rx,0,8,00,FF,01,40,38,11,86,00,
119152953,0100082C,true,Rx,0,8,00,C0,84,E8,66,18,00,00,
119153234,0110483C,true,Rx,0,8,08,E7,62,00,44,66,FC,52,
119157274,0340412E,true,Rx,0,8,34,80,00,20,80,00,00,9F,
119157549,00800006,true,Rx,0,8,4A,16,0E,09,42,16,2E,74,
119157830,0090411E,true,Rx,0,8,02,00,E2,C8,0E,00,00,00,
119158110,0300410E,true,Rx,0,8,38,0E,B8,2A,08,25,6C,01,
119158389,03800006,true,Rx,0,8,18,00,DE,61,0E,22,04,01,
119162523,0100082C,true,Rx,0,8,00,C0,84,E8,66,18,00,00,
119162809,0110483C,true,Rx,0,8,08,E7,62,00,44,66,FC,52,
119165105,01C04026,true,Rx,0,8,80,00,80,00,80,00,80,00,
119165385,02000026,true,Rx,0,8,7E,34,00,FC,4C,01,E0,EF,
119165664,02104136,true,Rx,0,8,BB,00,3F,FF,06,E0,00,00,
119165945,02804026,true,Rx,0,8,B7,E7,78,00,F7,63,3D,FD,
119166236,02C00020,true,Rx,0,8,00,00,00,00,00,02,75,81,
119166505,19A00002,true,Rx,0,8,12,C8,2C,39,AB,22,00,F7,
119167276,0340412E,true,Rx,0,8,35,80,00,10,80,00,00,9F,
119167545,0300410E,true,Rx,0,8,B8,0E,38,2C,88,28,FC,01,
119167836,19000026,true,Rx,0,8,00,FF,01,40,38,11,86,00,
119172487,0100082C,true,Rx,0,8,00,C0,84,E8,66,18,00,00,
119172762,0110483C,true,Rx,0,8,08,E7,62,00,44,66,FC,52,
119177268,0340412E,true,Rx,0,8,36,80,00,00,80,00,00,9F,
119177553,00800006,true,Rx,0,8,82,18,0E,09,42,18,AE,74,
119177834,0090411E,true,Rx,0,8,42,00,62,C8,0E,00,00,00,
119178114,0300410E,true,Rx,0,8,B8,0E,38,2C,88,28,FC,01,
119178395,03800006,true,Rx,0,8,18,00,DE,61,0E,22,04,01,
119178674,19E00006,true,Rx,0,8,00,0D,18,C0,83,00,C0,00,
119179119,01C04026,true,Rx,0,8,80,00,80,00,80,00,80,00,
119179406,02000026,true,Rx,0,8,7E,34,00,FC,4C,01,E0,EF,
119179686,02104136,true,Rx,0,8,BB,00,3F,FF,06,E0,00,00,
119179967,02804026,true,Rx,0,8,B7,E7,78,00,F7,63,3D,FD,
119180257,02C00020,true,Rx,0,8,00,00,00,00,00,02,75,81,
119182157,19000026,true,Rx,0,8,00,FF,01,40,38,11,8E,00,
119182756,0100082C,true,Rx,0,8,00,C0,84,E8,76,18,00,00,
119183037,0110483C,true,Rx,0,8,08,E7,E2,00,44,66,FC,52,
119187336,0340412E,true,Rx,0,8,37,80,00,F0,80,00,00,9F,
119187623,0300410E,true,Rx,0,8,38,0E,B8,2C,08,28,6C,01,
119192459,0100082C,true,Rx,0,8,00,C0,84,E8,66,18,00,00,
119192734,0110483C,true,Rx,0,8,08,E7,62,00,44,66,FC,52,
119193088,01C04026,true,Rx,0,8,80,00,80,00,80,00,80,00,
119193378,02000026,true,Rx,0,8,7E,34,00,FC,4C,01,E0,EF,
119193657,02104136,true,Rx,0,8,BB,00,3F,FF,06,E0,00,00,
119193939,02804026,true,Rx,0,8,B7,E7,78,00,F7,63,3D,FD,
119194228,02C00020,true,Rx,0,8,00,00,00,00,00,02,75,81,
119194499,19A00002,true,Rx,0,8,02,C8,2C,39,AB,22,00,F7,
119197285,0340412E,true,Rx,0,8,38,80,00,E0,80,00,00,9F,
119197571,00800006,true,Rx,0,8,CA,1E,0E,09,42,1E,2E,74,
119197851,0090411E,true,Rx,0,8,01,FC,E2,C1,0E,00,00,00,
119198131,0300410E,true,Rx,0,8,B8,0E,38,2C,88,31,FC,01,
119198412,03800006,true,Rx,0,8,18,00,DE,61,0E,22,04,01,
119198691,19000026,true,Rx,0,8,00,FF,01,40,38,11,86,00,
119202621,0100082C,true,Rx,0,8,00,C0,84,E8,66,18,00,00,
119202898,0110483C,true,Rx,0,8,08,E7,62,00,44,66,FC,52,
119203199,1B200002,true,Rx,0,8,00,00,00,00,00,00,0F,73,
119207096,01C04026,true,Rx,0,8,80,00,80,00,80,00,80,00,
119207381,02000026,true,Rx,0,8,7E,34,00,FC,4C,01,E0,EF,
119207662,02104136,true,Rx,0,8,BB,00,3F,FF,06,E0,00,00,
119207933,02804026,true,Rx,0,8,B7,E7,78,00,F7,63,3D,FD,
119208222,02C00020,true,Rx,0,8,00,00,00,00,00,02,75,81,
119208503,0300410E,true,Rx,0,8,38,0E,38,2C,08,31,6C,01,
119208792,0340412E,true,Rx,0,8,39,80,00,D0,80,00,00,9F,
119212157,19000026,true,Rx,0,8,00,FF,01,40,38,11,8E,00,
119212576,0100082C,true,Rx,0,8,00,C0,84,E8,66,18,00,00,
119212856,0110483C,true,Rx,0,8,08,E7,62,00,44,66,FC,52,
119217345,0340412E,true,Rx,0,8,3A,80,00,C0,80,00,00,9F,
119217621,00800006,true,Rx,0,8,0A,1E,0E,09,42,1E,AE,74,
119217902,0090411E,true,Rx,0,8,C1,FC,E2,C1,0F,00,00,00,
119218181,0300410E,true,Rx,0,8,B8,0E,B8,2B,88,31,FC,01,
119218452,03800006,true,Rx,0,8,58,00,DE,61,0E,22,04,01,
119221114,01C04026,true,Rx,0,8,80,00,80,00,80,00,80,00,
119221395,02000026,true,Rx,0,8,7E,34,00,FC,4C,01,E0,EF,
119221682,02104136,true,Rx,0,8,BB,00,3F,FF,06,E0,00,00,
119221953,02804026,true,Rx,0,8,B7,E7,78,00,F7,63,3D,FD,
119222244,02C00020,true,Rx,0,8,00,00,00,00,00,02,75,81,
119222523,19A00002,true,Rx,0,8,12,C8,2C,39,AB,22,00,F7,
119222803,0100082C,true,Rx,0,8,00,C0,84,E8,66,18,00,00,
119223084,0110483C,true,Rx,0,8,08,E7,62,00,44,66,FC,52,
119227266,0340412E,true,Rx,0,8,3B,80,00,B0,80,00,00,9F,
119227542,0300410E,true,Rx,0,8,B8,0E,38,2B,88,33,FC,01,
119227832,19000026,true,Rx,0,8,00,FF,01,40,38,11,86,00,
119228123,19E00006,true,Rx,0,8,00,0D,18,E0,83,00,C0,00,
119232862,0100082C,true,Rx,0,8,00,C0,84,E8,66,18,00,00,
119233140,0110483C,true,Rx,0,8,08,E7,E2,00,44,66,FC,52,
119235126,01C04026,true,Rx,0,8,80,00,80,00,80,00,80,00,
119235406,02000026,true,Rx,0,8,7E,34,00,FC,4C,01,E0,EF,
119235685,02104136,true,Rx,0,8,BB,00,3F,FF,06,E0,00,00,
119235967,02804026,true,Rx,0,8,B7,E7,78,00,F7,63,3D,FD,
119236257,02C00020,true,Rx,0,8,00,00,00,00,00,02,75,81,
119237283,0340412E,true,Rx,0,8,3C,80,00,A0,80,00,00,9F,
119237563,00800006,true,Rx,0,8,42,1F,0E,09,42,1F,2E,74,
119237843,0090411E,true,Rx,0,8,01,FC,62,C1,0F,00,00,00,
119238123,0300410E,true,Rx,0,8,38,0E,38,2B,08,33,6C,01,
119238404,03800006,true,Rx,0,8,18,00,DE,61,0E,22,04,01,
119242158,19000026,true,Rx,0,8,00,FF,01,40,38,11,8E,00,
119242546,0100082C,true,Rx,0,8,00,C0,84,E8,66,18,00,00,
119242825,0110483C,true,Rx,0,8,08,E7,62,00,44,66,FC,52,
119247274,0340412E,true,Rx,0,8,3D,80,00,90,80,00,00,9F,
119247551,0300410E,true,Rx,0,8,B8,0F,B8,2B,88,33,FC,01,
119249119,01C04026,true,Rx,0,8,80,00,80,00,80,00,80,00,
119249407,02000026,true,Rx,0,8,7E,34,00,FC,4C,01,E0,EF,
119249687,02104136,true,Rx,0,8,BB,00,3F,FF,06,E0,00,00,
119249968,02804026,true,Rx,0,8,B7,E7,78,00,F7,63,3D,FD,
119250258,02C00020,true,Rx,0,8,00,00,00,00,00,02,75,81,
119250527,19A00002,true,Rx,0,8,6E,C8,2C,39,AB,22,00,F7,
119252625,0100082C,true,Rx,0,8,00,C0,84,E8,66,18,00,00,
119252907,0110483C,true,Rx,0,8,08,E7,62,00,44,66,FC,52,
119257348,0340412E,true,Rx,0,8,3E,80,00,80,80,00,00,9F,
119257624,00800006,true,Rx,0,8,8A,21,0E,09,42,21,2E,74,
119257915,0090411E,true,Rx,0,8,01,FB,E2,B8,0F,00,00,00,
119258184,0300410E,true,Rx,0,8,B8,0F,38,2B,88,36,FC,01,
119258475,03800006,true,Rx,0,8,18,00,DE,61,0E,22,04,01,
119258754,19000026,true,Rx,0,8,00,FF,01,40,38,11,86,00,
119262591,0100082C,true,Rx,0,8,00,C0,84,E8,66,18,00,00,
119262868,0110483C,true,Rx,0,8,08,E7,62,00,44,66,FC,52,
119263159,01C04026,true,Rx,0,8,80,00,80,00,80,00,80,00,
119263438,02000026,true,Rx,0,8,7E,34,00,FC,4C,01,E0,EF,
119263729,02104136,true,Rx,0,8,BB,00,3F,FF,06,E0,00,00,
119263999,02804026,true,Rx,0,8,B7,E7,78,01,F7,63,3D,FD,
119264289,02C00020,true,Rx,0,8,00,00,00,00,00,02,75,81,
119267291,0340412E,true,Rx,0,8,3F,80,00,70,80,00,00,9F,
119267567,0300410E,true,Rx,0,8,38,0F,38,2A,08,36,6C,01,
119272156,19000026,true,Rx,0,8,00,FF,01,40,38,11,8E,00,
119272441,0100082C,true,Rx,0,8,00,C0,84,E8,76,18,00,00,
119272721,0110483C,true,Rx,0,8,08,E7,62,00,44,66,FC,52,
119277117,01C04026,true,Rx,0,8,80,00,80,00,80,00,80,00,
119277402,02000026,true,Rx,0,8,7E,34,00,FC,4C,01,E0,EF,
119277672,00800006,true,Rx,0,8,CA,21,0E,0B,42,21,AE,74,
119277953,0090411E,true,Rx,0,8,41,FB,E2,AF,0F,00,00,00,
119278244,02104136,true,Rx,0,8,BB,00,3F,FF,06,E0,00,00,
119278513,02804026,true,Rx,0,8,B7,E7,78,00,F7,63,3D,FD,
119278803,02C00020,true,Rx,0,8,00,00,00,00,00,02,75,81,
119279084,0300410E,true,Rx,0,8,B8,11,B8,2A,88,37,FC,01,
119279372,0340412E,true,Rx,0,8,30,80,00,60,80,00,00,9F,
119279652,03800006,true,Rx,0,8,18,00,DE,61,0E,22,04,01,
119279923,19A00002,true,Rx,0,8,12,C8,2C,39,AB,22,00,F7,
119280213,19E00006,true,Rx,0,8,00,0D,18,C0,83,00,C0,00,
119282741,0100082C,true,Rx,0,8,00,C0,84,E8,66,18,00,00,
119283022,0110483C,true,Rx,0,8,08,E7,E2,00,44,66,FC,52,
119287278,0340412E,true,Rx,0,8,31,80,00,50,80,00,00,9F,
119287555,0300410E,true,Rx,0,8,38,11,38,2A,08,37,6C,01,
119287844,19000026,true,Rx,0,8,00,FF,01,40,38,11,86,00,
119288135,1B200002,true,Rx,0,8,00,00,00,00,00,00,0F,73,
119291125,01C04026,true,Rx,0,8,80,00,80,00,80,00,80,00,
119291402,02000026,true,Rx,0,8,7E,34,00,FC,4C,01,E0,EF,
119291691,02104136,true,Rx,0,8,BB,00,3F,FF,06,E0,00,00,
119291972,02804026,true,Rx,0,8,B7,E7,77,FF,F7,63,3D,FD,
119292263,02C00020,true,Rx,0,8,00,00,00,00,00,02,75,81,
119292635,0100082C,true,Rx,0,8,00,C0,84,E8,66,18,00,00,
119292917,0110483C,true,Rx,0,8,08,E7,62,00,44,66,FC,52,
119293196,1B700030,true,Rx,0,8,7C,91,22,00,22,C0,03,00,
119297277,0340412E,true,Rx,0,8,32,80,00,40,80,00,00,9F,
119297553,00800006,true,Rx,0,8,02,22,0E,0B,42,22,2E,74,
119297843,0090411E,true,Rx,0,8,01,FB,62,AF,0F,00,00,00,
119298123,0300410E,true,Rx,0,8,B8,11,38,2A,88,39,FC,01,
119298404,03800006,true,Rx,0,8,18,00,DE,61,0E,22,04,01,
119302174,19000026,true,Rx,0,8,00,FF,01,40,38,11,86,00,
119302573,0100082C,true,Rx,0,8,00,C0,84,E8,66,18,00,00,
119302853,0110483C,true,Rx,0,8,08,E7,62,00,44,66,FC,52,
119305142,01C04026,true,Rx,0,8,80,00,80,00,80,00,80,00,
119305421,02000026,true,Rx,0,8,7E,34,00,FC,4C,01,E0,EF,
119305700,02104136,true,Rx,0,8,BB,00,3F,FF,06,E0,00,00,
119305982,02804026,true,Rx,0,8,B7,E7,78,00,F7,63,3D,FD,
119306274,02C00020,true,Rx,0,8,00,00,00,00,00,02,75,81,
119306543,19A00002,true,Rx,0,8,02,C8,2C,39,AB,22,00,F7,
119307277,0340412E,true,Rx,0,8,33,80,00,30,80,00,00,9F,
119307588,0300410E,true,Rx,0,8,B8,11,B8,2A,88,38,FC,01,
119312728,0100082C,true,Rx,0,8,00,C0,84,E8,66,18,00,00,
119313005,0110483C,true,Rx,0,8,08,E7,62,00,44,66,FC,52,
119317281,0340412E,true,Rx,0,8,34,80,00,20,80,00,00,9F,
119317568,19000026,true,Rx,0,8,00,FF,01,40,38,11,8E,00,
119317837,00800006,true,Rx,0,8,4A,22,0E,0A,42,22,AE,73,
119318117,0090411E,true,Rx,0,8,C1,FB,E2,AF,0F,00,00,00,
119318398,0300410E,true,Rx,0,8,38,11,38,29,08,38,6C,01,
119318677,03800006,true,Rx,0,8,58,00,DE,61,0E,22,04,01,
119318959,1B600002,true,Rx,0,8,00,80,00,0C,02,1C,4C,00,
119319248,01C04026,true,Rx,0,8,80,00,80,00,80,00,80,00,
119319537,02000026,true,Rx,0,8,7E,34,00,FC,4C,01,E0,EF,
119319817,02104136,true,Rx,0,8,BB,00,3F,FF,06,E0,00,00,
119320098,02804026,true,Rx,0,8,B7,E7,77,FF,F3,63,3D,FD,
119320387,02C00020,true,Rx,0,8,00,00,00,00,00,02,75,81,
119320668,1BA0493C,true,Rx,0,8,0D,01,02,01,01,01,01,01,
119320938,1BE0493C,true,Rx,0,8,01,10,2A,88,B7,75,02,04,
119322831,0100082C,true,Rx,0,8,00,C0,84,E8,66,18,00,00,
119323112,0110483C,true,Rx,0,8,08,E7,62,00,44,66,FC,52,
119327346,0340412E,true,Rx,0,8,35,80,00,10,80,00,00,9F,
119327623,0300410E,true,Rx,0,8,B8,12,38,29,88,3B,FC,01,
119327904,19E00006,true,Rx,0,8,00,0E,18,E0,83,00,C0,00,
119332164,19000026,true,Rx,0,8,00,FF,01,40,38,11,86,00,
119332449,0100082C,true,Rx,0,8,00,C0,84,E8,66,18,00,00,
119332728,0110483C,true,Rx,0,8,08,E7,E2,00,44,66,FC,52,
119333123,01C04026,true,Rx,0,8,80,00,80,00,80,00,80,00,
119333403,02000026,true,Rx,0,8,7E,34,00,FC,4C,01,E0,EF,
119333683,02104136,true,Rx,0,8,BB,00,3F,FF,06,E0,00,00,
119333964,02804026,true,Rx,0,8,B7,E7,77,FF,F7,63,3D,FD,
119334260,02C00020,true,Rx,0,8,00,00,00,00,00,02,75,81,
119334530,19A00002,true,Rx,0,8,12,C8,2C,39,AB,22,00,F7,
119337291,0340412E,true,Rx,0,8,36,80,00,00,80,00,00,9F,
119337613,00800006,true,Rx,0,8,8A,1D,0E,0B,42,1D,2E,73,
119337893,0090411E,true,Rx,0,8,02,01,E2,B2,0F,00,00,00,
119338173,0300410E,true,Rx,0,8,B8,12,B8,29,88,2F,FC,01,
119338455,03800006,true,Rx,0,8,18,00,DE,61,0E,22,04,01,
119342534,0100082C,true,Rx,0,8,00,C0,84,E8,66,18,00,00,
119342811,0110483C,true,Rx,0,8,08,E7,62,00,44,66,FC,52,
119347110,01C04026,true,Rx,0,8,80,00,80,00,80,00,80,00,
119347396,02000026,true,Rx,0,8,7E,34,00,FC,4C,01,E0,EF,
119347676,02104136,true,Rx,0,8,BB,00,3F,FF,06,E0,00,00,
119347956,02804026,true,Rx,0,8,B7,E7,78,00,F7,63,3D,FD,
119348247,02C00020,true,Rx,0,8,00,00,00,00,00,02,75,81,
119348516,0300410E,true,Rx,0,8,38,12,38,29,08,2F,6C,01,
119348806,0340412E,true,Rx,0,8,37,80,00,F0,80,00,00,9F,
119349087,19000026,true,Rx,0,8,00,FF,01,40,38,11,8E,00,
119352649,0100082C,true,Rx,0,8,00,C0,84,E8,66,18,00,00,
119352927,0110483C,true,Rx,0,8,08,E7,62,00,44,66,FC,52,
119357349,0340412E,true,Rx,0,8,38,80,00,E0,80,00,00,9F,
119357624,00800006,true,Rx,0,8,C2,1D,0E,0B,42,1D,2E,73,
119357905,0090411E,true,Rx,0,8,02,01,62,B2,0F,00,00,00,
119358185,0300410E,true,Rx,0,8,B8,12,38,29,88,2F,FC,01,
119358475,03800006,true,Rx,0,8,18,00,DE,61,0E,22,04,01,
119361106,01C04026,true,Rx,0,8,80,00,80,00,80,00,80,00,
119361387,02000026,true,Rx,0,8,7E,34,00,FC,4B,01,E0,EF,
119361674,02104136,true,Rx,0,8,BB,00,3F,FF,06,E0,00,00,
119361956,02804026,true,Rx,0,8,B7,E7,77,FF,F7,63,3D,FD,
119362246,02C00020,true,Rx,0,8,00,00,00,00,00,02,75,81,
119362525,19000026,true,Rx,0,8,00,FF,01,40,38,11,86,00,
119362816,0100082C,true,Rx,0,8,00,C0,84,E8,66,18,00,00,
119363097,0110483C,true,Rx,0,8,08,E7,62,00,44,66,FC,52,
119363366,19A00002,true,Rx,0,8,6E,C8,2C,39,AB,22,00,F7,
119367282,0340412E,true,Rx,0,8,39,80,00,D0,80,00,00,9F,
119367620,0300410E,true,Rx,0,8,38,12,B8,29,08,2F,6C,01,
119372417,0100082C,true,Rx,0,8,00,C0,84,E8,66,18,00,00,
119372693,0110483C,true,Rx,0,8,08,E7,62,00,44,66,FC,52,
119372994,1B200002,true,Rx,0,8,00,00,00,00,00,00,0F,73,
119375096,01C04026,true,Rx,0,8,80,00,80,00,80,00,80,00,
119375375,02000026,true,Rx,0,8,7E,34,00,FC,4B,01,E0,EF,
119375665,02104136,true,Rx,0,8,BB,00,3F,FF,06,E0,00,00,
119375936,02804026,true,Rx,0,8,B7,E7,77,FF,F7,63,3D,FD,
119376225,02C00020,true,Rx,0,8,00,00,00,00,00,02,75,81,
119377283,0340412E,true,Rx,0,8,3A,80,00,C0,80,00,00,9F,
119377573,19000026,true,Rx,0,8,00,FF,01,40,38,11,86,00,
119377852,00800006,true,Rx,0,8,0A,20,0E,0C,42,20,AE,73,
119378134,0090411E,true,Rx,0,8,41,FE,E2,AF,0F,00,00,00,
119378413,0300410E,true,Rx,0,8,B8,13,38,29,88,34,FC,01,
119378687,03800006,true,Rx,0,8,18,00,DE,61,0E,22,04,01,
119378979,19E00006,true,Rx,0,8,00,0E,18,C0,83,00,C0,00,
119382646,0100082C,true,Rx,0,8,00,C0,84,E8,66,18,00,00,
119382923,0110483C,true,Rx,0,8,08,E7,E2,00,44,66,FC,52,
119387283,0340412E,true,Rx,0,8,3B,80,00,B0,80,00,00,9F,
119387640,0300410E,true,Rx,0,8,B8,13,38,29,88,34,FC,01,
119389126,01C04026,true,Rx,0,8,80,00,80,00,80,00,80,00,
119389414,02000026,true,Rx,0,8,7E,34,00,FC,4C,01,E0,EF,
119389695,02104136,true,Rx,0,8,BB,00,3F,FF,06,E0,00,00,
119389975,02804026,true,Rx,0,8,B7,E7,77,FF,F7,63,3D,FD,
119390265,02C00020,true,Rx,0,8,00,00,00,00,00,02,75,81,
119390535,19A00002,true,Rx,0,8,12,C8,2C,39,AB,22,00,F7,
119392159,19000026,true,Rx,0,8,00,FF,01,40,38,11,8E,00,
119392645,0100082C,true,Rx,0,8,00,C0,84,E8,66,18,00,00,
119392916,0110483C,true,Rx,0,8,08,E7,62,00,44,66,FC,52,
119397350,0340412E,true,Rx,0,8,3C,80,00,A0,80,00,00,9F,
119397635,1A200020,true,Rx,0,8,4F,00,A2,3E,00,6A,02,3E,
119397916,00800006,true,Rx,0,8,4A,20,0E,0C,42,20,2E,73,
119398186,0090411E,true,Rx,0,8,01,FE,E2,AF,0F,00,00,00,
119398465,0300410E,true,Rx,0,8,38,13,B8,29,08,34,6C,01,
119398755,03800006,true,Rx,0,8,18,00,DE,61,0E,22,04,01,
119402592,0100082C,true,Rx,0,8,00,C0,84,E8,76,18,00,00,
119402868,0110483C,true,Rx,0,8,08,E7,62,00,44,66,FC,52,
119403159,01C04026,true,Rx,0,8,80,00,80,00,80,00,80,00,
119403439,02000026,true,Rx,0,8,7E,34,00,FC,4C,01,E0,EF,
119403719,02104136,true,Rx,0,8,BB,00,3F,FF,06,E0,00,00,
119403999,02804026,true,Rx,0,8,B7,E7,78,00,F7,63,3D,FD,
119404290,02C00020,true,Rx,0,8,00,00,00,00,00,02,75,81,
119407291,0340412E,true,Rx,0,8,3D,80,00,90,80,00,00,9F,
119407576,19000026,true,Rx,0,8,00,FF,01,40,38,11,86,00,
119407856,0300410E,true,Rx,0,8,B8,15,38,29,88,36,FC,01,
119412510,0100082C,true,Rx,0,8,00,C0,84,E8,66,18,00,00,
119412786,0110483C,true,Rx,0,8,08,E7,62,00,44,66,FC,52,
119417043,01C04026,true,Rx,0,8,80,00,80,00,80,00,80,00,
119417319,02000026,true,Rx,0,8,7E,34,00,FC,4C,01,E0,EF,
119417609,02104136,true,Rx,0,8,BB,00,3F,FF,06,E0,00,00,
119417889,00800006,true,Rx,0,8,82,20,0E,0D,42,20,AE,73,
119418160,0090411E,true,Rx,0,8,41,FE,62,AF,0F,00,00,00,
119418439,02804026,true,Rx,0,8,B7,E7,77,FF,F3,63,3D,FD,
119418728,02C00020,true,Rx,0,8,00,00,00,00,00,02,75,81,
119419010,0300410E,true,Rx,0,8,B8,15,38,27,88,36,FC,01,
119419298,0340412E,true,Rx,0,8,3E,80,00,80,80,00,00,9F,
119419579,03800006,true,Rx,0,8,18,00,DE,61,0E,22,04,01,
119419848,19A00002,true,Rx,0,8,02,C8,2C,39,AB,22,00,F7,
119422170,19000026,true,Rx,0,8,00,FF,01,40,38,11,8E,00,
119422707,0100082C,true,Rx,0,8,00,C0,84,E8,66,18,00,00,
119422978,0110483C,true,Rx,0,8,08,E7,62,00,44,66,FC,52,
119427352,0340412E,true,Rx,0,8,3F,80,00,70,80,00,00,9F,
119427679,0300410E,true,Rx,0,8,38,15,B8,27,08,36,6C,01,
119427960,19E00006,true,Rx,0,8,00,0E,18,E0,83,00,C0,00,
119431103,01C04026,true,Rx,0,8,80,00,80,00,80,00,80,00,
119431382,02000026,true,Rx,0,8,7D,34,00,FC,4C,01,E0,EF,
119431670,02104136,true,Rx,0,8,BB,00,3F,FF,06,E0,00,00,
119431952,02804026,true,Rx,0,8,B7,E7,77,FF,F7,63,3D,FA,
119432241,02C00020,true,Rx,0,8,00,00,00,00,00,02,75,81,
119432645,0100082C,true,Rx,0,8,00,C0,84,E8,66,18,00,00,
119432926,0110483C,true,Rx,0,8,08,E7,E2,00,44,66,FC,52,
119437280,0340412E,true,Rx,0,8,30,80,00,60,80,00,00,9F,
119437576,19000026,true,Rx,0,8,00,FF,01,40,38,11,86,00,
119437845,00800006,true,Rx,0,8,CA,21,0E,0D,42,21,2E,73,
