Time Stamp,ID,Extended,Dir,Bus,LEN,D1,D2,D3,D4,D5,D6,D7,D8
55375610,1AE0092C,true,Rx,0,8,20,00,22,20,01,A0,00,00,
55375898,1B700030,true,Rx,0,8,2C,92,22,00,00,00,03,00,
55385696,0100082C,true,Rx,0,8,00,C0,84,E8,62,40,12,CD,
55385974,0110483C,true,Rx,0,8,08,E0,20,08,44,66,FC,54,
55395660,0100082C,true,Rx,0,8,00,C0,84,E8,62,40,12,CD,
55395938,0110483C,true,Rx,0,8,08,E0,A0,00,44,66,FC,54,
55405665,0100082C,true,Rx,0,8,00,C0,84,E8,62,40,12,CD,
55405943,0110483C,true,Rx,0,8,08,E0,20,00,44,66,FC,52,
55415692,0100082C,true,Rx,0,8,00,C0,84,E8,62,40,12,CD,
55415979,0110483C,true,Rx,0,8,08,E0,20,00,44,66,FC,55,
55425697,0100082C,true,Rx,0,8,00,C0,84,E8,62,40,12,CD,
55425973,0110483C,true,Rx,0,8,08,E0,20,00,44,66,FC,52,
55435671,0100082C,true,Rx,0,8,00,C0,84,E8,62,40,12,CD,
55435958,0110483C,true,Rx,0,8,08,E0,20,00,44,66,FC,52,
55445697,0100082C,true,Rx,0,8,00,C0,84,E8,62,40,12,CD,
55445974,0110483C,true,Rx,0,8,08,E0,A0,00,44,66,FC,52,
55455661,0100082C,true,Rx,0,8,00,C0,84,E8,62,40,12,CD,
55455948,0110483C,true,Rx,0,8,08,E0,20,00,44,66,FC,53,
55465697,0100082C,true,Rx,0,8,00,C0,84,E8,62,40,12,CD,
55465974,0110483C,true,Rx,0,8,08,E0,20,00,44,66,FC,53,
55475703,0100082C,true,Rx,0,8,00,C0,84,E8,62,40,12,CD,
55475989,0110483C,true,Rx,0,8,08,E0,20,00,44,66,FC,53,
55485698,0100082C,true,Rx,0,8,00,C0,84,E8,62,40,12,CD,
55485974,0110483C,true,Rx,0,8,08,E0,20,00,44,66,FC,53,
55495734,0100082C,true,Rx,0,8,00,C0,84,E8,62,40,12,CD,
55496010,0110483C,true,Rx,0,8,08,E0,A0,00,44,66,FC,53,
55505666,0100082C,true,Rx,0,8,00,C0,84,E8,62,40,12,CD,
55505942,0110483C,true,Rx,0,8,08,E0,20,00,44,66,FC,52,
55515723,0100082C,true,Rx,0,8,00,C0,84,E8,62,40,12,CD,
55515999,0110483C,true,Rx,0,8,08,E0,20,00,44,66,FC,52,
55525676,0100082C,true,Rx,0,8,00,C0,84,E8,66,40,12,DC,
55525953,0110483C,true,Rx,0,8,08,E0,20,00,44,66,FC,52,
55535722,0100082C,true,Rx,0,8,00,C0,84,E8,66,40,12,DC,
55535999,0110483C,true,Rx,0,8,08,E0,20,00,44,66,FC,52,
55545708,0100082C,true,Rx,0,8,00,C0,84,E8,66,40,12,DC,
55545994,0110483C,true,Rx,0,8,08,E0,A0,00,44,66,FC,52,
55555702,0100082C,true,Rx,0,8,00,C0,84,E8,66,40,12,DC,
55555979,0110483C,true,Rx,0,8,08,E0,20,00,44,66,FC,52,
55565687,0100082C,true,Rx,0,8,00,C0,84,E8,66,40,12,DC,
55565974,0110483C,true,Rx,0,8,08,E0,20,00,44,66,FC,52,
55575702,0100082C,true,Rx,0,8,00,C0,84,E8,66,40,12,DC,
55575978,0110483C,true,Rx,0,8,08,E2,20,00,44,66,FC,53,
55580660,1BA0493C,true,Rx,0,8,12,00,00,00,00,00,00,00,
55585683,0100082C,true,Rx,0,8,00,C0,84,E8,66,40,12,DC,
55585960,0110483C,true,Rx,0,8,08,E2,20,00,44,66,FC,53,
55586250,1B700030,true,Rx,0,8,25,92,22,00,00,00,03,00,
55595743,0100082C,true,Rx,0,8,00,C0,84,E8,66,40,12,DC,
55596019,0110483C,true,Rx,0,8,08,E2,A0,00,44,66,FC,53,
55605686,0100082C,true,Rx,0,8,00,C0,84,E8,66,40,12,DC,
55605963,0110483C,true,Rx,0,8,08,E2,20,00,44,66,FC,52,
55615754,0100082C,true,Rx,0,8,00,C0,84,E8,66,40,12,DC,
55616030,0110483C,true,Rx,0,8,08,E2,20,00,44,66,FC,52,
55625707,0100082C,true,Rx,0,8,00,C0,84,E8,66,40,12,DC,
55625983,0110483C,true,Rx,0,8,08,E2,20,00,44,66,FC,52,
55635700,0100082C,true,Rx,0,8,00,C0,84,E8,66,40,12,DC,
55635987,0110483C,true,Rx,0,8,08,E2,20,00,44,66,FC,52,
55645714,0100082C,true,Rx,0,8,00,C0,84,E8,66,40,12,DC,
55645990,0110483C,true,Rx,0,8,08,E2,A0,00,44,66,FC,52,
55655707,0100082C,true,Rx,0,8,00,C0,84,E8,66,40,12,DC,
55655984,0110483C,true,Rx,0,8,08,E2,20,00,44,66,FC,52,
55665702,0100082C,true,Rx,0,8,00,C0,84,E8,66,40,12,DC,
55665979,0110483C,true,Rx,0,8,08,E2,20,00,44,66,FC,52,
55675697,0100082C,true,Rx,0,8,00,C0,84,E8,66,40,12,DC,
55675973,0110483C,true,Rx,0,8,08,E2,20,00,44,66,FC,52,
55685671,0100082C,true,Rx,0,8,00,C0,84,E8,66,40,12,DC,
55685948,0110483C,true,Rx,0,8,08,E2,20,00,44,66,FC,52,
55690671,1A200020,true,Rx,0,8,CE,00,02,37,00,00,02,34,
55695755,0100082C,true,Rx,0,8,00,C0,84,E8,66,40,12,DC,
55696043,0110483C,true,Rx,0,8,08,E2,A0,00,44,66,FC,53,
55705676,0100082C,true,Rx,0,8,00,C0,84,E8,66,40,12,DC,
55705953,0110483C,true,Rx,0,8,08,E2,20,00,44,66,FC,52,
55715723,0100082C,true,Rx,0,8,00,C0,84,E8,66,40,12,DC,
55716000,0110483C,true,Rx,0,8,08,E2,20,00,44,66,FC,53,
55725686,0100082C,true,Rx,0,8,00,C0,84,E8,66,40,12,DC,
55725974,0110483C,true,Rx,0,8,08,E2,20,00,44,66,FC,52,
55735692,0100082C,true,Rx,0,8,00,C0,84,E8,66,40,12,DC,
55735980,0110483C,true,Rx,0,8,08,E2,20,00,44,66,FC,52,
55745717,0100082C,true,Rx,0,8,00,C0,84,E8,66,40,12,DC,
55745994,0110483C,true,Rx,0,8,08,E2,A0,00,44,66,FC,52,
55755701,0100082C,true,Rx,0,8,00,C0,84,E8,66,40,12,DC,
55755979,0110483C,true,Rx,0,8,08,E2,20,00,44,66,FC,52,
55765696,0100082C,true,Rx,0,8,00,C0,84,E8,66,40,12,DC,
55765974,0110483C,true,Rx,0,8,08,E2,20,00,44,66,FC,52,
55775732,0100082C,true,Rx,0,8,00,C0,84,E8,66,40,12,DC,
55776010,0110483C,true,Rx,0,8,08,E2,20,00,44,66,FC,52,
55785686,0100082C,true,Rx,0,8,00,C0,84,E8,66,40,12,DC,
55785964,0110483C,true,Rx,0,8,08,E2,20,00,44,66,FC,52,
55795763,0100082C,true,Rx,0,8,00,C0,84,E8,66,40,12,DC,
55796041,0110483C,true,Rx,0,8,08,E2,A0,00,44,66,FC,52,
55796331,1AE0092C,true,Rx,0,8,40,00,22,E0,41,A0,00,00,
55796611,1B700030,true,Rx,0,8,25,92,22,00,00,00,03,00,
55805672,0100082C,true,Rx,0,8,00,C0,84,E8,66,40,12,DC,
55805951,0110483C,true,Rx,0,8,08,E2,20,00,44,66,FC,52,
55815718,0100082C,true,Rx,0,8,00,C0,84,E8,66,40,12,DC,
55816006,0110483C,true,Rx,0,8,08,E2,20,00,44,66,FC,53,
55825681,0100082C,true,Rx,0,8,00,C0,84,E8,66,40,12,DC,
55825969,0110483C,true,Rx,0,8,08,E2,20,00,44,66,FC,53,
55830721,1BA0493C,true,Rx,0,8,13,00,00,00,00,00,00,00,
55835702,0100082C,true,Rx,0,8,00,C0,84,E8,66,40,12,DC,
55835980,0110483C,true,Rx,0,8,08,E2,20,00,44,66,FC,52,
55845707,0100082C,true,Rx,0,8,00,C0,84,E8,66,40,12,DC,
55845984,0110483C,true,Rx,0,8,08,E2,A0,00,44,66,FC,52,
55855722,0100082C,true,Rx,0,8,00,C0,84,E8,66,40,12,DC,
55856000,0110483C,true,Rx,0,8,08,E2,20,00,44,66,FC,52,
55865696,0100082C,true,Rx,0,8,00,C0,84,E8,66,40,12,DC,
55865984,0110483C,true,Rx,0,8,08,E2,20,00,44,66,FC,52,
55875703,0100082C,true,Rx,0,8,00,C0,84,E8,66,40,12,DC,
55875979,0110483C,true,Rx,0,8,08,E2,20,00,44,66,FC,52,
55885675,0100082C,true,Rx,0,8,00,C0,84,E8,66,40,12,DC,
55885953,0110483C,true,Rx,0,8,08,E2,20,00,44,66,FC,52,
55895713,0100082C,true,Rx,0,8,00,C0,84,E8,66,40,12,DC,
55895989,0110483C,true,Rx,0,8,08,E2,A0,00,44,66,FC,52,
55905687,0100082C,true,Rx,0,8,00,C0,84,E8,66,40,12,DC,
55905973,0110483C,true,Rx,0,8,08,E2,20,00,44,66,FC,52,
55915733,0100082C,true,Rx,0,8,00,C0,84,E8,66,40,12,DC,
55916020,0110483C,true,Rx,0,8,08,E2,20,00,44,66,FC,52,
55925697,0100082C,true,Rx,0,8,00,C0,84,E8,66,40,12,DC,
55925973,0110483C,true,Rx,0,8,08,E2,20,00,44,66,FC,52,
55935733,0100082C,true,Rx,0,8,00,C0,84,E8,66,40,12,DC,
55936009,0110483C,true,Rx,0,8,08,E2,20,00,44,66,FC,53,
55945695,0100082C,true,Rx,0,8,00,C0,84,E8,66,40,12,DC,
55945971,0110483C,true,Rx,0,8,08,E2,A0,00,44,66,FC,52,
55955709,0100082C,true,Rx,0,8,00,C0,84,E8,66,40,12,DC,
55955985,0110483C,true,Rx,0,8,08,E2,20,00,44,66,FC,52,
55965714,0100082C,true,Rx,0,8,00,C0,84,E8,66,40,12,DC,
55965991,0110483C,true,Rx,0,8,08,E2,20,00,44,66,FC,52,
55975707,0100082C,true,Rx,0,8,00,C0,84,E8,66,40,12,DC,
55975984,0110483C,true,Rx,0,8,08,E2,20,00,44,66,FC,52,
55985712,0100082C,true,Rx,0,8,00,C0,84,E8,66,40,12,DC,
55985988,0110483C,true,Rx,0,8,08,E2,20,00,44,66,FC,52,
55995726,0100082C,true,Rx,0,8,00,C0,84,E8,66,40,12,DC,
55996002,0110483C,true,Rx,0,8,08,E2,A0,00,44,66,FC,52,
56005719,0100082C,true,Rx,0,8,00,C0,84,E8,66,40,12,DC,
56005996,0110483C,true,Rx,0,8,08,E2,20,00,44,66,FC,52,
56006287,1A200020,true,Rx,0,8,0E,00,02,37,00,00,02,34,
56006566,1B700030,true,Rx,0,8,25,92,22,00,00,00,03,00,
56015764,0100082C,true,Rx,0,8,00,C0,84,E8,66,40,12,DC,
56016041,0110483C,true,Rx,0,8,08,E2,20,00,44,66,FC,52,
56025697,0100082C,true,Rx,0,8,00,C0,84,E8,66,40,12,DC,
56025984,0110483C,true,Rx,0,8,08,E2,20,00,44,66,FC,53,
56035713,0100082C,true,Rx,0,8,00,C0,84,E8,66,40,12,DC,
56035989,0110483C,true,Rx,0,8,08,E2,20,00,44,66,FC,53,
56045697,0100082C,true,Rx,0,8,00,C0,84,E8,66,40,12,DC,
56045973,0110483C,true,Rx,0,8,08,E2,A0,00,44,66,FC,53,
56055712,0100082C,true,Rx,0,8,00,C0,84,E8,66,40,12,DC,
56055989,0110483C,true,Rx,0,8,08,E2,20,00,44,66,FC,52,
56065707,0100082C,true,Rx,0,8,00,C0,84,E8,66,40,12,DC,
56065994,0110483C,true,Rx,0,8,08,E2,20,00,44,66,FC,52,
56075713,0100082C,true,Rx,0,8,00,C0,84,E8,66,40,12,DC,
56076000,0110483C,true,Rx,0,8,08,E2,20,00,44,66,FC,52,
56080690,1BA0493C,true,Rx,0,8,14,00,00,00,00,00,00,00,
56080957,1BE0493C,true,Rx,0,8,12,32,33,31,39,36,35,36,
56085720,0100082C,true,Rx,0,8,00,C0,84,E8,66,40,12,DC,
56086008,0110483C,true,Rx,0,8,08,E2,20,00,44,66,FC,52,
56095756,0100082C,true,Rx,0,8,00,C0,84,E8,66,40,12,DC,
56096032,0110483C,true,Rx,0,8,08,E2,A0,00,44,66,FC,52,
56105688,0100082C,true,Rx,0,8,00,C0,84,E8,66,40,12,DC,
56105964,0110483C,true,Rx,0,8,08,E2,20,00,44,66,FC,52,
56115733,0100082C,true,Rx,0,8,00,C0,84,E8,66,40,12,DC,
56116009,0110483C,true,Rx,0,8,08,E2,20,00,44,66,FC,52,
56125687,0100082C,true,Rx,0,8,00,C0,84,E8,66,40,12,DC,
56125963,0110483C,true,Rx,0,8,08,E2,20,00,44,66,FC,52,
56135712,0100082C,true,Rx,0,8,00,C0,84,E8,66,40,12,DC,
56135989,0110483C,true,Rx,0,8,08,E2,20,00,44,66,FC,52,
56145707,0100082C,true,Rx,0,8,00,C0,84,E8,66,40,12,DC,
56145994,0110483C,true,Rx,0,8,08,E2,A0,00,44,66,FC,53,
56155712,0100082C,true,Rx,0,8,00,C0,84,E8,66,40,12,DC,
56155989,0110483C,true,Rx,0,8,08,E2,20,00,44,66,FC,53,
56165707,0100082C,true,Rx,0,8,00,C0,84,E8,66,40,12,DC,
56165994,0110483C,true,Rx,0,8,08,E2,20,00,44,66,FC,52,
56175733,0100082C,true,Rx,0,8,00,C0,84,E8,66,40,12,DC,
56176011,0110483C,true,Rx,0,8,08,E2,20,00,44,66,FC,52,
56185697,0100082C,true,Rx,0,8,00,C0,84,E8,66,40,12,DC,
56185975,0110483C,true,Rx,0,8,08,E2,20,00,44,66,FC,52,
56195723,0100082C,true,Rx,0,8,00,C0,84,E8,66,40,12,DC,
56196000,0110483C,true,Rx,0,8,08,E2,A0,00,44,66,FC,52,
56205697,0100082C,true,Rx,0,8,00,C0,84,E8,66,40,12,DC,
56205974,0110483C,true,Rx,0,8,08,E2,20,00,44,66,FC,52,
56215766,0100082C,true,Rx,0,8,00,C0,84,E8,66,40,12,DC,
56216044,0110483C,true,Rx,0,8,08,E2,20,00,44,66,FC,52,
56216334,1AE0092C,true,Rx,0,8,80,00,22,E0,41,A0,00,00,
56216613,1B700030,true,Rx,0,8,35,92,22,00,00,00,03,00,
56225728,0100082C,true,Rx,0,8,00,C0,84,E8,66,40,12,DC,
56226006,0110483C,true,Rx,0,8,08,E2,20,00,44,66,FC,52,
56235712,0100082C,true,Rx,0,8,00,C0,84,E8,66,40,12,DC,
56235990,0110483C,true,Rx,0,8,08,E2,20,00,44,66,FC,52,
56245707,0100082C,true,Rx,0,8,00,C0,84,E8,66,40,12,DC,
56245984,0110483C,true,Rx,0,8,08,E2,A0,00,44,66,FC,52,
56255733,0100082C,true,Rx,0,8,00,C0,84,E8,66,40,12,DC,
56256021,0110483C,true,Rx,0,8,08,E2,20,00,44,66,FC,52,
56265727,0100082C,true,Rx,0,8,00,C0,84,E8,66,40,12,DC,
56266005,0110483C,true,Rx,0,8,08,E2,20,00,44,66,FC,52,
56275723,0100082C,true,Rx,0,8,00,C0,84,E8,66,40,12,DC,
56276001,0110483C,true,Rx,0,8,08,E2,20,00,44,66,FC,52,
56285686,0100082C,true,Rx,0,8,00,C0,84,E8,66,40,12,DC,
56285974,0110483C,true,Rx,0,8,08,E2,20,00,44,66,FC,52,
56295732,0100082C,true,Rx,0,8,00,C0,84,E8,66,40,12,DC,
56296010,0110483C,true,Rx,0,8,08,E2,A0,00,44,66,FC,52,
56305686,0100082C,true,Rx,0,8,00,C0,84,E8,66,40,12,DC,
56305974,0110483C,true,Rx,0,8,08,E2,20,00,44,66,FC,52,
56315743,0100082C,true,Rx,0,8,00,C0,84,E8,66,40,12,DC,
56316031,0110483C,true,Rx,0,8,08,E2,20,00,44,66,FC,52,
56320712,1A200020,true,Rx,0,8,4E,00,02,37,00,00,02,34,
56325723,0100082C,true,Rx,0,8,00,C0,84,E8,66,40,12,DC,
56326002,0110483C,true,Rx,0,8,08,E2,20,00,44,66,FC,52,
56330703,1BA0493C,true,Rx,0,8,01,03,02,09,01,03,04,02,
56330979,1BE0493C,true,Rx,0,8,01,00,2A,96,BC,9B,02,04,
56335743,0100082C,true,Rx,0,8,00,C0,84,E8,66,40,12,DC,
56336019,0110483C,true,Rx,0,8,08,E2,20,00,44,66,FC,52,
56345704,0100082C,true,Rx,0,8,00,C0,84,E8,66,40,12,DC,
56345982,0110483C,true,Rx,0,8,08,E2,A0,00,44,66,FC,52,
56355720,0100082C,true,Rx,0,8,00,C0,84,E8,66,40,12,DC,
56355997,0110483C,true,Rx,0,8,08,E2,20,00,44,66,FC,52,
56365725,0100082C,true,Rx,0,8,00,C0,84,E8,66,40,12,DC,
56366002,0110483C,true,Rx,0,8,08,E2,20,00,44,66,FC,52,
56375718,0100082C,true,Rx,0,8,00,C0,84,E8,66,40,12,DC,
56376005,0110483C,true,Rx,0,8,08,E2,20,00,44,66,FC,52,
56385703,0100082C,true,Rx,0,8,00,C0,84,E8,66,40,12,DC,
56385980,0110483C,true,Rx,0,8,08,E2,20,00,44,66,FC,53,
56395728,0100082C,true,Rx,0,8,00,C0,84,E8,66,40,12,DC,
56396015,0110483C,true,Rx,0,8,08,E2,A0,00,44,66,FC,52,
56405692,0100082C,true,Rx,0,8,00,C0,84,E8,66,40,12,DC,
56405979,0110483C,true,Rx,0,8,08,E2,20,00,44,66,FC,52,
56415769,0100082C,true,Rx,0,8,00,C0,84,E8,66,40,12,DC,
56416045,0110483C,true,Rx,0,8,08,E2,20,00,44,66,FC,52,
56425710,0100082C,true,Rx,0,8,00,C0,84,E8,66,40,12,DC,
56425987,0110483C,true,Rx,0,8,08,E2,20,00,44,66,FC,52,
56426276,1B700030,true,Rx,0,8,25,92,22,00,00,00,03,00,
56435718,0100082C,true,Rx,0,8,00,C0,84,E8,66,40,12,DC,
56435995,0110483C,true,Rx,0,8,08,E2,20,00,44,66,FC,52,
56445723,0100082C,true,Rx,0,8,00,C0,84,E8,66,40,12,DC,
56446000,0110483C,true,Rx,0,8,08,E2,A0,00,44,66,FC,52,
56455728,0100082C,true,Rx,0,8,00,C0,84,E8,66,40,12,DC,
56456005,0110483C,true,Rx,0,8,08,E2,20,00,44,66,FC,52,
56465714,0100082C,true,Rx,0,8,00,C0,84,E8,66,40,12,DC,
56466002,0110483C,true,Rx,0,8,08,E2,20,00,44,66,FC,52,
56475729,0100082C,true,Rx,0,8,00,C0,84,E8,66,40,12,DC,
56476006,0110483C,true,Rx,0,8,08,E2,20,00,44,66,FC,52,
56485692,0100082C,true,Rx,0,8,00,C0,84,E8,66,40,12,DC,
56485979,0110483C,true,Rx,0,8,08,E2,20,00,44,66,FC,53,
56495759,0100082C,true,Rx,0,8,00,C0,84,E8,66,40,12,DC,
56496036,0110483C,true,Rx,0,8,08,E2,A0,00,44,66,FC,52,
56505712,0100082C,true,Rx,0,8,00,C0,84,E8,66,40,12,DC,
56505989,0110483C,true,Rx,0,8,08,E2,20,00,44,66,FC,52,
56515749,0100082C,true,Rx,0,8,00,C0,84,E8,66,40,12,DC,
56516025,0110483C,true,Rx,0,8,08,E2,20,00,44,66,FC,52,
56525713,0100082C,true,Rx,0,8,00,C0,84,E8,66,40,12,DC,
56525989,0110483C,true,Rx,0,8,08,E2,20,00,44,66,FC,52,
56535718,0100082C,true,Rx,0,8,00,C0,84,E8,66,40,12,DC,
56536004,0110483C,true,Rx,0,8,08,E2,20,00,44,66,FC,52,
56545722,0100082C,true,Rx,0,8,00,C0,84,E8,66,40,12,DC,
56545999,0110483C,true,Rx,0,8,08,E2,A0,00,44,66,FC,52,
56555717,0100082C,true,Rx,0,8,00,C0,84,E8,66,40,12,DC,
56556004,0110483C,true,Rx,0,8,08,E2,20,00,44,66,FC,52,
56565733,0100082C,true,Rx,0,8,00,C0,84,E8,66,40,12,DC,
56566009,0110483C,true,Rx,0,8,08,E2,20,00,44,66,FC,52,
56575759,0100082C,true,Rx,0,8,00,C0,84,E8,66,40,12,DC,
56576036,0110483C,true,Rx,0,8,08,E2,20,00,44,66,FC,52,
56580738,1BA0493C,true,Rx,0,8,02,01,05,02,03,01,01,02,
56581025,1BE0493C,true,Rx,0,8,02,4C,8D,00,3D,00,00,00,
56585727,0100082C,true,Rx,0,8,00,C0,84,E8,66,40,12,DC,
56586014,0110483C,true,Rx,0,8,08,E2,20,00,44,66,FC,52,
56595741,0100082C,true,Rx,0,8,00,C0,84,E8,66,40,12,DC,
56596018,0110483C,true,Rx,0,8,08,E2,A0,00,44,66,FC,52,
56605704,0100082C,true,Rx,0,8,00,C0,84,E8,66,40,12,DC,
56605980,0110483C,true,Rx,0,8,08,E2,20,00,44,66,FC,52,
56615748,0100082C,true,Rx,0,8,00,C0,84,E8,66,40,12,DC,
56616025,0110483C,true,Rx,0,8,08,E2,20,00,44,66,FC,53,
56625712,0100082C,true,Rx,0,8,00,C0,84,E8,66,40,12,DC,
56625999,0110483C,true,Rx,0,8,08,E2,20,00,44,66,FC,52,
56635769,0100082C,true,Rx,0,8,00,C0,84,E8,66,40,12,DC,
56636047,0110483C,true,Rx,0,8,08,E2,20,00,44,66,FC,52,
56636336,1A200020,true,Rx,0,8,8E,00,02,37,00,00,02,34,
56636615,1AE0092C,true,Rx,0,8,C0,00,22,E0,41,A0,00,00,
56636907,1B700030,true,Rx,0,8,25,92,22,00,00,00,03,00,
56645712,0100082C,true,Rx,0,8,00,C0,84,E8,66,40,12,DC,
56645989,0110483C,true,Rx,0,8,08,E2,A0,00,44,66,FC,52,
56655748,0100082C,true,Rx,0,8,00,C0,84,E8,66,40,12,DC,
56656026,0110483C,true,Rx,0,8,08,E2,20,00,44,66,FC,52,
56665721,0100082C,true,Rx,0,8,00,C0,84,E8,66,40,12,DC,
56666009,0110483C,true,Rx,0,8,08,E2,20,00,44,66,FC,52,
56675736,0100082C,true,Rx,0,8,00,C0,84,E8,66,40,12,DC,
56676013,0110483C,true,Rx,0,8,08,E2,20,00,44,66,FC,52,
56685729,0100082C,true,Rx,0,8,00,C0,84,E8,66,40,12,DC,
56686007,0110483C,true,Rx,0,8,08,E2,20,00,44,66,FC,52,
56695743,0100082C,true,Rx,0,8,00,C0,84,E8,66,40,12,DC,
56696021,0110483C,true,Rx,0,8,08,E2,A0,00,44,66,FC,52,
56705706,0100082C,true,Rx,0,8,00,C0,84,E8,66,40,12,DC,
56705984,0110483C,true,Rx,0,8,08,E2,20,00,44,66,FC,53,
56715754,0100082C,true,Rx,0,8,00,C0,84,E8,66,40,12,DC,
56716032,0110483C,true,Rx,0,8,08,E2,20,00,44,66,FC,52,
56725718,0100082C,true,Rx,0,8,00,C0,84,E8,66,40,12,DC,
56725995,0110483C,true,Rx,0,8,08,E2,20,00,44,66,FC,53,
56735753,0100082C,true,Rx,0,8,00,C0,84,E8,66,40,12,DC,
56736030,0110483C,true,Rx,0,8,08,E2,20,00,44,66,FC,52,
56745727,0100082C,true,Rx,0,8,00,C0,84,E8,66,40,12,DC,
56746005,0110483C,true,Rx,0,8,08,E2,A0,00,44,66,FC,52,
56755723,0100082C,true,Rx,0,8,00,C0,84,E8,66,40,12,DC,
56756011,0110483C,true,Rx,0,8,08,E2,20,00,44,66,FC,52,
56765728,0100082C,true,Rx,0,8,00,C0,84,E8,66,40,12,DC,
56766005,0110483C,true,Rx,0,8,08,E2,20,00,44,66,FC,52,
56775732,0100082C,true,Rx,0,8,00,C0,84,E8,66,40,12,DC,
56776010,0110483C,true,Rx,0,8,08,E2,20,00,44,66,FC,52,
56785705,0100082C,true,Rx,0,8,00,C0,84,E8,66,40,12,DC,
56785982,0110483C,true,Rx,0,8,08,E2,20,00,44,66,FC,52,
56795739,0100082C,true,Rx,0,8,00,C0,84,E8,66,40,12,DC,
56796018,0110483C,true,Rx,0,8,08,E4,A0,00,44,66,FC,52,
56805713,0100082C,true,Rx,0,8,00,C0,84,E8,66,40,12,DC,
56805990,0110483C,true,Rx,0,8,08,E4,20,00,44,66,FC,52,
56815790,0100082C,true,Rx,0,8,00,C0,84,E8,66,40,12,DC,
56816067,0110483C,true,Rx,0,8,08,E4,20,00,44,66,FC,52,
56825744,0100082C,true,Rx,0,8,00,C0,84,E8,66,40,12,DC,
56826030,0110483C,true,Rx,0,8,08,E4,20,00,44,66,FC,53,
56830742,1BA0493C,true,Rx,0,8,03,03,02,01,02,02,01,02,
56835733,0100082C,true,Rx,0,8,00,C0,84,E8,66,40,12,DC,
56836010,0110483C,true,Rx,0,8,08,E4,20,00,44,66,FC,53,
56845738,0100082C,true,Rx,0,8,00,C0,84,E8,66,40,12,DC,
56846015,0110483C,true,Rx,0,8,08,E4,A0,00,44,66,FC,52,
56846304,1B700030,true,Rx,0,8,35,92,22,00,00,00,03,00,
56855736,0100082C,true,Rx,0,8,00,C0,84,E8,66,40,12,DC,
56856012,0110483C,true,Rx,0,8,08,E4,20,00,44,66,FC,52,
56865740,0100082C,true,Rx,0,8,00,C0,84,E8,66,40,12,DC,
56866026,0110483C,true,Rx,0,8,08,E4,20,00,44,66,FC,52,
56875744,0100082C,true,Rx,0,8,00,C0,84,E8,66,40,12,DC,
56876020,0110483C,true,Rx,0,8,08,E6,2A,00,44,66,FC,52,
56885707,0100082C,true,Rx,0,8,00,C0,84,E8,66,40,12,DC,
56885984,0110483C,true,Rx,0,8,08,E6,2A,00,44,66,FC,52,
56895774,0100082C,true,Rx,0,8,00,C8,84,E8,66,40,12,DC,
56896051,0110483C,true,Rx,0,8,08,E6,AA,00,44,66,FC,52,
56905717,0100082C,true,Rx,0,8,00,C8,84,E8,66,40,12,DC,
56906004,0110483C,true,Rx,0,8,08,E9,2A,00,44,66,FC,52,
56915752,0100082C,true,Rx,0,8,00,C8,84,E8,66,40,12,DC,
56916029,0110483C,true,Rx,0,8,08,E9,2A,00,44,66,FC,52,
56925735,0100082C,true,Rx,0,8,00,C8,84,E8,66,40,12,DC,
56926012,0110483C,true,Rx,0,8,08,E9,2A,00,44,66,FC,52,
56928502,01C04026,true,Rx,0,8,80,00,80,00,80,00,80,00,
56928783,02000026,true,Rx,0,8,7F,34,00,CC,4A,00,E0,AC,
56929063,02104136,true,Rx,0,8,BB,00,3F,FF,07,E0,00,00,
56929343,02804026,true,Rx,0,8,B7,FF,77,FF,F2,00,1E,0A,
56929644,02C00020,true,Rx,0,8,00,00,00,00,00,00,00,00,
56929929,19A00002,true,Rx,0,8,12,00,00,00,00,00,00,07,
56935769,0100082C,true,Rx,0,8,00,C8,84,E8,66,40,12,DC,
56936046,0110483C,true,Rx,0,8,08,E9,2A,00,44,66,FC,53,
56942574,01C04026,true,Rx,0,8,80,00,80,00,80,00,80,00,
56942849,02000026,true,Rx,0,8,7F,34,00,CC,4A,00,E0,AC,
56943140,02104136,true,Rx,0,8,BB,00,3F,FF,07,E0,00,00,
56943420,02804026,true,Rx,0,8,B7,FF,77,FF,F2,00,1E,0A,
56943720,02C00020,true,Rx,0,8,00,00,00,00,00,00,00,00,
56945837,0100082C,true,Rx,0,8,00,C8,84,E8,66,40,12,DC,
56946118,0110483C,true,Rx,0,8,08,E9,AA,00,44,66,FC,52,
56950714,1A200020,true,Rx,0,8,CE,00,02,37,00,00,02,34,
56955739,0100082C,true,Rx,0,8,00,C8,84,E8,66,40,12,DC,
56956015,0110483C,true,Rx,0,8,08,E9,2A,00,44,66,FC,52,
56956501,01C04026,true,Rx,0,8,80,00,80,00,80,00,80,00,
56956780,02000026,true,Rx,0,8,7F,34,00,CC,4A,00,E0,AC,
56957062,02104136,true,Rx,0,8,BB,00,3F,FF,07,E0,00,00,
56957351,02804026,true,Rx,0,8,B7,FF,77,FF,F2,00,1E,0A,
56957641,02C00020,true,Rx,0,8,00,00,00,00,00,00,00,00,
56957930,19A00002,true,Rx,0,8,6E,00,00,00,00,00,00,F7,
56965740,0100082C,true,Rx,0,8,00,C8,84,E8,66,40,12,DC,
56966016,0110483C,true,Rx,0,8,08,E9,6A,00,44,66,FC,52,
56970521,01C04026,true,Rx,0,8,80,00,80,00,80,00,80,00,
56970796,02000026,true,Rx,0,8,7F,34,00,CC,4A,00,E0,AC,
56971088,02104136,true,Rx,0,8,BB,00,3F,FF,07,E0,00,00,
56971367,02804026,true,Rx,0,8,B7,FF,77,FF,F2,00,1E,0C,
56971658,02C00020,true,Rx,0,8,00,00,00,00,00,00,00,00,
56975895,0100082C,true,Rx,0,8,00,C8,84,E8,66,40,12,DC,
56976170,0110483C,true,Rx,0,8,08,E9,6A,00,44,66,FC,52,
56984500,01C04026,true,Rx,0,8,80,00,80,00,80,00,80,00,
56984776,02000026,true,Rx,0,8,7F,34,00,CC,4A,00,E0,AC,
56985067,02104136,true,Rx,0,8,BB,00,3F,FF,07,E0,00,00,
56985346,02804026,true,Rx,0,8,B7,FF,77,FF,F2,00,1E,0C,
56985637,02C00020,true,Rx,0,8,00,00,00,00,00,00,00,00,
56985917,0100082C,true,Rx,0,8,00,C8,84,E8,66,40,12,DC,
56986197,0110483C,true,Rx,0,8,08,E9,6A,00,44,66,FC,52,
56986488,19A00002,true,Rx,0,8,12,00,00,00,00,00,00,F7,
56995751,0100082C,true,Rx,0,8,00,C8,84,E8,66,40,12,DC,
56996028,0110483C,true,Rx,0,8,08,E9,EA,00,44,66,FC,52,
56998735,01C04026,true,Rx,0,8,80,00,80,00,80,00,80,00,
56999016,02000026,true,Rx,0,8,7F,34,00,CC,4A,00,E0,AC,
56999296,02104136,true,Rx,0,8,BB,00,3F,FF,07,E0,00,00,
56999586,02804026,true,Rx,0,8,37,FF,77,FF,F2,00,0E,0C,
56999877,02C00020,true,Rx,0,8,00,00,00,00,00,00,00,00,
57005708,0100082C,true,Rx,0,8,00,C8,84,E8,66,40,12,DC,
57005985,0110483C,true,Rx,0,8,08,E9,6A,00,44,66,FC,52,
57012739,01C04026,true,Rx,0,8,80,00,80,00,80,00,80,00,
57013015,02000026,true,Rx,0,8,7F,34,00,DC,4A,00,E0,AC,
57013295,02104136,true,Rx,0,8,BB,00,3F,FF,07,E0,00,00,
57013585,02804026,true,Rx,0,8,37,FF,77,FF,F2,00,0E,0C,
57013875,02C00020,true,Rx,0,8,00,00,00,00,00,00,00,00,
57014167,19A00002,true,Rx,0,8,02,00,00,00,00,00,00,F7,
57015295,1B200002,true,Rx,0,8,00,00,00,00,00,00,04,51,
57015916,0100082C,true,Rx,0,8,00,C8,84,E8,66,40,12,DC,
57016197,0110483C,true,Rx,0,8,08,E9,6A,00,44,66,FC,52,
57025717,0100082C,true,Rx,0,8,00,C8,84,E8,66,40,12,DC,
57026004,0110483C,true,Rx,0,8,08,E9,6A,00,44,66,FC,52,
57026747,01C04026,true,Rx,0,8,80,00,80,00,80,00,80,00,
57027029,02000026,true,Rx,0,8,7F,34,00,DC,4A,00,E0,AC,
57027308,02104136,true,Rx,0,8,BB,00,3F,FF,07,E0,00,00,
57027598,02804026,true,Rx,0,8,37,FF,77,FF,F2,00,0E,0C,
57027883,02C00020,true,Rx,0,8,00,00,00,00,00,00,00,00,
57035734,0100082C,true,Rx,0,8,00,C8,84,E8,66,40,12,DC,
57036011,0110483C,true,Rx,0,8,08,E9,6A,00,44,66,FC,52,
57040722,01C04026,true,Rx,0,8,80,00,80,00,80,00,80,00,
57041000,02000026,true,Rx,0,8,7F,34,00,DC,4A,00,E0,AC,
57041289,02104136,true,Rx,0,8,BB,00,3F,FF,07,E0,00,00,
57041570,02804026,true,Rx,0,8,37,FF,77,FF,F2,00,0E,0C,
57041870,02C00020,true,Rx,0,8,00,00,00,00,00,00,00,00,
57042160,19A00002,true,Rx,0,8,12,00,00,00,00,00,00,F7,
57045904,0100082C,true,Rx,0,8,00,C8,84,E8,66,40,12,DC,
57046180,0110483C,true,Rx,0,8,08,E9,EA,00,44,66,FC,52,
57054736,01C04026,true,Rx,0,8,80,00,80,00,80,00,80,00,
57055013,02000026,true,Rx,0,8,7F,34,00,DC,49,00,E0,AC,
57055292,02104136,true,Rx,0,8,BB,00,3F,FF,07,E0,00,00,
57055583,02804026,true,Rx,0,8,37,FF,77,FF,F2,00,0E,0C,
57055872,02C00020,true,Rx,0,8,00,00,00,00,00,00,00,00,
57056154,0100082C,true,Rx,0,8,00,C8,84,E8,66,40,12,DC,
57056433,0110483C,true,Rx,0,8,08,E9,6A,00,44,66,FC,52,
57056723,1AE0092C,true,Rx,0,8,00,00,22,E0,41,A0,00,00,
57057003,1B700030,true,Rx,0,8,25,92,22,00,00,C0,03,00,
57065755,0100082C,true,Rx,0,8,00,C8,84,E8,66,40,12,DC,
57066033,0110483C,true,Rx,0,8,08,E9,6A,00,44,66,FC,53,
57068730,01C04026,true,Rx,0,8,80,00,80,00,80,00,80,00,
57069000,02000026,true,Rx,0,8,7F,34,00,DC,49,00,E0,AC,
57069291,02104136,true,Rx,0,8,BB,00,3F,FF,07,E0,00,00,
57069570,02804026,true,Rx,0,8,37,FF,77,FF,F2,00,0E,0C,
57069872,02C00020,true,Rx,0,8,00,00,00,00,00,00,00,00,
57070154,19A00002,true,Rx,0,8,6E,00,00,00,00,00,00,F7,
57075800,0100082C,true,Rx,0,8,00,C8,84,E8,66,40,12,DC,
57076077,0110483C,true,Rx,0,8,08,E9,6A,00,44,66,FC,52,
57080718,1BA0493C,true,Rx,0,8,04,17,10,03,01,02,01,02,
57081004,1BE0493C,true,Rx,0,8,10,00,00,00,00,59,56,31,
57082746,01C04026,true,Rx,0,8,80,00,80,00,80,00,80,00,
57083026,02000026,true,Rx,0,8,7F,34,00,DC,4A,00,E0,AC,
57083316,02104136,true,Rx,0,8,BB,00,3F,FF,07,E0,00,00,
57083595,02804026,true,Rx,0,8,37,FF,77,FF,F2,00,0E,0C,
57083886,02C00020,true,Rx,0,8,00,00,00,00,00,00,00,00,
57085858,0100082C,true,Rx,0,8,00,C8,84,E8,66,40,12,DC,
57086130,0110483C,true,Rx,0,8,08,E9,6A,00,44,66,FC,52,
57095750,0100082C,true,Rx,0,8,00,C8,84,E8,66,40,12,DC,
57096026,0110483C,true,Rx,0,8,08,E9,EA,00,44,66,FC,52,
57096738,01C04026,true,Rx,0,8,80,00,80,00,80,00,80,00,
57097010,02000026,true,Rx,0,8,7F,34,00,DC,4A,00,E0,AC,
57097299,02104136,true,Rx,0,8,BB,00,3F,FF,07,E0,00,00,
57097579,02804026,true,Rx,0,8,37,FF,77,FF,F2,00,0E,0C,
57097874,02C00020,true,Rx,0,8,00,00,00,00,00,00,00,00,
57098165,19A00002,true,Rx,0,8,12,00,00,00,00,00,00,F7,
57100731,1B200002,true,Rx,0,8,00,00,00,00,00,00,0F,71,
57105737,0100082C,true,Rx,0,8,00,C8,84,E8,66,40,12,DC,
57106014,0110483C,true,Rx,0,8,08,E9,6A,00,44,66,FC,52,
57110738,01C04026,true,Rx,0,8,80,00,80,00,80,00,80,00,
57111025,02000026,true,Rx,0,8,7F,34,00,DC,4A,00,E0,AC,
57111304,02104136,true,Rx,0,8,BB,00,3F,FF,07,E0,00,00,
57111585,02804026,true,Rx,0,8,37,FF,77,F6,F2,00,0E,0C,
57111885,02C00020,true,Rx,0,8,00,00,00,00,00,00,00,00,
57115862,0100082C,true,Rx,0,8,00,C8,84,E8,66,40,12,DC,
57116139,0110483C,true,Rx,0,8,08,E9,6A,00,44,66,FC,52,
57124728,01C04026,true,Rx,0,8,80,00,80,00,80,00,80,00,
57125015,02000026,true,Rx,0,8,7F,34,00,DC,4A,00,E0,AC,
57125295,02104136,true,Rx,0,8,BB,00,3F,FF,07,E0,00,00,
57125585,02804026,true,Rx,0,8,37,FF,77,CD,F6,86,0E,07,
57125864,0100082C,true,Rx,0,8,00,C8,84,E8,66,40,12,DC,
57126137,0110483C,true,Rx,0,8,08,E9,6A,00,44,66,FC,52,
57126437,02C00020,true,Rx,0,8,00,00,00,00,00,00,00,00,
57126716,19A00002,true,Rx,0,8,02,00,00,00,00,00,00,F7,
57135764,0100082C,true,Rx,0,8,00,C8,84,E8,66,40,12,DC,
57136042,0110483C,true,Rx,0,8,08,E9,6A,00,44,66,FC,52,
57138758,01C04026,true,Rx,0,8,80,00,80,00,80,00,80,00,
57139028,02000026,true,Rx,0,8,7F,34,00,DC,4A,00,E0,AC,
57139319,02104136,true,Rx,0,8,BB,00,3F,FF,07,E0,00,00,
57139598,02804026,true,Rx,0,8,37,FF,77,90,F6,ED,0E,04,
57139893,02C00020,true,Rx,0,8,00,00,00,00,00,00,00,00,
57145722,0100082C,true,Rx,0,8,00,C8,84,E8,66,40,12,DC,
57146000,0110483C,true,Rx,0,8,08,E9,EA,00,44,66,FC,52,
57152751,01C04026,true,Rx,0,8,80,00,80,00,80,00,80,00,
57153029,02000026,true,Rx,0,8,7F,34,00,DC,49,00,E0,AC,
57153318,02104136,true,Rx,0,8,BB,00,3F,FF,07,E0,00,00,
57153598,02804026,true,Rx,0,8,37,FF,77,47,F7,3C,0E,01,
57153890,02C00020,true,Rx,0,8,00,00,00,00,00,00,00,00,
57154180,19A00002,true,Rx,0,8,12,00,00,00,00,00,00,F7,
57155897,0100082C,true,Rx,0,8,00,C8,84,E8,66,40,12,DC,
57156177,0110483C,true,Rx,0,8,08,E9,6A,00,44,66,FC,52,
57165748,0100082C,true,Rx,0,8,00,C8,84,E8,66,40,12,DC,
57166026,0110483C,true,Rx,0,8,08,E9,6A,00,44,66,FC,53,
57166789,01C04026,true,Rx,0,8,80,00,80,00,80,00,80,00,
57167070,02000026,true,Rx,0,8,7F,34,00,DC,49,00,E0,AC,
57167349,02104136,true,Rx,0,8,BB,00,3F,FF,07,E0,00,00,
57167630,02804026,true,Rx,0,8,37,FF,77,09,F7,30,0D,FF,
57167925,02C00020,true,Rx,0,8,00,00,00,00,00,00,00,00,
57175754,0100082C,true,Rx,0,8,00,C8,84,E8,66,40,12,DC,
57176032,0110483C,true,Rx,0,8,08,E9,6A,00,44,66,FC,52,
57180775,01C04026,true,Rx,0,8,80,00,80,00,80,00,80,00,
57181051,02000026,true,Rx,0,8,7F,34,00,DC,49,00,E0,AC,
57181342,02104136,true,Rx,0,8,BB,00,3F,FF,07,E0,00,00,
57181621,02804026,true,Rx,0,8,37,FF,77,04,F6,EA,0D,FD,
57181912,02C00020,true,Rx,0,8,00,00,00,00,00,00,00,00,
57182202,19A00002,true,Rx,0,8,6E,00,00,00,00,00,00,F7,
57185696,1B200002,true,Rx,0,8,00,00,00,00,00,00,0F,71,
57185974,0100082C,true,Rx,0,8,00,C8,84,E8,66,40,12,DC,
57186253,0110483C,true,Rx,0,8,08,E9,6A,00,44,66,FC,52,
57194761,01C04026,true,Rx,0,8,80,00,80,00,80,00,80,00,
57195038,02000026,true,Rx,0,8,7F,34,00,DC,49,00,E0,AC,
57195329,02104136,true,Rx,0,8,BB,00,3F,FF,07,E0,00,00,
57195598,02804026,true,Rx,0,8,37,FF,77,24,F6,B3,0D,F2,
57195877,0100082C,true,Rx,0,8,00,C8,84,E8,66,40,12,DC,
57196159,0110483C,true,Rx,0,8,08,E9,EA,00,44,66,FC,52,
57196449,02C00020,true,Rx,0,8,00,00,00,00,00,00,00,00,
57205719,0100082C,true,Rx,0,8,00,C8,84,E8,66,40,12,DC,
57205997,0110483C,true,Rx,0,8,08,E9,6A,00,44,66,FC,52,
57208786,01C04026,true,Rx,0,8,80,00,80,00,80,00,80,00,
57209068,02000026,true,Rx,0,8,7F,34,00,DC,49,00,E0,AC,
57209347,02104136,true,Rx,0,8,BB,00,3F,FF,07,E0,00,00,
57209626,02804026,true,Rx,0,8,37,FF,77,5B,F6,89,0D,E4,
57209921,02C00020,true,Rx,0,8,00,00,00,00,00,00,00,00,
57210210,19A00002,true,Rx,0,8,12,00,00,00,00,00,00,F7,
57215827,0100082C,true,Rx,0,8,00,C8,84,E8,66,40,12,DC,
57216105,0110483C,true,Rx,0,8,08,E9,6A,00,44,66,FC,52,
57222785,01C04026,true,Rx,0,8,80,00,80,00,80,00,80,00,
57223061,02000026,true,Rx,0,8,7F,34,00,DC,49,00,E0,AC,
57223351,02104136,true,Rx,0,8,BB,00,3F,FF,07,E0,00,00,
57223621,02804026,true,Rx,0,8,37,FF,77,6B,F6,F0,0D,D8,
57223922,02C00020,true,Rx,0,8,00,00,00,00,00,00,00,00,
57225873,0100082C,true,Rx,0,8,00,C8,84,E8,66,40,12,DC,
57226153,0110483C,true,Rx,0,8,08,E9,6A,00,44,66,FC,52,
57235764,0100082C,true,Rx,0,8,00,C8,84,E8,24,00,12,DC,
57236041,0110483C,true,Rx,0,8,08,E9,6A,00,44,66,FC,52,
57236774,01C04026,true,Rx,0,8,80,00,80,00,80,00,80,00,
57237054,02000026,true,Rx,0,8,7F,34,00,DC,49,00,E0,AC,
57237344,02104136,true,Rx,0,8,BB,00,3F,FF,07,E0,00,00,
57237614,02804026,true,Rx,0,8,37,FF,77,52,F7,3E,0D,D8,
57237910,02C00020,true,Rx,0,8,00,00,00,00,00,00,00,00,
57238200,19A00002,true,Rx,0,8,02,00,00,00,00,00,00,F7,
57245753,0100082C,true,Rx,0,8,00,C8,84,E8,24,00,12,DC,
57246031,0110483C,true,Rx,0,8,08,E9,EA,00,44,66,FC,52,
57250763,01C04026,true,Rx,0,8,80,00,80,00,80,00,80,00,
57251040,02000026,true,Rx,0,8,7F,34,00,DC,49,00,E0,AC,
57251320,02104136,true,Rx,0,8,BB,00,3F,FF,07,E0,00,00,
57251600,02804026,true,Rx,0,8,37,FF,77,1F,F7,63,0D,DE,
57251891,02C00020,true,Rx,0,8,00,00,00,00,00,00,00,00,
57255868,0100082C,true,Rx,0,8,00,C8,84,E8,24,00,12,DC,
57256154,0110483C,true,Rx,0,8,08,E9,6A,00,44,66,FC,52,
57264743,01C04026,true,Rx,0,8,80,00,80,00,80,00,80,00,
57265021,02000026,true,Rx,0,8,7F,34,00,DC,49,00,E0,AC,
57265311,02104136,true,Rx,0,8,BB,00,3F,FF,07,E0,00,00,
57265580,02804026,true,Rx,0,8,37,FF,76,EF,F7,60,0D,E9,
57265860,0100082C,true,Rx,0,8,00,C8,84,E8,24,00,12,DC,
57266141,0110483C,true,Rx,0,8,08,E9,6A,00,44,66,FC,52,
57266441,02C00020,true,Rx,0,8,00,00,00,00,00,00,00,00,
57266731,19A00002,true,Rx,0,8,12,00,00,00,00,00,00,F7,
57267010,1A200020,true,Rx,0,8,0E,00,00,00,00,00,02,34,
57267310,1B700030,true,Rx,0,8,25,00,22,00,00,00,00,00,
57270733,1B200002,true,Rx,0,8,00,00,00,00,00,00,0F,71,
57275766,0100082C,true,Rx,0,8,00,C8,84,E8,24,00,12,DC,
57276043,0110483C,true,Rx,0,8,08,E9,6A,00,44,66,FC,53,
57278800,01C04026,true,Rx,0,8,80,00,80,00,80,00,80,00,
57279072,02000026,true,Rx,0,8,7F,34,00,DC,49,00,E0,AC,
57279361,02104136,true,Rx,0,8,BB,00,3F,FF,07,E0,00,00,
57279642,02804026,true,Rx,0,8,37,FF,76,F4,F7,0F,0D,F7,
57279935,02C00020,true,Rx,0,8,00,00,00,00,00,00,00,00,
57285743,0100082C,true,Rx,0,8,00,C8,84,E8,76,03,12,DC,
57286021,0110483C,true,Rx,0,8,08,E9,6A,00,44,66,FC,52,
57292755,01C04026,true,Rx,0,8,80,00,80,00,80,00,80,00,
57293041,02000026,true,Rx,0,8,7F,34,00,DC,49,00,E0,AC,
57293321,02104136,true,Rx,0,8,BB,00,3F,FF,07,E0,00,00,
57293601,02804026,true,Rx,0,8,37,FF,77,1A,F6,CE,0D,FF,
57293892,02C00020,true,Rx,0,8,00,00,00,00,00,00,00,00,
57294181,19A00002,true,Rx,0,8,6E,00,00,00,00,00,00,F7,
57295961,0100082C,true,Rx,0,8,00,C8,84,E8,66,03,12,DC,
57296240,0110483C,true,Rx,0,8,08,E9,EA,00,44,66,FC,53,
57305739,0100082C,true,Rx,0,8,00,C8,84,E8,66,03,12,DC,
57306015,0110483C,true,Rx,0,8,08,E9,6A,00,44,66,FC,52,
57306789,01C04026,true,Rx,0,8,80,00,80,00,80,00,80,00,
57307059,02000026,true,Rx,0,8,7F,34,00,DC,49,00,E0,AC,
57307350,02104136,true,Rx,0,8,BB,00,3F,FF,07,E0,00,00,
57307629,02804026,true,Rx,0,8,37,FF,77,55,F6,9F,0E,01,
57307925,02C00020,true,Rx,0,8,00,00,00,00,00,00,00,00,
57314708,0340412E,true,Rx,0,8,00,00,00,00,00,00,00,00,
57314996,19000026,true,Rx,0,8,00,00,00,00,00,00,00,00,
57315842,0100082C,true,Rx,0,8,00,C8,84,E8,66,03,12,DC,
57316122,0110483C,true,Rx,0,8,08,E9,6A,00,44,66,FC,52,
57320782,01C04026,true,Rx,0,8,80,00,80,00,80,00,80,00,
57321059,02000026,true,Rx,0,8,7F,34,00,DC,49,00,E0,AC,
57321350,02104136,true,Rx,0,8,BB,00,3F,FF,07,E0,00,00,
57321629,02804026,true,Rx,0,8,37,FF,77,89,F6,C0,0E,07,
57321921,02C00020,true,Rx,0,8,00,00,00,00,00,00,00,00,
57322210,19A00002,true,Rx,0,8,12,00,00,00,00,00,00,F7,
57324689,0340412E,true,Rx,0,8,00,00,00,00,00,00,00,00,
57325967,0100082C,true,Rx,0,8,00,C8,84,E8,66,03,12,DC,
57326246,0110483C,true,Rx,0,8,08,E9,6A,00,44,66,FC,52,
57329713,19000026,true,Rx,0,8,00,00,00,00,00,00,04,00,
57330854,1BA0493C,true,Rx,0,8,05,03,01,01,01,02,01,03,
57331136,1BE0493C,true,Rx,0,8,01,00,2A,96,BC,A5,FD,FB,
57334788,0340412E,true,Rx,0,8,50,80,00,FD,80,00,00,00,
57335076,01C04026,true,Rx,0,8,80,00,80,00,80,00,80,00,
57335355,02000026,true,Rx,0,8,7F,34,00,DC,49,00,E0,AC,
57335635,02104136,true,Rx,0,8,BB,00,3F,FF,07,E0,00,00,
57335916,0100082C,true,Rx,0,8,00,C8,84,E8,66,03,12,DC,
57336196,0110483C,true,Rx,0,8,08,E9,6A,00,44,66,FC,52,
57336476,02804026,true,Rx,0,8,37,FF,77,88,F7,1A,0E,04,
57336766,02C00020,true,Rx,0,8,00,00,00,00,00,00,00,00,
57344775,0340412E,true,Rx,0,8,71,80,00,ED,80,00,00,00,
57345064,19000026,true,Rx,0,8,00,00,00,00,38,13,04,00,
57345858,0100082C,true,Rx,0,8,00,C8,84,E8,66,03,12,DC,
57346138,0110483C,true,Rx,0,8,08,E9,EA,00,44,66,FC,52,
57348788,01C04026,true,Rx,0,8,80,00,80,00,80,00,80,00,
57349065,02000026,true,Rx,0,8,7F,34,00,DC,49,00,E0,AC,
57349354,02104136,true,Rx,0,8,BB,00,3F,FF,07,E0,00,00,
57349625,02804026,true,Rx,0,8,37,FF,77,64,F7,60,0E,01,
57349926,02C00020,true,Rx,0,8,00,00,00,00,00,00,00,00,
57350215,19A00002,true,Rx,0,8,02,00,00,00,00,00,00,F7,
57354724,0340412E,true,Rx,0,8,72,80,00,DD,80,00,00,00,
57355712,1B200002,true,Rx,0,8,00,00,00,00,00,00,0F,71,
57355993,0100082C,true,Rx,0,8,00,C8,84,E8,66,03,12,DC,
57356262,0110483C,true,Rx,0,8,08,E9,6A,00,44,66,FC,52,
57359700,19000026,true,Rx,0,8,00,00,01,40,38,11,84,00,
57362754,01C04026,true,Rx,0,8,80,00,80,00,80,00,80,00,
57363041,02000026,true,Rx,0,8,7F,34,00,DC,4A,00,E0,AC,
57363322,02104136,true,Rx,0,8,BB,00,3F,FF,07,E0,00,00,
57363601,02804026,true,Rx,0,8,37,FF,77,2B,F7,63,0D,FF,
57363892,02C00020,true,Rx,0,8,00,00,00,00,00,00,00,00,
57364788,0340412E,true,Rx,0,8,73,80,00,CD,80,00,00,00,
57365930,0100082C,true,Rx,0,8,00,C8,84,E8,66,03,12,DC,
57366209,0110483C,true,Rx,0,8,08,E9,6A,00,44,66,FC,52,
57374795,0340412E,true,Rx,0,8,74,80,00,BD,80,00,00,00,
57375083,19000026,true,Rx,0,8,00,00,01,40,38,11,84,00,
57375836,0100082C,true,Rx,0,8,00,C8,84,E8,76,03,12,DC,
57376116,0110483C,true,Rx,0,8,08,E9,6A,00,44,66,FC,52,
57376767,01C04026,true,Rx,0,8,80,00,80,00,80,00,80,00,
57377050,02000026,true,Rx,0,8,7F,34,00,DC,4A,00,E0,AC,
57377330,02104136,true,Rx,0,8,BB,00,3F,FF,07,E0,00,00,
57377609,02804026,true,Rx,0,8,37,FF,76,E4,F7,63,0D,FF,
57377900,02C00020,true,Rx,0,8,00,00,00,00,00,00,00,00,
57378191,19A00002,true,Rx,0,8,12,00,00,00,00,00,00,F7,
57384804,0340412E,true,Rx,0,8,75,80,00,AD,80,00,00,00,
57385761,0100082C,true,Rx,0,8,00,C8,84,E8,66,03,12,DC,
57386043,0110483C,true,Rx,0,8,08,E9,6A,00,44,66,FC,52,
57389717,19000026,true,Rx,0,8,00,00,01,40,38,11,84,00,
57390807,01C04026,true,Rx,0,8,80,00,80,00,80,00,80,00,
57391078,02000026,true,Rx,0,8,7F,34,00,DC,4A,00,E0,AC,
57391368,02104136,true,Rx,0,8,BB,00,3F,FF,07,E0,00,00,
57391647,02804026,true,Rx,0,8,37,FF,76,94,F7,63,0D,FF,
57391941,02C00020,true,Rx,0,8,00,00,00,00,00,00,00,00,
57394802,0340412E,true,Rx,0,8,76,80,00,9D,80,00,00,00,
57395956,0100082C,true,Rx,0,8,00,C8,84,E8,66,03,12,DC,
57396235,0110483C,true,Rx,0,8,08,E9,EA,00,44,66,FC,53,
57404732,01C04026,true,Rx,0,8,80,00,80,00,80,00,80,00,
57405010,02000026,true,Rx,0,8,7F,34,00,DC,4A,00,E0,AC,
57405300,02104136,true,Rx,0,8,BB,00,3F,FF,07,E0,00,00,
57405580,02804026,true,Rx,0,8,37,FF,76,3E,F7,63,0D,FF,
57405859,0100082C,true,Rx,0,8,00,C8,84,E8,66,03,12,DC,
57406140,0110483C,true,Rx,0,8,08,E9,6A,00,44,66,FC,52,
57406431,02C00020,true,Rx,0,8,00,00,00,00,00,00,00,00,
57406710,0340412E,true,Rx,0,8,77,80,00,8D,80,00,00,00,
57406999,19000026,true,Rx,0,8,00,00,01,40,38,11,84,00,
57407290,19A00002,true,Rx,0,8,6E,00,00,00,00,00,00,F7,
57414803,0340412E,true,Rx,0,8,78,80,00,7D,80,00,00,00,
57415821,0100082C,true,Rx,0,8,00,C8,84,E8,66,03,12,DC,
57416101,0110483C,true,Rx,0,8,08,E9,6A,00,44,66,FC,52,
57418780,01C04026,true,Rx,0,8,80,00,80,00,80,00,80,00,
57419057,02000026,true,Rx,0,8,7F,34,00,DC,49,00,E0,AC,
57419336,02104136,true,Rx,0,8,BB,00,3F,FF,07,E0,00,00,
57419617,02804026,true,Rx,0,8,37,FF,75,E5,F7,63,0D,FF,
57419918,02C00020,true,Rx,0,8,00,00,00,00,00,00,00,00,
57420208,19000026,true,Rx,0,8,00,00,01,40,38,11,84,00,
57424801,0340412E,true,Rx,0,8,79,80,00,6D,80,00,00,00,
57425869,0100082C,true,Rx,0,8,00,C8,84,E8,66,03,12,DC,
57426150,0110483C,true,Rx,0,8,08,E9,6A,00,44,66,FC,52,
57432766,01C04026,true,Rx,0,8,80,00,80,00,80,00,80,00,
57433053,02000026,true,Rx,0,8,7F,34,00,DC,49,00,E0,AC,
57433334,02104136,true,Rx,0,8,BB,00,3F,FF,07,E0,00,00,
57433613,02804026,true,Rx,0,8,37,FF,75,89,F7,63,0D,FF,
57433904,02C00020,true,Rx,0,8,00,00,00,00,00,00,00,00,
57434195,19A00002,true,Rx,0,8,12,00,00,00,00,00,00,F7,
57434819,0340412E,true,Rx,0,8,7A,80,00,5D,80,00,00,00,
57435089,19000026,true,Rx,0,8,00,00,01,40,38,11,84,00,
57436008,0100082C,true,Rx,0,8,00,C8,84,E8,66,03,12,DC,
57436289,0110483C,true,Rx,0,8,08,E9,6A,00,44,66,FC,52,
57440733,1B200002,true,Rx,0,8,00,00,00,00,00,00,0F,71,
57444803,0340412E,true,Rx,0,8,7B,80,00,4D,80,00,00,00,
57445810,0100082C,true,Rx,0,8,00,C8,84,E8,66,03,12,DC,
57446091,0110483C,true,Rx,0,8,08,E9,EA,00,44,66,FC,52,
57446813,01C04026,true,Rx,0,8,80,00,80,00,80,00,80,00,
57447096,02000026,true,Rx,0,8,7F,34,00,DC,49,00,E0,AC,
57447375,02104136,true,Rx,0,8,BB,00,3F,FF,07,E0,00,00,
57447664,02804026,true,Rx,0,8,37,FF,75,2D,F7,63,0D,FF,
57447956,02C00020,true,Rx,0,8,00,00,00,00,00,00,00,00,
57449732,19000026,true,Rx,0,8,00,00,01,40,38,11,84,00,
57454801,0340412E,true,Rx,0,8,7C,80,00,3D,80,00,00,00,
57455818,0100082C,true,Rx,0,8,00,C8,84,E8,66,03,12,DC,
57456088,0110483C,true,Rx,0,8,08,E9,6A,00,44,66,FC,52,
57460807,01C04026,true,Rx,0,8,80,00,80,00,80,00,80,00,
57461085,02000026,true,Rx,0,8,7F,34,00,DC,49,00,E0,AC,
57461364,02104136,true,Rx,0,8,BB,00,3F,FF,07,E0,00,00,
57461645,02804026,true,Rx,0,8,37,FF,74,CF,F7,63,0D,FF,
57461936,02C00020,true,Rx,0,8,00,00,00,00,00,00,00,00,
57462225,19A00002,true,Rx,0,8,02,00,00,00,00,00,00,F7,
57464809,0340412E,true,Rx,0,8,7D,80,00,2D,80,00,00,00,
57465095,19000026,true,Rx,0,8,00,00,01,40,38,11,84,00,
57466014,0100082C,true,Rx,0,8,00,C8,84,E8,66,03,12,DC,
57466295,0110483C,true,Rx,0,8,08,E9,6A,00,44,66,FC,52,
57474801,01C04026,true,Rx,0,8,80,00,80,00,80,00,80,00,
57475077,02000026,true,Rx,0,8,7F,34,00,DC,49,00,E0,AC,
57475356,02104136,true,Rx,0,8,BB,00,3F,FF,07,E0,00,00,
57475637,02804026,true,Rx,0,8,37,FF,74,70,F7,63,0D,FF,
57475917,0100082C,true,Rx,0,8,00,C8,84,E8,66,03,12,DC,
57476197,0110483C,true,Rx,0,8,08,E9,6A,00,44,66,FC,52,
57476487,02C00020,true,Rx,0,8,00,00,00,00,00,00,00,00,
57476777,0340412E,true,Rx,0,8,7E,80,00,1D,80,00,00,00,
57477057,1AE0092C,true,Rx,0,8,40,00,22,E0,40,00,00,00,
57477347,1B700030,true,Rx,0,8,35,00,22,00,00,00,00,00,
57479737,19000026,true,Rx,0,8,00,00,01,40,38,11,84,00,
57484806,0340412E,true,Rx,0,8,7F,80,00,0D,80,00,00,00,
57485772,0100082C,true,Rx,0,8,00,C8,84,E8,66,03,12,DC,
57486053,0110483C,true,Rx,0,8,08,E9,6A,00,44,66,FC,52,
57488825,01C04026,true,Rx,0,8,80,00,80,00,80,00,80,00,
57489102,02000026,true,Rx,0,8,7F,34,00,DC,49,00,E0,AC,
57489393,02104136,true,Rx,0,8,BB,00,3F,FF,07,E0,00,00,
57489661,02804026,true,Rx,0,8,37,FF,74,12,F7,63,0D,FF,
57489963,02C00020,true,Rx,0,8,00,00,00,00,00,00,00,00,
57490253,19A00002,true,Rx,0,8,12,00,00,00,00,00,00,F7,
57494815,0340412E,true,Rx,0,8,70,80,00,FD,80,00,00,00,
57495102,19000026,true,Rx,0,8,00,00,01,40,38,11,84,00,
57495865,0100082C,true,Rx,0,8,00,C8,84,E8,66,03,12,DC,
57496146,0110483C,true,Rx,0,8,08,E9,EA,00,44,66,FC,53,
57502827,01C04026,true,Rx,0,8,80,00,80,00,80,00,80,00,
57503104,02000026,true,Rx,0,8,7F,34,00,DC,49,00,E0,AC,
57503384,02104136,true,Rx,0,8,BB,00,3F,FF,07,E0,00,00,
57503663,02804026,true,Rx,0,8,37,FF,73,B3,F7,63,0D,FF,
57503955,02C00020,true,Rx,0,8,00,00,00,00,00,00,00,00,
57504811,0340412E,true,Rx,0,8,71,80,00,ED,80,00,00,00,
57505951,0100082C,true,Rx,0,8,00,C8,84,E8,76,03,12,DC,
57506231,0110483C,true,Rx,0,8,08,E9,6A,00,44,66,FC,53,
57509728,19000026,true,Rx,0,8,00,FF,01,40,38,11,8C,00,
57514813,0340412E,true,Rx,0,8,72,80,00,DD,80,00,00,00,
57515799,0100082C,true,Rx,0,8,00,C8,84,E8,66,03,12,DC,
57516080,0110483C,true,Rx,0,8,08,E9,6A,00,44,66,FC,52,
57516792,01C04026,true,Rx,0,8,80,00,80,00,80,00,80,00,
57517075,02000026,true,Rx,0,8,7F,34,00,DC,49,00,E0,AC,
57517365,02104136,true,Rx,0,8,BB,00,3F,FF,07,E0,00,00,
57517644,02804026,true,Rx,0,8,37,FF,73,54,F7,63,0D,FF,
57517936,02C00020,true,Rx,0,8,00,00,00,00,00,00,00,00,
57518226,19A00002,true,Rx,0,8,6E,00,00,00,00,00,00,F7,
57524807,0340412E,true,Rx,0,8,73,80,00,CD,80,00,00,00,
57525094,19000026,true,Rx,0,8,00,FF,01,40,38,11,84,00,
57525703,1B200002,true,Rx,0,8,00,00,00,00,00,00,0F,71,
57525984,0100082C,true,Rx,0,8,00,C8,84,E8,66,03,12,DC,
57526264,0110483C,true,Rx,0,8,08,E9,6A,00,44,66,FC,52,
57530802,01C04026,true,Rx,0,8,80,00,80,00,80,00,80,00,
57531089,02000026,true,Rx,0,8,7F,34,00,DC,49,00,E0,AC,
57531369,02104136,true,Rx,0,8,BB,00,3F,FF,07,E0,00,00,
57531649,02804026,true,Rx,0,8,37,FF,72,F5,F7,63,0D,FF,
57531940,02C00020,true,Rx,0,8,00,00,00,00,00,00,00,00,
57534808,0340412E,true,Rx,0,8,74,80,00,BD,80,00,00,00,
57535991,0100082C,true,Rx,0,8,00,C8,84,E8,66,03,12,DC,
57536262,0110483C,true,Rx,0,8,08,E9,6A,00,44,66,FC,52,
57539728,19000026,true,Rx,0,8,00,FF,01,40,38,11,84,00,
57544751,01C04026,true,Rx,0,8,80,00,80,00,80,00,80,00,
57545028,02000026,true,Rx,0,8,7F,34,00,DC,49,00,E0,AC,
57545318,02104136,true,Rx,0,8,BB,00,3F,FF,07,E0,00,00,
57545588,02804026,true,Rx,0,8,37,FF,72,95,F7,63,0D,FF,
57545867,0100082C,true,Rx,0,8,00,C8,84,E8,66,03,12,DC,
57546149,0110483C,true,Rx,0,8,08,E9,EA,00,44,66,FC,52,
57546449,02C00020,true,Rx,0,8,00,00,00,00,00,00,00,00,
57546728,0340412E,true,Rx,0,8,75,80,00,AD,80,00,00,00,
57547019,19A00002,true,Rx,0,8,12,00,00,00,00,00,00,F7,
57554807,0340412E,true,Rx,0,8,76,80,00,9D,80,00,00,00,
57555094,19000026,true,Rx,0,8,00,FF,01,40,38,11,84,00,
57555806,0100082C,true,Rx,0,8,00,C8,84,E8,66,03,12,DC,
57556088,0110483C,true,Rx,0,8,08,E9,6A,00,44,66,FC,52,
57558790,01C04026,true,Rx,0,8,80,00,80,00,80,00,80,00,
57559066,02000026,true,Rx,0,8,7F,34,00,DC,49,00,E0,AC,
57559357,02104136,true,Rx,0,8,BB,00,3F,FF,07,E0,00,00,
57559626,02804026,true,Rx,0,8,37,FF,72,36,F7,63,0D,FF,
57559928,02C00020,true,Rx,0,8,00,00,00,00,00,00,00,00,
57564805,0340412E,true,Rx,0,8,77,80,00,8D,80,00,00,00,
57565792,0100082C,true,Rx,0,8,00,C8,84,E8,66,03,12,DC,
57566073,0110483C,true,Rx,0,8,08,E9,6A,00,44,66,FC,52,
57569797,19000026,true,Rx,0,8,00,FF,01,40,38,11,84,00,
57572778,01C04026,true,Rx,0,8,80,00,80,00,80,00,80,00,
57573056,02000026,true,Rx,0,8,7F,34,00,DC,49,00,E0,AC,
57573335,02104136,true,Rx,0,8,BB,00,3F,FF,07,E0,00,00,
57573615,02804026,true,Rx,0,8,37,FF,71,D7,F7,63,0D,FF,
57573906,02C00020,true,Rx,0,8,00,00,00,00,00,00,00,00,
57574196,19A00002,true,Rx,0,8,02,00,00,00,00,00,00,F7,
57574830,0340412E,true,Rx,0,8,78,80,00,7D,80,00,00,00,
57575946,0100082C,true,Rx,0,8,00,C8,84,E8,66,03,12,DC,
57576226,0110483C,true,Rx,0,8,08,E9,6A,00,44,66,FC,52,
57580858,1A200020,true,Rx,0,8,4E,00,00,00,00,00,02,34,
57581134,1BA0493C,true,Rx,0,8,06,02,01,07,04,01,02,01,
57581424,1BE0493C,true,Rx,0,8,02,03,8D,00,3B,00,00,00,
57584825,0340412E,true,Rx,0,8,79,80,00,6D,80,00,00,00,
57585112,19000026,true,Rx,0,8,00,FF,01,40,38,11,84,00,
57585845,0100082C,true,Rx,0,8,00,C8,84,E8,66,03,12,DC,
57586116,0110483C,true,Rx,0,8,08,E9,6A,00,44,66,FC,52,
57586808,01C04026,true,Rx,0,8,80,00,80,00,80,00,80,00,
57587080,02000026,true,Rx,0,8,7F,34,00,DC,49,00,E0,AC,
57587370,02104136,true,Rx,0,8,BB,00,3F,FF,07,E0,00,00,
57587650,02804026,true,Rx,0,8,37,FF,71,78,F7,63,0D,FF,
57587941,02C00020,true,Rx,0,8,00,00,00,00,00,00,00,00,
57594818,0340412E,true,Rx,0,8,7A,80,00,5D,80,00,00,00,
57595866,0100082C,true,Rx,0,8,00,C8,84,E8,76,03,12,DC,
57596138,0110483C,true,Rx,0,8,08,E9,EA,00,44,66,FC,52,
57599737,19000026,true,Rx,0,8,00,FF,01,40,38,11,8C,00,
57600797,01C04026,true,Rx,0,8,80,00,80,00,80,00,80,00,
57601067,02000026,true,Rx,0,8,7F,34,00,DC,49,00,E0,AC,
57601357,02104136,true,Rx,0,8,BB,00,3F,FF,07,E0,00,00,
57601638,02804026,true,Rx,0,8,37,FF,71,18,F7,63,0D,FF,
57601931,02C00020,true,Rx,0,8,00,00,00,00,00,00,00,00,
57602222,19A00002,true,Rx,0,8,12,00,00,00,00,00,00,F7,
57604817,0340412E,true,Rx,0,8,7B,80,00,4D,80,00,00,00,
57605969,0100082C,true,Rx,0,8,00,C8,84,E8,66,03,12,DC,
57606250,0110483C,true,Rx,0,8,08,E9,6A,00,44,66,FC,52,
57610737,1B200002,true,Rx,0,8,00,00,00,00,00,00,0F,71,
57614775,01C04026,true,Rx,0,8,80,00,80,00,80,00,80,00,
57615051,02000026,true,Rx,0,8,7F,34,00,DC,49,00,E0,AC,
57615342,02104136,true,Rx,0,8,BB,00,3F,FF,07,E0,00,00,
57615621,02804026,true,Rx,0,8,37,FF,70,B9,F7,63,0D,FF,
57615902,0100082C,true,Rx,0,8,00,C8,84,E8,66,03,12,DC,
57616172,0110483C,true,Rx,0,8,08,E9,6A,00,44,66,FC,53,
57616472,02C00020,true,Rx,0,8,00,00,00,00,00,00,00,00,
57616751,0340412E,true,Rx,0,8,7C,80,00,3D,80,00,00,00,
57617042,19000026,true,Rx,0,8,00,FF,01,40,38,11,84,00,
57624811,0340412E,true,Rx,0,8,7D,80,00,2D,80,00,00,00,
57625787,0100082C,true,Rx,0,8,00,C8,84,E8,66,03,12,DC,
57626059,0110483C,true,Rx,0,8,08,E9,6A,00,44,66,FC,53,
57628789,01C04026,true,Rx,0,8,80,00,80,00,80,00,80,00,
57629067,02000026,true,Rx,0,8,7F,34,00,DC,49,00,E0,AC,
57629357,02104136,true,Rx,0,8,BB,00,3F,FF,07,E0,00,00,
57629636,02804026,true,Rx,0,8,37,FF,70,5A,F7,63,0D,FF,
57629928,02C00020,true,Rx,0,8,00,00,00,00,00,00,00,00,
57630217,19000026,true,Rx,0,8,00,FF,01,40,38,11,84,00,
57630497,19A00002,true,Rx,0,8,6E,00,00,00,00,00,00,F7,
57634805,0340412E,true,Rx,0,8,7E,80,00,1D,80,00,00,00,
57635926,0100082C,true,Rx,0,8,00,C8,84,E8,66,03,12,DC,
57636207,0110483C,true,Rx,0,8,08,E9,6A,00,44,66,FC,52,
57642770,01C04026,true,Rx,0,8,80,00,80,00,80,00,80,00,
57643048,02000026,true,Rx,0,8,7F,34,00,DC,49,00,E0,AC,
57643338,02104136,true,Rx,0,8,BB,00,3F,FF,07,E0,00,00,
57643617,02804026,true,Rx,0,8,37,FF,70,00,F7,63,0D,FF,
57643909,02C00020,true,Rx,0,8,00,00,00,00,00,00,00,00,
57644806,0340412E,true,Rx,0,8,7F,80,00,0D,80,00,00,00,
57645091,19000026,true,Rx,0,8,00,FF,01,40,38,11,84,00,
57645970,0100082C,true,Rx,0,8,00,C8,84,E8,66,03,12,DC,
57646239,0110483C,true,Rx,0,8,08,E9,EA,00,44,66,FC,52,
57654816,0340412E,true,Rx,0,8,70,80,00,FD,80,00,00,00,
57655772,0100082C,true,Rx,0,8,00,C8,84,E8,66,03,12,DC,
57656044,0110483C,true,Rx,0,8,08,E9,6A,00,44,66,FC,52,
57656797,01C04026,true,Rx,0,8,80,00,80,00,80,00,80,00,
57657078,02000026,true,Rx,0,8,7F,34,00,DC,49,00,E0,AC,
57657367,02104136,true,Rx,0,8,BB,00,3F,FF,07,E0,00,00,
57657638,02804026,true,Rx,0,8,37,FF,70,00,F7,63,0D,FF,
57657939,02C00020,true,Rx,0,8,00,00,00,00,00,00,00,00,
57658228,19A00002,true,Rx,0,8,12,00,00,00,00,00,00,F7,
57659728,19000026,true,Rx,0,8,00,FF,01,40,38,11,8C,00,
57664807,0340412E,true,Rx,0,8,71,80,00,ED,80,00,00,00,
57665773,0100082C,true,Rx,0,8,00,C8,84,E8,66,03,12,DC,
57666045,0110483C,true,Rx,0,8,08,E9,6A,00,44,66,FC,52,
57670785,01C04026,true,Rx,0,8,80,00,80,00,80,00,80,00,
57671072,02000026,true,Rx,0,8,7F,34,00,DC,49,00,E0,AC,
57671352,02104136,true,Rx,0,8,BB,00,3F,FF,07,E0,00,00,
57671631,02804026,true,Rx,0,8,37,FF,70,00,F7,63,0D,FF,
57671922,02C00020,true,Rx,0,8,00,00,00,00,00,00,00,00,
57674831,0340412E,true,Rx,0,8,72,80,00,DD,80,00,00,00,
57675118,19000026,true,Rx,0,8,00,FF,01,40,38,11,84,00,
57675935,0100082C,true,Rx,0,8,00,C8,84,E8,66,03,12,DC,
57676215,0110483C,true,Rx,0,8,08,E9,6A,00,44,66,FC,52,
57684750,01C04026,true,Rx,0,8,80,00,80,00,80,00,80,00,
57685026,02000026,true,Rx,0,8,7F,34,00,DC,49,00,E0,AC,
57685317,02104136,true,Rx,0,8,BB,00,3F,FF,07,E0,00,00,
57685586,02804026,true,Rx,0,8,37,FF,70,00,F7,63,0D,FF,
57685876,0100082C,true,Rx,0,8,00,C8,84,E8,76,03,12,DC,
57686147,0110483C,true,Rx,0,8,08,E9,6A,00,44,66,FC,52,
57686447,02C00020,true,Rx,0,8,00,00,00,00,00,00,00,00,
57686728,0340412E,true,Rx,0,8,73,80,00,CD,80,00,00,00,
57687018,19A00002,true,Rx,0,8,02,00,00,00,00,00,00,F7,
57687297,1B700030,true,Rx,0,8,25,92,22,00,00,00,03,00,
57689729,19000026,true,Rx,0,8,00,FF,01,40,38,11,8C,00,
57694807,0340412E,true,Rx,0,8,74,80,00,BD,80,00,00,00,
57695732,1B200002,true,Rx,0,8,00,00,00,00,00,00,0F,71,
57696014,0100082C,true,Rx,0,8,00,C8,84,E8,66,03,12,DC,
57696293,0110483C,true,Rx,0,8,08,E9,EA,00,44,66,FC,52,
57698788,01C04026,true,Rx,0,8,80,00,80,00,80,00,80,00,
57699066,02000026,true,Rx,0,8,7F,34,00,DC,49,00,E0,AC,
57699355,02104136,true,Rx,0,8,BB,00,3F,FF,07,E0,00,00,
57699635,02804026,true,Rx,0,8,37,FF,70,00,F7,63,0D,FF,
57699927,02C00020,true,Rx,0,8,00,00,00,00,00,00,00,00,
57704815,0340412E,true,Rx,0,8,75,80,00,AD,80,00,00,00,
57705093,19000026,true,Rx,0,8,00,FF,01,40,38,11,84,00,
57705804,0100082C,true,Rx,0,8,00,C8,84,E8,66,03,12,DC,
57706085,0110483C,true,Rx,0,8,08,E9,6A,00,44,66,FC,52,
57712787,01C04026,true,Rx,0,8,80,00,80,00,80,00,80,00,
57713064,02000026,true,Rx,0,8,7F,34,00,DC,49,00,E0,AC,
57713343,02104136,true,Rx,0,8,BB,00,3F,FF,07,E0,00,00,
57713624,02804026,true,Rx,0,8,37,FF,70,00,F7,63,0D,FF,
57713925,02C00020,true,Rx,0,8,00,00,00,00,00,00,00,00,
57714214,19A00002,true,Rx,0,8,12,00,00,00,00,00,00,F7,
57714813,0340412E,true,Rx,0,8,76,80,00,9D,80,00,00,00,
57716008,0100082C,true,Rx,0,8,00,C8,84,E8,66,03,12,DC,
57716288,0110483C,true,Rx,0,8,08,E9,6A,00,44,66,FC,52,
57719734,19000026,true,Rx,0,8,00,FF,01,40,38,11,84,00,
57724818,0340412E,true,Rx,0,8,77,80,00,8D,80,00,00,00,
57725774,0100082C,true,Rx,0,8,00,C8,84,E8,66,03,12,DC,
57726056,0110483C,true,Rx,0,8,08,E9,6A,00,44,66,FC,52,
57726819,01C04026,true,Rx,0,8,80,00,80,00,80,00,80,00,
57727100,02000026,true,Rx,0,8,7F,34,00,DC,49,00,E0,AC,
57727390,02104136,true,Rx,0,8,BB,00,3F,FF,07,E0,00,00,
57727659,02804026,true,Rx,0,8,37,FF,70,00,F7,63,0D,FF,
57727960,02C00020,true,Rx,0,8,00,00,00,00,00,00,00,00,
57734818,0340412E,true,Rx,0,8,78,80,00,7D,80,00,00,00,
57735106,19000026,true,Rx,0,8,00,FF,01,40,38,11,8C,00,
57735807,0100082C,true,Rx,0,8,00,C8,84,E8,66,03,12,DC,
57736088,0110483C,true,Rx,0,8,08,E9,6A,00,44,66,FC,53,
57740799,01C04026,true,Rx,0,8,80,00,80,00,80,00,80,00,
57741086,02000026,true,Rx,0,8,7F,34,00,DC,49,00,E0,AC,
57741366,02104136,true,Rx,0,8,BB,00,3F,FF,07,E0,00,00,
57741646,02804026,true,Rx,0,8,37,FF,70,00,F7,63,0D,FF,
57741937,02C00020,true,Rx,0,8,00,00,00,00,00,00,00,00,
57742227,19A00002,true,Rx,0,8,6E,00,00,00,00,00,00,F7,
57744840,0340412E,true,Rx,0,8,79,80,00,6D,80,00,00,00,
57745942,0100082C,true,Rx,0,8,00,C8,84,E8,66,03,12,DC,
57746221,0110483C,true,Rx,0,8,08,E9,EA,00,44,66,FC,52,
57749729,19000026,true,Rx,0,8,00,FF,01,40,38,11,84,00,
57754771,01C04026,true,Rx,0,8,80,00,80,00,80,00,80,00,
57755050,02000026,true,Rx,0,8,7F,34,00,DC,49,00,E0,AC,
57755339,02104136,true,Rx,0,8,BB,00,3F,FF,07,E0,00,00,
57755608,02804026,true,Rx,0,8,37,FF,70,00,F7,63,0D,FF,
57755890,0100082C,true,Rx,0,8,00,C8,84,E8,66,03,12,DC,
57756169,0110483C,true,Rx,0,8,08,E9,6A,00,44,66,FC,52,
57756469,02C00020,true,Rx,0,8,00,00,00,00,00,00,00,00,
57756750,0340412E,true,Rx,0,8,7A,80,00,5D,80,00,00,00,
57764811,0340412E,true,Rx,0,8,7B,80,00,4D,80,00,00,00,
57765099,19000026,true,Rx,0,8,00,FF,01,40,38,11,8C,00,
57765821,0100082C,true,Rx,0,8,00,C8,84,E8,66,03,12,DC,
57766091,0110483C,true,Rx,0,8,08,E9,6A,00,44,66,FC,52,
57768802,01C04026,true,Rx,0,8,80,00,80,00,80,00,80,00,
57769080,02000026,true,Rx,0,8,7F,34,00,DC,49,00,E0,AC,
57769369,02104136,true,Rx,0,8,BB,00,3F,FF,07,E0,00,00,
57769650,02804026,true,Rx,0,8,37,FF,70,00,F7,63,0D,FF,
57769940,02C00020,true,Rx,0,8,00,00,00,00,00,00,00,00,
57770230,19A00002,true,Rx,0,8,12,00,00,00,00,00,00,F7,
57774811,0340412E,true,Rx,0,8,7C,80,00,3D,80,00,00,00,
57775881,0100082C,true,Rx,0,8,00,C8,84,E8,76,03,12,DC,
57776162,0110483C,true,Rx,0,8,08,E9,6A,00,44,66,FC,52,
57779795,19000026,true,Rx,0,8,00,FF,01,40,38,11,84,00,
57780730,1B200002,true,Rx,0,8,00,00,00,00,00,00,0F,71,
57782769,01C04026,true,Rx,0,8,80,00,80,00,80,00,80,00,
57783039,02000026,true,Rx,0,8,7F,34,00,DC,49,00,E0,AC,
57783329,02104136,true,Rx,0,8,BB,00,3F,FF,07,E0,00,00,
57783609,02804026,true,Rx,0,8,37,FF,70,00,F7,63,0D,FF,
57783902,02C00020,true,Rx,0,8,00,00,00,00,00,00,00,00,
57784820,0340412E,true,Rx,0,8,7D,80,00,2D,80,00,00,00,
57785986,0100082C,true,Rx,0,8,00,C8,84,E8,66,03,12,DC,
57786265,0110483C,true,Rx,0,8,08,E9,6A,00,44,66,FC,52,
57794815,0340412E,true,Rx,0,8,7E,80,00,1D,80,00,00,00,
57795103,19000026,true,Rx,0,8,00,FF,01,40,38,11,84,00,
57795825,0100082C,true,Rx,0,8,00,C8,84,E8,66,03,12,DC,
57796096,0110483C,true,Rx,0,8,08,E9,EA,00,44,66,FC,52,
57796787,01C04026,true,Rx,0,8,80,00,80,00,80,00,80,00,
57797060,02000026,true,Rx,0,8,7F,34,00,DC,49,00,E0,AC,
57797351,02104136,true,Rx,0,8,BB,00,3F,FF,07,E0,00,00,
57797620,02804026,true,Rx,0,8,37,FF,70,00,F7,63,0D,FF,
57797921,02C00020,true,Rx,0,8,00,00,00,00,00,00,00,00,
57798201,19A00002,true,Rx,0,8,02,00,00,00,00,00,00,F7,
57804815,0340412E,true,Rx,0,8,7F,80,00,0D,80,00,00,00,
57805772,0100082C,true,Rx,0,8,00,C8,84,E8,66,03,12,DC,
57806053,0110483C,true,Rx,0,8,08,E9,6A,00,44,66,FC,52,
57809736,19000026,true,Rx,0,8,00,FF,01,40,38,11,8C,00,
57810784,01C04026,true,Rx,0,8,80,00,80,00,80,00,80,00,
57811055,02000026,true,Rx,0,8,7F,34,00,DC,49,00,E0,AC,
57811345,02104136,true,Rx,0,8,BB,00,3F,FF,07,E0,00,00,
57811625,02804026,true,Rx,0,8,37,FF,70,00,F7,63,0D,FF,
57811920,02C00020,true,Rx,0,8,00,00,00,00,00,00,00,00,
57814842,0340412E,true,Rx,0,8,70,80,00,FD,80,00,00,00,
57815913,0100082C,true,Rx,0,8,00,C8,84,E8,66,03,12,DC,
57816182,0110483C,true,Rx,0,8,08,E9,6A,00,44,66,FC,52,
57824741,01C04026,true,Rx,0,8,80,00,80,00,80,00,80,00,
57825018,02000026,true,Rx,0,8,7F,34,00,DC,49,00,E0,AC,
57825298,02104136,true,Rx,0,8,BB,00,3F,FF,07,E0,00,00,
57825577,02804026,true,Rx,0,8,37,FF,70,00,F7,63,0D,FF,
57825858,0100082C,true,Rx,0,8,00,C8,84,E8,66,03,12,DC,
57826138,0110483C,true,Rx,0,8,08,E9,6A,00,44,66,FC,52,
57826439,02C00020,true,Rx,0,8,00,00,00,00,00,00,00,00,
57826718,0340412E,true,Rx,0,8,71,80,00,ED,80,00,00,00,
57826997,19000026,true,Rx,0,8,00,FF,01,40,38,11,84,00,
57827288,19A00002,true,Rx,0,8,12,00,00,00,00,00,00,F7,
57830988,1BA0493C,true,Rx,0,8,07,01,03,00,02,01,01,01,
57834828,0340412E,true,Rx,0,8,72,80,00,DD,80,00,00,00,
57835795,0100082C,true,Rx,0,8,00,C8,84,E8,66,03,12,DC,
57836076,0110483C,true,Rx,0,8,08,E9,6A,00,44,66,FC,52,
57838795,01C04026,true,Rx,0,8,80,00,80,00,80,00,80,00,
57839082,02000026,true,Rx,0,8,7F,34,00,DC,49,00,E0,AC,
57839361,02104136,true,Rx,0,8,BB,00,3F,FF,07,E0,00,00,
57839642,02804026,true,Rx,0,8,37,FF,70,48,F7,63,0D,FF,
57839933,02C00020,true,Rx,0,8,00,00,00,00,00,00,00,00,
57840222,19000026,true,Rx,0,8,00,FF,01,40,38,11,8C,00,
57844836,0340412E,true,Rx,0,8,73,80,00,CD,80,00,00,00,
57845844,0100082C,true,Rx,0,8,00,C8,84,E8,66,03,12,DC,
57846125,0110483C,true,Rx,0,8,08,E9,EA,00,44,66,FC,52,
57852762,01C04026,true,Rx,0,8,80,00,80,00,80,00,80,00,
57853049,02000026,true,Rx,0,8,7F,34,00,DC,49,00,E0,AC,
57853329,02104136,true,Rx,0,8,BB,00,3F,FF,07,E0,00,00,
57853608,02804026,true,Rx,0,8,37,FF,70,A4,F7,63,0D,FF,
57853900,02C00020,true,Rx,0,8,00,00,00,00,00,00,00,00,
57854191,19A00002,true,Rx,0,8,6E,00,00,00,00,00,00,F7,
57854824,0340412E,true,Rx,0,8,74,80,00,BD,80,00,00,00,
57855095,19000026,true,Rx,0,8,00,FF,01,40,38,11,84,00,
57856045,0100082C,true,Rx,0,8,00,C8,84,E8,66,03,12,DC,
57856314,0110483C,true,Rx,0,8,08,E9,6A,00,44,66,FC,52,
57864823,0340412E,true,Rx,0,8,75,80,00,AD,80,00,00,00,
57865707,1B200002,true,Rx,0,8,00,00,00,00,00,00,0F,71,
57865988,0100082C,true,Rx,0,8,00,C8,84,E8,76,03,12,DC,
57866257,0110483C,true,Rx,0,8,08,E9,6A,00,44,66,FC,52,
57866774,01C04026,true,Rx,0,8,80,00,80,00,80,00,80,00,
57867046,02000026,true,Rx,0,8,7F,34,00,DC,49,00,E0,AC,
57867337,02104136,true,Rx,0,8,BB,00,3F,FF,07,E0,00,00,
57867616,02804026,true,Rx,0,8,37,FF,71,02,F7,63,0D,FF,
57867908,02C00020,true,Rx,0,8,00,00,00,00,00,00,00,00,
57869735,19000026,true,Rx,0,8,00,FF,01,40,38,11,8C,00,
57874824,0340412E,true,Rx,0,8,76,80,00,9D,80,00,00,00,
57875810,0100082C,true,Rx,0,8,00,C8,84,E8,66,03,12,DC,
57876091,0110483C,true,Rx,0,8,08,E9,6A,00,44,66,FC,52,
57880790,01C04026,true,Rx,0,8,80,00,80,00,80,00,80,00,
57881067,02000026,true,Rx,0,8,7F,34,00,DC,49,00,E0,AC,
57881347,02104136,true,Rx,0,8,BB,00,3F,FF,07,E0,00,00,
57881626,02804026,true,Rx,0,8,37,FF,71,60,F7,63,0D,FF,
57881928,02C00020,true,Rx,0,8,00,00,00,00,00,00,00,00,
57882218,19A00002,true,Rx,0,8,12,00,00,00,00,00,00,F7,
57884842,0340412E,true,Rx,0,8,77,80,00,8D,80,00,00,00,
57885119,19000026,true,Rx,0,8,00,FF,01,40,38,11,84,00,
57885987,0100082C,true,Rx,0,8,00,C8,84,E8,66,03,12,DC,
57886256,0110483C,true,Rx,0,8,08,E9,6A,00,44,66,FC,52,
57894740,01C04026,true,Rx,0,8,80,00,80,00,80,00,80,00,
57895017,02000026,true,Rx,0,8,7F,34,00,DC,49,00,E0,AC,
57895307,02104136,true,Rx,0,8,BB,00,3F,FF,07,E0,00,00,
57895588,02804026,true,Rx,0,8,37,FF,71,BE,F7,63,0D,FF,
57895877,02C00020,true,Rx,0,8,00,00,00,00,00,00,00,00,
57896158,0100082C,true,Rx,0,8,00,C8,84,E8,66,03,12,DC,
57896438,0110483C,true,Rx,0,8,08,E9,EA,00,44,66,FC,52,
57896728,0340412E,true,Rx,0,8,78,80,00,7D,80,00,00,00,
57897007,1A200020,true,Rx,0,8,8E,00,02,34,00,00,02,34,
57897288,1AE0092C,true,Rx,0,8,80,00,22,E0,41,A0,00,00,
57897578,1B700030,true,Rx,0,8,35,92,22,00,00,00,03,00,
57899744,19000026,true,Rx,0,8,00,FF,01,40,38,11,8C,00,
57904822,0340412E,true,Rx,0,8,79,80,00,6D,80,00,00,00,
57905769,0100082C,true,Rx,0,8,00,C0,84,E8,66,03,12,DC,
57906050,0110483C,true,Rx,0,8,08,E9,6A,00,44,66,FC,52,
57908790,01C04026,true,Rx,0,8,80,00,80,00,80,00,80,00,
57909067,02000026,true,Rx,0,8,7F,34,00,DC,49,00,E0,AC,
57909346,02104136,true,Rx,0,8,BB,00,3F,FF,07,E0,00,00,
57909626,02804026,true,Rx,0,8,37,FF,72,1D,F7,63,0D,FF,
57909927,02C00020,true,Rx,0,8,00,00,00,00,00,00,00,00,
57910208,19A00002,true,Rx,0,8,02,00,00,00,00,00,00,F7,
57914821,0340412E,true,Rx,0,8,7A,80,00,5D,80,00,00,00,
57915108,19000026,true,Rx,0,8,00,FF,01,40,38,11,84,00,
57915840,0100082C,true,Rx,0,8,00,C0,84,E8,66,03,12,DC,
57916121,0110483C,true,Rx,0,8,08,E9,6A,00,44,66,FC,52,
57922781,01C04026,true,Rx,0,8,80,00,80,00,80,00,80,00,
57923057,02000026,true,Rx,0,8,7F,34,00,DC,49,00,E0,AC,
57923348,02104136,true,Rx,0,8,BB,00,3F,FF,07,E0,00,00,
57923627,02804026,true,Rx,0,8,37,FF,72,7C,F7,63,0D,FF,
57923918,02C00020,true,Rx,0,8,00,00,00,00,00,00,00,00,
57924816,0340412E,true,Rx,0,8,7B,80,00,4D,80,00,00,00,
57925895,0100082C,true,Rx,0,8,00,C0,84,E8,66,03,12,DC,
57926164,0110483C,true,Rx,0,8,08,E9,6A,00,44,66,FC,52,
57929754,19000026,true,Rx,0,8,00,FF,01,40,38,11,84,00,
57934819,0340412E,true,Rx,0,8,7C,80,00,3D,80,00,00,00,
57935816,0100082C,true,Rx,0,8,00,C0,84,E8,66,03,12,DC,
57936096,0110483C,true,Rx,0,8,08,E9,6A,00,44,66,FC,52,
57936788,01C04026,true,Rx,0,8,80,00,80,00,80,00,80,00,
57937070,02000026,true,Rx,0,8,7F,34,00,DC,49,00,E0,AC,
57937349,02104136,true,Rx,0,8,BB,00,3F,FF,07,E0,00,00,
57937628,02804026,true,Rx,0,8,37,FF,72,DB,F7,63,0D,FF,
57937920,02C00020,true,Rx,0,8,00,00,00,00,00,00,00,00,
57938220,19A00002,true,Rx,0,8,12,00,00,00,00,00,00,F7,
57944823,0340412E,true,Rx,0,8,7D,80,00,2D,80,00,00,00,
57945110,19000026,true,Rx,0,8,00,FF,01,40,38,11,8C,00,
57945812,0100082C,true,Rx,0,8,00,C0,84,E8,66,03,12,DC,
57946092,0110483C,true,Rx,0,8,08,E9,EA,00,44,66,FC,52,
57950732,1B200002,true,Rx,0,8,00,00,00,00,00,00,0F,71,
57951019,01C04026,true,Rx,0,8,80,00,80,00,80,00,80,00,
57951299,02000026,true,Rx,0,8,7F,34,00,DC,49,00,E0,AC,
57951588,02104136,true,Rx,0,8,BB,00,3F,FF,07,E0,00,00,
57951858,02804026,true,Rx,0,8,37,FF,73,3A,F7,63,0D,FF,
57952149,02C00020,true,Rx,0,8,00,00,00,00,00,00,00,00,
57954824,0340412E,true,Rx,0,8,7E,80,00,1D,80,00,00,00,
57956007,0100082C,true,Rx,0,8,00,C0,84,E8,66,03,12,DC,
57956288,0110483C,true,Rx,0,8,08,E9,6A,00,44,66,FC,52,
57959744,19000026,true,Rx,0,8,00,FF,01,40,38,11,84,00,
57964748,01C04026,true,Rx,0,8,80,00,80,00,80,00,80,00,
57965034,02000026,true,Rx,0,8,7F,34,00,DC,49,00,E0,AC,
57965314,02104136,true,Rx,0,8,BB,00,3F,FF,07,E0,00,00,
57965594,02804026,true,Rx,0,8,37,FF,73,99,F7,63,0D,FF,
57965873,0100082C,true,Rx,0,8,00,C0,84,E8,66,03,12,DC,
57966154,0110483C,true,Rx,0,8,08,E9,6A,00,44,66,FC,52,
57966445,02C00020,true,Rx,0,8,00,00,00,00,00,00,00,00,
57966734,0340412E,true,Rx,0,8,7F,80,00,0D,80,00,00,00,
57967014,19A00002,true,Rx,0,8,6E,00,00,00,00,00,00,F7,
57974823,0340412E,true,Rx,0,8,70,80,00,FD,80,00,00,00,
57975110,19000026,true,Rx,0,8,00,FF,01,40,38,11,8C,00,
57975832,0100082C,true,Rx,0,8,00,C0,84,E8,66,03,12,DC,
57976102,0110483C,true,Rx,0,8,08,E9,6A,00,44,66,FC,52,
57978825,01C04026,true,Rx,0,8,80,00,80,00,80,00,80,00,
57979112,02000026,true,Rx,0,8,7F,34,00,DC,49,00,E0,AC,
57979392,02104136,true,Rx,0,8,BB,00,3F,FF,07,E0,00,00,
57979672,02804026,true,Rx,0,8,37,FF,73,F9,F7,63,0D,FF,
57979962,02C00020,true,Rx,0,8,00,00,00,00,00,00,00,00,
57984820,0340412E,true,Rx,0,8,71,80,00,ED,80,00,00,00,
57985796,0100082C,true,Rx,0,8,00,C0,84,E8,66,03,12,DC,
57986077,0110483C,true,Rx,0,8,08,E9,6A,00,44,66,FC,52,
57989811,19000026,true,Rx,0,8,00,FF,01,40,38,11,84,00,
57992803,01C04026,true,Rx,0,8,80,00,80,00,80,00,80,00,
57993081,02000026,true,Rx,0,8,7F,34,00,DC,49,00,E0,AC,
57993370,02104136,true,Rx,0,8,BB,00,3F,FF,07,E0,00,00,
57993650,02804026,true,Rx,0,8,37,FF,74,58,F7,63,0D,FF,
57993942,02C00020,true,Rx,0,8,00,00,00,00,00,00,00,00,
57994231,19A00002,true,Rx,0,8,12,00,00,00,00,00,00,F7,
57994820,0340412E,true,Rx,0,8,72,80,00,DD,80,00,00,00,
57995993,0100082C,true,Rx,0,8,00,C0,84,E8,66,03,12,DC,
57996274,0110483C,true,Rx,0,8,08,E9,EA,00,44,66,FC,52,
58004828,0340412E,true,Rx,0,8,73,80,00,CD,80,00,00,00,
58005115,19000026,true,Rx,0,8,00,FF,01,40,38,11,84,00,
58005786,0100082C,true,Rx,0,8,00,C0,84,E8,76,03,12,DC,
58006066,0110483C,true,Rx,0,8,08,E9,6A,00,44,66,FC,52,
58006830,01C04026,true,Rx,0,8,80,00,80,00,80,00,80,00,
58007103,02000026,true,Rx,0,8,7F,34,00,DC,49,00,E0,AC,
58007393,02104136,true,Rx,0,8,BB,00,3F,FF,07,E0,00,00,
58007673,02804026,true,Rx,0,8,37,FF,74,B7,F7,63,0D,FF,
58007964,02C00020,true,Rx,0,8,00,00,00,00,00,00,00,00,
58014822,0340412E,true,Rx,0,8,74,80,00,BD,80,00,00,00,
58015818,0100082C,true,Rx,0,8,00,C0,84,E8,66,03,12,DC,
58016100,0110483C,true,Rx,0,8,08,E9,6A,00,44,66,FC,52,
58019743,19000026,true,Rx,0,8,00,FF,01,40,38,11,8C,00,
58020824,01C04026,true,Rx,0,8,80,00,80,00,80,00,80,00,
58021105,02000026,true,Rx,0,8,7F,34,00,DC,49,00,E0,AC,
58021394,02104136,true,Rx,0,8,BB,00,3F,FF,07,E0,00,00,
58021664,02804026,true,Rx,0,8,37,FF,75,16,F7,63,0D,FF,
58021958,02C00020,true,Rx,0,8,00,00,00,00,00,00,00,00,
58022247,19A00002,true,Rx,0,8,02,00,00,00,00,00,00,F7,
58024854,0340412E,true,Rx,0,8,75,80,00,AD,80,00,00,00,
58025925,0100082C,true,Rx,0,8,00,C0,84,E8,66,03,12,DC,
58026206,0110483C,true,Rx,0,8,08,E9,6A,00,44,66,FC,52,
58034796,01C04026,true,Rx,0,8,80,00,80,00,80,00,80,00,
58035073,02000026,true,Rx,0,8,7F,34,00,DC,49,00,E0,AC,
58035363,02104136,true,Rx,0,8,BB,00,3F,FF,07,E0,00,00,
58035633,02804026,true,Rx,0,8,37,FF,75,76,F7,63,0D,FF,
58035923,0100082C,true,Rx,0,8,00,C0,84,E8,66,03,12,DC,
58036194,0110483C,true,Rx,0,8,08,E9,6A,00,44,66,FC,52,
58036494,02C00020,true,Rx,0,8,00,00,00,00,00,00,00,00,
58036773,0340412E,true,Rx,0,8,76,80,00,9D,80,00,00,00,
58037053,19000026,true,Rx,0,8,00,FF,01,40,38,11,84,00,
58037353,1B200002,true,Rx,0,8,00,00,00,00,00,00,0F,71,
58044826,0340412E,true,Rx,0,8,77,80,00,8D,80,00,00,00,
58045813,0100082C,true,Rx,0,8,00,C0,84,E8,66,03,12,DC,
58046085,0110483C,true,Rx,0,8,08,E9,EA,00,44,66,FC,52,
58048815,01C04026,true,Rx,0,8,80,00,80,00,80,00,80,00,
58049091,02000026,true,Rx,0,8,7F,34,00,DC,49,00,E0,AC,
58049382,02104136,true,Rx,0,8,BB,00,3F,FF,07,E0,00,00,
58049661,02804026,true,Rx,0,8,37,FF,75,D5,F7,63,0D,FF,
58049953,02C00020,true,Rx,0,8,00,00,00,00,00,00,00,00,
58050243,19000026,true,Rx,0,8,00,FF,01,40,38,11,8C,00,
58050533,19A00002,true,Rx,0,8,12,00,00,00,00,00,00,F7,
58054832,0340412E,true,Rx,0,8,78,80,00,7D,80,00,00,00,
58055912,0100082C,true,Rx,0,8,00,C0,84,E8,66,03,12,DC,
58056192,0110483C,true,Rx,0,8,08,E9,6A,00,44,66,FC,52,
58062798,01C04026,true,Rx,0,8,80,00,80,00,80,00,80,00,
58063076,02000026,true,Rx,0,8,7F,34,00,DC,49,00,E0,AC,
58063365,02104136,true,Rx,0,8,BB,00,3F,FF,07,E0,00,00,
58063645,02804026,true,Rx,0,8,37,FF,76,34,F7,63,0D,FF,
58063937,02C00020,true,Rx,0,8,00,00,00,00,00,00,00,00,
58064823,0340412E,true,Rx,0,8,79,80,00,6D,80,00,00,00,
58065108,19000026,true,Rx,0,8,00,FF,01,40,38,11,84,00,
58065946,0100082C,true,Rx,0,8,00,C0,84,E8,66,03,12,DC,
58066227,0110483C,true,Rx,0,8,08,E9,6A,00,44,66,FC,53,
58074826,0340412E,true,Rx,0,8,7A,80,00,5D,80,00,00,00,
58075802,0100082C,true,Rx,0,8,00,C0,84,E8,66,03,12,DC,
58076084,0110483C,true,Rx,0,8,08,E9,6A,00,44,66,FC,52,
58076806,01C04026,true,Rx,0,8,80,00,80,00,80,00,80,00,
58077077,02000026,true,Rx,0,8,7F,34,00,DC,49,00,E0,AC,
58077366,02104136,true,Rx,0,8,BB,00,3F,FF,07,E0,00,00,
58077647,02804026,true,Rx,0,8,37,FF,76,94,F7,63,0D,FF,
58077938,02C00020,true,Rx,0,8,00,00,00,00,00,00,00,00,
58078227,19A00002,true,Rx,0,8,6E,00,00,00,00,00,00,F7,
58079749,19000026,true,Rx,0,8,00,FF,01,40,38,11,8C,00,
58081067,1BA0493C,true,Rx,0,8,08,02,01,12,01,01,01,02,
58084835,0340412E,true,Rx,0,8,7B,80,00,4D,80,00,00,00,
58085822,0100082C,true,Rx,0,8,00,C0,84,E8,66,03,12,DC,
58086104,0110483C,true,Rx,0,8,08,E9,6A,00,44,66,FC,52,
58090801,01C04026,true,Rx,0,8,80,00,80,00,80,00,80,00,
58091078,02000026,true,Rx,0,8,7F,34,00,DC,49,00,E0,AC,
58091367,02104136,true,Rx,0,8,BB,00,3F,FF,07,E0,00,00,
58091648,02804026,true,Rx,0,8,37,FF,76,F3,F7,63,0D,FF,
58091939,02C00020,true,Rx,0,8,00,00,00,00,00,00,00,00,
58094858,0340412E,true,Rx,0,8,7C,80,00,3D,80,00,00,00,
58095134,19000026,true,Rx,0,8,00,FF,01,40,38,11,84,00,
58095971,0100082C,true,Rx,0,8,00,C0,84,E8,76,03,12,DC,
58096252,0110483C,true,Rx,0,8,08,E9,EA,00,44,66,FC,52,
58104767,01C04026,true,Rx,0,8,80,00,80,00,80,00,80,00,
58105043,02000026,true,Rx,0,8,7F,34,00,DC,49,00,E0,AC,
58105334,02104136,true,Rx,0,8,BB,00,3F,FF,07,E0,00,00,
58105603,02804026,true,Rx,0,8,37,FF,77,4C,F7,63,0D,FF,
58105894,0100082C,true,Rx,0,8,00,C0,84,E8,66,03,12,DC,
58106164,0110483C,true,Rx,0,8,08,E9,6A,00,44,66,FC,52,
58106464,02C00020,true,Rx,0,8,00,00,00,00,00,00,00,00,
58106744,0340412E,true,Rx,0,8,7D,80,00,2D,80,00,00,00,
58107034,19A00002,true,Rx,0,8,12,00,00,00,00,00,00,F7,
58107323,1B700030,true,Rx,0,8,25,92,22,00,00,00,03,00,
58109744,19000026,true,Rx,0,8,00,FF,01,40,38,11,8C,00,
58114833,0340412E,true,Rx,0,8,7E,80,00,1D,80,00,00,00,
58115789,0100082C,true,Rx,0,8,00,C0,84,E8,66,03,12,DC,
58116071,0110483C,true,Rx,0,8,08,E9,6A,00,44,66,FC,52,
58118800,01C04026,true,Rx,0,8,80,00,80,00,80,00,80,00,
58119078,02000026,true,Rx,0,8,7F,34,00,DC,49,00,E0,AC,
58119367,02104136,true,Rx,0,8,BB,00,3F,FF,07,E0,00,00,
58119647,02804026,true,Rx,0,8,37,FF,77,85,F7,63,0D,FF,
58119939,02C00020,true,Rx,0,8,00,00,00,00,00,00,00,00,
58120743,1B200002,true,Rx,0,8,00,00,00,00,00,00,0F,71,
58124832,0340412E,true,Rx,0,8,7F,80,00,0D,80,00,00,00,
58125119,19000026,true,Rx,0,8,00,FF,01,40,38,11,84,00,
58125831,0100082C,true,Rx,0,8,00,C0,84,E8,66,03,12,DC,
58126103,0110483C,true,Rx,0,8,08,E9,6A,00,44,66,FC,52,
58132782,01C04026,true,Rx,0,8,80,00,80,00,80,00,80,00,
58133060,02000026,true,Rx,0,8,7F,34,00,DC,49,00,E0,AC,
58133349,02104136,true,Rx,0,8,BB,00,3F,FF,07,E0,00,00,
58133618,02804026,true,Rx,0,8,37,FF,77,A9,F7,63,0D,FF,
58133921,02C00020,true,Rx,0,8,00,00,00,00,00,00,00,00,
58134200,19A00002,true,Rx,0,8,02,00,00,00,00,00,00,F7,
58134845,0340412E,true,Rx,0,8,70,80,00,FD,80,00,00,00,
58135982,0100082C,true,Rx,0,8,00,C0,84,E8,66,03,12,DC,
58136262,0110483C,true,Rx,0,8,08,E9,6A,00,44,66,FC,52,
58139761,19000026,true,Rx,0,8,00,FF,01,40,38,11,84,00,
58144836,0340412E,true,Rx,0,8,71,80,00,ED,80,00,00,00,
58145792,0100082C,true,Rx,0,8,00,C0,84,E8,66,03,12,DC,
58146074,0110483C,true,Rx,0,8,08,E9,EA,00,44,66,FC,52,
58146806,01C04026,true,Rx,0,8,80,00,80,00,80,00,80,00,
58147077,02000026,true,Rx,0,8,7F,34,00,DC,49,00,E0,AC,
58147366,02104136,true,Rx,0,8,BB,00,3F,FF,07,E0,00,00,
58147647,02804026,true,Rx,0,8,37,FF,77,C2,F7,63,0D,FF,
58147938,02C00020,true,Rx,0,8,00,00,00,00,00,00,00,00,
58154826,0340412E,true,Rx,0,8,72,80,00,DD,80,00,00,00,
58155112,19000026,true,Rx,0,8,00,FF,01,40,38,11,8C,00,
58155835,0100082C,true,Rx,0,8,00,C0,84,E8,66,03,12,DC,
58156116,0110483C,true,Rx,0,8,08,E9,6A,00,44,66,FC,53,
58160806,01C04026,true,Rx,0,8,80,00,80,00,80,00,80,00,
58161083,02000026,true,Rx,0,8,7F,34,00,DC,49,00,E0,AC,
58161363,02104136,true,Rx,0,8,BB,00,3F,FF,07,E0,00,00,
58161643,02804026,true,Rx,0,8,37,FF,77,D2,F7,63,0D,FF,
58161934,02C00020,true,Rx,0,8,00,00,00,00,00,00,00,00,
58162224,19A00002,true,Rx,0,8,12,00,00,00,00,00,00,F7,
58164857,0340412E,true,Rx,0,8,73,80,00,CD,80,00,00,00,
58165959,0100082C,true,Rx,0,8,00,C0,84,E8,66,03,12,DC,
58166238,0110483C,true,Rx,0,8,08,E9,6A,00,44,66,FC,52,
58169748,19000026,true,Rx,0,8,00,FF,01,40,38,11,84,00,
58174780,01C04026,true,Rx,0,8,80,00,80,00,80,00,80,00,
58175057,02000026,true,Rx,0,8,7F,34,00,DC,49,00,E0,AC,
58175347,02104136,true,Rx,0,8,BB,00,3F,FF,07,E0,00,00,
58175627,02804026,true,Rx,0,8,37,FF,77,DC,F7,63,0D,FF,
58175908,0100082C,true,Rx,0,8,00,C0,84,E8,66,03,12,DC,
58176188,0110483C,true,Rx,0,8,08,E9,6A,00,44,66,FC,52,
58176477,02C00020,true,Rx,0,8,00,00,00,00,00,00,00,00,
58176758,0340412E,true,Rx,0,8,74,80,00,BD,80,00,00,00,
58184828,0340412E,true,Rx,0,8,75,80,00,AD,80,00,00,00,
58185116,19000026,true,Rx,0,8,00,FF,01,40,38,11,8C,00,
58185816,0100082C,true,Rx,0,8,00,C0,84,E8,76,04,12,DC,
58186088,0110483C,true,Rx,0,8,08,E9,6A,00,44,66,FC,52,
58188799,01C04026,true,Rx,0,8,80,00,80,00,80,00,80,00,
58189076,02000026,true,Rx,0,8,7F,34,00,DC,49,00,E0,AC,
58189366,02104136,true,Rx,0,8,BB,00,3F,FF,07,E0,00,00,
58189645,02804026,true,Rx,0,8,37,FF,77,E0,F7,63,0D,FF,
58189937,02C00020,true,Rx,0,8,00,00,00,00,00,00,00,00,
58190227,19A00002,true,Rx,0,8,6E,00,00,00,00,00,00,F7,
58194828,0340412E,true,Rx,0,8,76,80,00,9D,80,00,00,00,
58195867,0100082C,true,Rx,0,8,00,C0,84,E8,66,04,12,DC,
58196148,0110483C,true,Rx,0,8,08,E9,EA,00,44,66,FC,52,
58199821,19000026,true,Rx,0,8,00,FF,01,40,38,11,84,00,
58202802,01C04026,true,Rx,0,8,80,00,80,00,80,00,80,00,
58203079,02000026,true,Rx,0,8,7F,34,00,DC,49,00,E0,AC,
58203369,02104136,true,Rx,0,8,BB,00,3F,FF,07,E0,00,00,
58203649,02804026,true,Rx,0,8,37,FF,77,E3,F7,63,0D,FF,
58203940,02C00020,true,Rx,0,8,00,00,00,00,00,00,00,00,
58204827,0340412E,true,Rx,0,8,77,80,00,8D,80,00,00,00,
58205740,1B200002,true,Rx,0,8,00,00,00,00,00,00,0F,71,
58206023,0100082C,true,Rx,0,8,00,C0,84,E8,66,04,12,DC,
58206302,0110483C,true,Rx,0,8,08,E9,6A,00,44,66,FC,52,
58210786,1A200020,true,Rx,0,8,CE,00,02,34,00,00,02,34,
58214836,0340412E,true,Rx,0,8,78,80,00,7D,80,00,00,00,
58215124,19000026,true,Rx,0,8,00,FF,01,40,38,11,84,00,
58215815,0100082C,true,Rx,0,8,00,C0,84,E8,66,04,12,DC,
58216096,0110483C,true,Rx,0,8,08,E9,6A,00,44,66,FC,52,
58216808,01C04026,true,Rx,0,8,80,00,80,00,80,00,80,00,
58217080,02000026,true,Rx,0,8,7F,34,00,DC,49,00,E0,AC,
58217371,02104136,true,Rx,0,8,BB,00,3F,FF,07,E0,00,00,
58217650,02804026,true,Rx,0,8,37,FF,77,E5,F7,63,0D,FF,
58217941,02C00020,true,Rx,0,8,00,00,00,00,00,00,00,00,
58218232,19A00002,true,Rx,0,8,12,00,00,00,00,00,00,F7,
58224833,0340412E,true,Rx,0,8,79,80,00,6D,80,00,00,00,
58225811,0100082C,true,Rx,0,8,00,C0,84,E8,66,04,12,DC,
58226092,0110483C,true,Rx,0,8,08,E9,6A,00,44,66,FC,52,
58229754,19000026,true,Rx,0,8,00,FF,01,40,38,11,8C,00,
58230813,01C04026,true,Rx,0,8,80,00,80,00,80,00,80,00,
58231084,02000026,true,Rx,0,8,7F,34,00,DC,49,00,E0,AC,
58231375,02104136,true,Rx,0,8,BB,00,3F,FF,07,E0,00,00,
58231644,02804026,true,Rx,0,8,37,FF,77,E8,F7,63,0D,FF,
58231938,02C00020,true,Rx,0,8,00,00,00,00,00,00,00,00,
58234861,0340412E,true,Rx,0,8,7A,80,00,5D,80,00,00,00,
58235943,0100082C,true,Rx,0,8,00,C0,84,E8,66,04,12,DC,
58236222,0110483C,true,Rx,0,8,08,E9,6A,00,44,66,FC,52,
58244781,01C04026,true,Rx,0,8,80,00,80,00,80,00,80,00,
58245059,02000026,true,Rx,0,8,7F,34,00,DC,49,00,E0,AC,
58245349,02104136,true,Rx,0,8,BB,00,3F,FF,07,E0,00,00,
58245618,02804026,true,Rx,0,8,37,FF,77,EA,F7,63,0D,FF,
58245899,0100082C,true,Rx,0,8,00,C0,84,E8,66,04,12,DC,
58246179,0110483C,true,Rx,0,8,08,E9,EA,00,44,66,FC,52,
58246479,02C00020,true,Rx,0,8,00,00,00,00,00,00,00,00,
58246759,0340412E,true,Rx,0,8,7B,80,00,4D,80,00,00,00,
58247038,19000026,true,Rx,0,8,00,FF,01,40,38,11,84,00,
58247329,19A00002,true,Rx,0,8,02,00,00,00,00,00,00,F7,
58254831,0340412E,true,Rx,0,8,7C,80,00,3D,80,00,00,00,
58255839,0100082C,true,Rx,0,8,00,C0,84,E8,66,04,12,DC,
58256119,0110483C,true,Rx,0,8,08,E9,6A,00,44,66,FC,52,
58258829,01C04026,true,Rx,0,8,80,00,80,00,80,00,80,00,
58259116,02000026,true,Rx,0,8,7F,34,00,DC,49,00,E0,AC,
58259395,02104136,true,Rx,0,8,BB,00,3F,FF,07,E0,00,00,
58259675,02804026,true,Rx,0,8,37,FF,77,EB,F7,63,0D,FF,
58259976,02C00020,true,Rx,0,8,00,00,00,00,00,00,00,00,
58260256,19000026,true,Rx,0,8,00,FF,01,40,38,11,8C,00,
58264837,0340412E,true,Rx,0,8,7D,80,00,2D,80,00,00,00,
58265876,0100082C,true,Rx,0,8,00,C0,84,E8,66,04,12,DC,
58266157,0110483C,true,Rx,0,8,08,E9,6A,00,44,66,FC,52,
58272805,01C04026,true,Rx,0,8,80,00,80,00,80,00,80,00,
58273082,02000026,true,Rx,0,8,7F,34,00,DC,49,00,E0,AC,
58273371,02104136,true,Rx,0,8,BB,00,3F,FF,07,E0,00,00,
58273652,02804026,true,Rx,0,8,37,FF,77,EB,F7,63,0D,FF,
58273943,02C00020,true,Rx,0,8,00,00,00,00,00,00,00,00,
58274234,19A00002,true,Rx,0,8,12,00,00,00,00,00,00,F7,
58274832,0340412E,true,Rx,0,8,7E,80,00,1D,80,00,00,00,
58275120,19000026,true,Rx,0,8,00,FF,01,40,38,11,84,00,
58275977,0100082C,true,Rx,0,8,00,C0,84,E8,76,04,12,DC,
58276256,0110483C,true,Rx,0,8,08,E9,6A,00,44,66,FC,52,
58284843,0340412E,true,Rx,0,8,7F,80,00,0D,80,00,00,00,
58285791,0100082C,true,Rx,0,8,00,C0,84,E8,66,04,12,DC,
58286071,0110483C,true,Rx,0,8,08,E9,6A,00,44,66,FC,52,
58286845,01C04026,true,Rx,0,8,80,00,80,00,80,00,80,00,
58287126,02000026,true,Rx,0,8,7F,34,00,DC,49,00,E0,AC,
58287416,02104136,true,Rx,0,8,BB,00,3F,FF,07,E0,00,00,
58287685,02804026,true,Rx,0,8,37,FF,77,EA,F7,63,0D,FF,
58287987,02C00020,true,Rx,0,8,00,00,00,00,00,00,00,00,
58289753,19000026,true,Rx,0,8,00,FF,01,40,38,11,8C,00,
58290744,1B200002,true,Rx,0,8,00,00,00,00,00,00,0F,71,
58294835,0340412E,true,Rx,0,8,70,80,00,FD,80,00,00,00,
58295823,0100082C,true,Rx,0,8,00,C0,84,E8,66,04,12,DC,
58296103,0110483C,true,Rx,0,8,08,E9,EA,00,44,66,FC,53,
58300833,01C04026,true,Rx,0,8,80,00,80,00,80,00,80,00,
58301110,02000026,true,Rx,0,8,7F,34,00,DC,49,00,E0,AC,
58301390,02104136,true,Rx,0,8,BB,00,3F,FF,07,E0,00,00,
58301669,02804026,true,Rx,0,8,37,FF,77,EB,F7,63,0D,FF,
58301971,02C00020,true,Rx,0,8,00,00,00,00,00,00,00,00,
58302251,19A00002,true,Rx,0,8,6E,00,00,00,00,00,00,F7,
58304863,0340412E,true,Rx,0,8,71,80,00,ED,80,00,00,00,
58305151,19000026,true,Rx,0,8,00,FF,01,40,38,11,84,00,
58305987,0100082C,true,Rx,0,8,00,C0,84,E8,66,04,12,DC,
58306267,0110483C,true,Rx,0,8,08,E9,6A,00,44,66,FC,53,
58314791,01C04026,true,Rx,0,8,80,00,80,00,80,00,80,00,
58315069,02000026,true,Rx,0,8,7F,34,00,DC,49,00,E0,AC,
58315359,02104136,true,Rx,0,8,BB,00,3F,FF,07,E0,00,00,
58315628,02804026,true,Rx,0,8,37,FF,77,EA,F7,63,0D,FF,
58315930,02C00020,true,Rx,0,8,00,00,00,00,00,00,00,00,
58316209,0100082C,true,Rx,0,8,00,C0,84,E8,66,04,12,DC,
58316490,0110483C,true,Rx,0,8,08,E9,6A,00,44,66,FC,52,
58316769,0340412E,true,Rx,0,8,72,80,00,DD,80,00,00,00,
58317048,1AE0092C,true,Rx,0,8,C0,00,22,E0,41,A0,00,00,
58317339,1B700030,true,Rx,0,8,25,92,22,00,00,00,03,00,
58319770,19000026,true,Rx,0,8,00,FF,01,40,38,11,8C,00,
58324837,0340412E,true,Rx,0,8,73,80,00,CD,80,00,00,00,
58325825,0100082C,true,Rx,0,8,00,C0,84,E8,66,04,12,DC,
58326106,0110483C,true,Rx,0,8,08,E9,6A,00,44,66,FC,52,
58328806,01C04026,true,Rx,0,8,80,00,80,00,80,00,80,00,
58329092,02000026,true,Rx,0,8,7F,34,00,DC,49,00,E0,AC,
58329372,02104136,true,Rx,0,8,BB,00,3F,FF,07,E0,00,00,
58329652,02804026,true,Rx,0,8,37,FF,77,EA,F7,63,0D,FF,
58329943,02C00020,true,Rx,0,8,00,00,00,00,00,00,00,00,
58330234,19A00002,true,Rx,0,8,12,00,00,00,00,00,00,F7,
58330931,1BA0493C,true,Rx,0,8,09,00,00,01,01,01,01,01,
58331211,1BE0493C,true,Rx,0,8,01,00,2A,96,BC,AF,02,04,
58334922,0340412E,true,Rx,0,8,74,80,00,BD,80,00,00,00,
58335207,19000026,true,Rx,0,8,00,FF,01,40,38,11,84,00,
58335920,0100082C,true,Rx,0,8,00,C0,84,E8,66,04,12,DC,
58336200,0110483C,true,Rx,0,8,08,E9,6A,00,44,66,FC,52,
58342786,01C04026,true,Rx,0,8,80,00,80,00,80,00,80,00,
58343074,02000026,true,Rx,0,8,7F,34,00,DC,4A,00,E0,AC,
58343354,02104136,true,Rx,0,8,BB,00,3F,FF,07,E0,00,00,
58343633,02804026,true,Rx,0,8,37,FF,77,E9,F7,63,0D,FF,
58343925,02C00020,true,Rx,0,8,00,00,00,00,00,00,00,00,
58344847,0340412E,true,Rx,0,8,75,80,00,AD,80,00,00,00,
58345972,0100082C,true,Rx,0,8,00,C0,84,E8,66,04,12,DC,
58346241,0110483C,true,Rx,0,8,08,E9,EA,00,44,66,FC,52,
58349761,19000026,true,Rx,0,8,00,FF,01,40,38,11,84,00,
58354837,0340412E,true,Rx,0,8,76,80,00,9D,80,00,00,00,
58355803,0100082C,true,Rx,0,8,00,C0,84,E8,66,04,12,DC,
58356084,0110483C,true,Rx,0,8,08,E9,6A,00,44,66,FC,52,
58356806,01C04026,true,Rx,0,8,80,00,80,00,80,00,80,00,
58357087,02000026,true,Rx,0,8,7F,34,00,DC,4A,00,E0,AC,
58357378,02104136,true,Rx,0,8,BB,00,3F,FF,07,E0,00,00,
58357657,02804026,true,Rx,0,8,37,FF,77,EB,F7,63,0D,FF,
58357949,02C00020,true,Rx,0,8,00,00,00,00,00,00,00,00,
58358239,19A00002,true,Rx,0,8,02,00,00,00,00,00,00,F7,
58364832,0340412E,true,Rx,0,8,77,80,00,8D,80,00,00,00,
58365119,19000026,true,Rx,0,8,00,FF,01,40,38,11,8C,00,
58365841,0100082C,true,Rx,0,8,00,C0,84,E8,66,04,12,DC,
58366122,0110483C,true,Rx,0,8,08,E9,6A,00,44,66,FC,52,
58370812,01C04026,true,Rx,0,8,80,00,80,00,80,00,80,00,
58371089,02000026,true,Rx,0,8,7F,34,00,DC,4A,00,E0,AC,
58371379,02104136,true,Rx,0,8,BB,00,3F,FF,07,E0,00,00,
58371648,02804026,true,Rx,0,8,37,FF,77,EC,F7,63,0D,FF,
58371950,02C00020,true,Rx,0,8,00,00,00,00,00,00,00,00,
58374859,0340412E,true,Rx,0,8,78,80,00,7D,80,00,00,00,
58375743,1B200002,true,Rx,0,8,00,00,00,00,00,00,0F,71,
58376024,0100082C,true,Rx,0,8,00,C0,84,E8,66,04,12,DC,
58376303,0110483C,true,Rx,0,8,08,E9,6A,00,44,66,FC,52,
58379753,19000026,true,Rx,0,8,00,FF,01,40,38,11,84,00,
58384776,01C04026,true,Rx,0,8,80,00,80,00,80,00,80,00,
58385052,02000026,true,Rx,0,8,7F,34,00,DC,4A,00,E0,AC,
58385332,02104136,true,Rx,0,8,BB,00,3F,FF,07,E0,00,00,
58385612,02804026,true,Rx,0,8,37,FF,77,EB,F7,63,0D,FF,
58385892,0100082C,true,Rx,0,8,00,C0,84,E8,66,04,12,DC,
58386172,0110483C,true,Rx,0,8,08,E9,6A,00,44,66,FC,52,
58386473,02C00020,true,Rx,0,8,00,00,00,00,00,00,00,00,
58386752,0340412E,true,Rx,0,8,79,80,00,6D,80,00,00,00,
58387041,19A00002,true,Rx,0,8,12,00,00,00,00,00,00,F7,
58394832,0340412E,true,Rx,0,8,7A,80,00,5D,80,00,00,00,
58395119,19000026,true,Rx,0,8,00,FF,01,40,38,11,8C,00,
58395851,0100082C,true,Rx,0,8,00,C0,84,E8,66,04,12,DC,
58396132,0110483C,true,Rx,0,8,08,E9,EA,00,44,66,FC,52,
58398823,01C04026,true,Rx,0,8,80,00,80,00,80,00,80,00,
58399100,02000026,true,Rx,0,8,7F,34,00,DC,4A,00,E0,AC,
58399391,02104136,true,Rx,0,8,BB,00,3F,FF,07,E0,00,00,
58399670,02804026,true,Rx,0,8,37,FF,77,EB,F7,63,0D,FF,
58399961,02C00020,true,Rx,0,8,00,00,00,00,00,00,00,00,
58404840,0340412E,true,Rx,0,8,7B,80,00,4D,80,00,00,00,
58405827,0100082C,true,Rx,0,8,00,C0,84,E8,76,04,12,DC,
58406107,0110483C,true,Rx,0,8,08,E9,6A,00,44,66,FC,52,
58409821,19000026,true,Rx,0,8,00,FF,01,40,38,11,84,00,
58412781,01C04026,true,Rx,0,8,80,00,80,00,80,00,80,00,
58413059,02000026,true,Rx,0,8,7F,34,00,DC,4A,00,E0,AC,
58413339,02104136,true,Rx,0,8,BB,00,3F,FF,07,E0,00,00,
58413619,02804026,true,Rx,0,8,37,FF,77,EA,F7,63,0D,FF,
58413910,02C00020,true,Rx,0,8,00,00,00,00,00,00,00,00,
58414200,19A00002,true,Rx,0,8,6E,00,00,00,00,00,00,F7,
58414845,0340412E,true,Rx,0,8,7C,80,00,3D,80,00,00,00,
58416084,0100082C,true,Rx,0,8,00,C0,84,E8,66,04,12,DC,
58416365,0110483C,true,Rx,0,8,08,E9,6A,00,44,66,FC,52,
58424839,0340412E,true,Rx,0,8,7D,80,00,2D,80,00,00,00,
58425126,19000026,true,Rx,0,8,00,FF,01,40,38,11,84,00,
58425848,0100082C,true,Rx,0,8,00,C0,84,E8,66,04,12,DC,
58426128,0110483C,true,Rx,0,8,08,E9,6A,00,44,66,FC,52,
58426810,01C04026,true,Rx,0,8,80,00,80,00,80,00,80,00,
58427083,02000026,true,Rx,0,8,7F,34,00,DC,4A,00,E0,AC,
58427373,02104136,true,Rx,0,8,BB,00,3F,FF,07,E0,00,00,
58427652,02804026,true,Rx,0,8,37,FF,77,EB,F7,63,0D,FF,
58427944,02C00020,true,Rx,0,8,00,00,00,00,00,00,00,00,
58434843,0340412E,true,Rx,0,8,7E,80,00,1D,80,00,00,00,
58435850,0100082C,true,Rx,0,8,00,C0,84,E8,66,04,12,DC,
58436120,0110483C,true,Rx,0,8,08,E9,6A,00,44,66,FC,52,
58439762,19000026,true,Rx,0,8,00,FF,01,40,38,11,8C,00,
58440800,01C04026,true,Rx,0,8,80,00,80,00,80,00,80,00,
58441082,02000026,true,Rx,0,8,7F,34,00,DC,4A,00,E0,AC,
58441361,02104136,true,Rx,0,8,BB,00,3F,FF,07,E0,00,00,
58441642,02804026,true,Rx,0,8,37,FF,77,EA,F7,63,0D,FF,
58441935,02C00020,true,Rx,0,8,00,00,00,00,00,00,00,00,
58442225,19A00002,true,Rx,0,8,12,00,00,00,00,00,00,F7,
58444862,0340412E,true,Rx,0,8,7F,80,00,0D,80,00,00,00,
58445973,0100082C,true,Rx,0,8,00,C0,84,E8,66,04,12,DC,
58446244,0110483C,true,Rx,0,8,08,E9,EA,00,44,66,FC,52,
58454761,01C04026,true,Rx,0,8,80,00,80,00,80,00,80,00,
58455038,02000026,true,Rx,0,8,7F,34,00,DC,4A,00,E0,AC,
58455328,02104136,true,Rx,0,8,BB,00,3F,FF,07,E0,00,00,
58455608,02804026,true,Rx,0,8,37,FF,77,E9,F7,63,0D,FF,
58455888,0100082C,true,Rx,0,8,00,C0,84,E8,66,04,12,DC,
58456168,0110483C,true,Rx,0,8,08,E9,6A,00,44,66,FC,52,
58456459,02C00020,true,Rx,0,8,00,00,00,00,00,00,00,00,
58456748,0340412E,true,Rx,0,8,70,80,00,FD,80,00,00,00,
58457029,19000026,true,Rx,0,8,00,FF,01,40,38,11,84,00,
58460775,1B200002,true,Rx,0,8,00,00,00,00,00,00,0F,71,
58464836,0340412E,true,Rx,0,8,71,80,00,ED,80,00,00,00,
58465833,0100082C,true,Rx,0,8,00,C0,84,E8,66,04,12,DC,
58466113,0110483C,true,Rx,0,8,08,E9,6A,00,44,66,FC,52,
58468792,01C04026,true,Rx,0,8,80,00,80,00,80,00,80,00,
58469069,02000026,true,Rx,0,8,7F,34,00,DC,4A,00,E0,AC,
58469359,02104136,true,Rx,0,8,BB,00,3F,FF,07,E0,00,00,
58469639,02804026,true,Rx,0,8,37,FF,77,E9,F7,63,0D,FF,
58469930,02C00020,true,Rx,0,8,00,00,00,00,00,00,00,00,
58470220,19000026,true,Rx,0,8,00,FF,01,40,38,11,8C,00,
58470510,19A00002,true,Rx,0,8,02,00,00,00,00,00,00,F7,
58474838,0340412E,true,Rx,0,8,72,80,00,DD,80,00,00,00,
58475930,0100082C,true,Rx,0,8,00,C0,84,E8,66,04,12,DC,
58476200,0110483C,true,Rx,0,8,08,E9,6A,00,44,66,FC,52,
58482836,01C04026,true,Rx,0,8,80,00,80,00,80,00,80,00,
58483114,02000026,true,Rx,0,8,7F,34,00,DC,4A,00,E0,AC,
58483403,02104136,true,Rx,0,8,BB,00,3F,FF,07,E0,00,00,
58483683,02804026,true,Rx,0,8,B7,FF,77,EA,F7,63,3D,FF,
58483975,02C00020,true,Rx,0,8,00,00,00,00,00,00,00,00,
58484841,0340412E,true,Rx,0,8,73,80,00,CD,80,00,00,00,
58485126,19000026,true,Rx,0,8,00,FF,01,40,38,11,84,00,
58485993,0100082C,true,Rx,0,8,00,C0,84,E8,66,04,12,DC,
58486263,0110483C,true,Rx,0,8,08,E9,6A,00,44,66,FC,52,
58494842,0340412E,true,Rx,0,8,74,80,00,BD,80,00,00,00,
58495902,0100082C,true,Rx,0,8,00,C0,84,E8,76,04,12,DC,
58496172,0110483C,true,Rx,0,8,08,E9,EA,00,44,66,FC,52,
58496852,01C04026,true,Rx,0,8,80,00,80,00,80,00,80,00,
58497134,02000026,true,Rx,0,8,7F,34,00,DC,4A,00,E0,AC,
58497413,02104136,true,Rx,0,8,BB,00,3F,FF,07,E0,00,00,
58497694,02804026,true,Rx,0,8,B7,FF,77,EB,F7,63,3D,FF,
58497985,02C00020,true,Rx,0,8,00,00,00,00,00,00,00,00,
58498274,19A00002,true,Rx,0,8,12,00,00,00,00,00,00,F7,
58499765,19000026,true,Rx,0,8,00,FF,01,40,38,11,8C,00,
58504844,0340412E,true,Rx,0,8,75,80,00,AD,80,00,00,00,
58505820,0100082C,true,Rx,0,8,00,C0,84,E8,66,04,12,DC,
58506102,0110483C,true,Rx,0,8,08,E9,6A,00,44,66,FC,52,
58510883,01C04026,true,Rx,0,8,80,00,80,00,80,00,80,00,
58511160,02000026,true,Rx,0,8,7F,34,00,DC,49,00,E0,AC,
58511449,02104136,true,Rx,0,8,BB,00,3F,FF,07,E0,00,00,
58511720,02804026,true,Rx,0,8,B7,FF,77,EC,F7,63,3D,FF,
58512021,02C00020,true,Rx,0,8,00,00,00,00,00,00,00,00,
58514869,0340412E,true,Rx,0,8,76,80,00,9D,80,00,00,00,
58515145,19000026,true,Rx,0,8,00,FF,01,40,38,11,84,00,
58516013,0100082C,true,Rx,0,8,00,C0,84,E8,66,04,12,DC,
58516293,0110483C,true,Rx,0,8,08,E9,6A,00,44,66,FC,52,
58524831,01C04026,true,Rx,0,8,80,00,80,00,80,00,80,00,
58525118,02000026,true,Rx,0,8,7F,34,00,DC,49,00,E0,AC,
58525399,02104136,true,Rx,0,8,BB,00,3F,FF,07,E0,00,00,
58525678,02804026,true,Rx,0,8,B7,FF,77,EA,F7,63,3D,FF,
58525958,0100082C,true,Rx,0,8,00,C0,84,E8,66,04,12,DC,
58526239,0110483C,true,Rx,0,8,08,E9,6A,00,44,66,FC,52,
58526528,02C00020,true,Rx,0,8,00,00,00,00,00,00,00,00,
58526818,0340412E,true,Rx,0,8,77,80,00,8D,80,00,00,00,
58527098,19A00002,true,Rx,0,8,6E,00,00,00,00,00,00,F7,
58527388,1A200020,true,Rx,0,8,0E,00,02,34,00,00,02,34,
58527679,1B700030,true,Rx,0,8,35,92,22,00,00,00,03,00,
58529761,19000026,true,Rx,0,8,00,FF,01,40,38,11,8C,00,
58534840,0340412E,true,Rx,0,8,78,80,00,7D,80,00,00,00,
58535837,0100082C,true,Rx,0,8,00,C0,84,E8,66,04,12,DC,
58536108,0110483C,true,Rx,0,8,08,E9,6A,00,44,66,FC,52,
58538878,01C04026,true,Rx,0,8,80,00,80,00,80,00,80,00,
58539155,02000026,true,Rx,0,8,7F,34,00,DC,49,00,E0,AC,
58539445,02104136,true,Rx,0,8,BB,00,3F,FF,07,E0,00,00,
58539714,02804026,true,Rx,0,8,B7,FF,77,EB,F7,63,3D,FF,
58540016,02C00020,true,Rx,0,8,00,00,00,00,00,00,00,00,
58544842,0340412E,true,Rx,0,8,79,80,00,6D,80,00,00,00,
58545129,19000026,true,Rx,0,8,00,FF,01,40,38,11,84,00,
58545738,1B200002,true,Rx,0,8,00,00,00,00,00,00,0F,71,
58546019,0100082C,true,Rx,0,8,00,C0,84,E8,66,04,12,DC,
58546299,0110483C,true,Rx,0,8,08,E9,EA,00,44,66,FC,53,
58552857,01C04026,true,Rx,0,8,80,00,80,00,80,00,80,00,
58553135,02000026,true,Rx,0,8,7F,34,00,DC,49,00,E0,AC,
58553425,02104136,true,Rx,0,8,BB,00,3F,FF,07,E0,00,00,
58553704,02804026,true,Rx,0,8,B7,FF,77,EA,F7,63,3D,FF,
58553996,02C00020,true,Rx,0,8,00,00,00,00,00,00,00,00,
58554286,19A00002,true,Rx,0,8,12,00,00,00,00,00,00,F7,
58554844,0340412E,true,Rx,0,8,7A,80,00,5D,80,00,00,00,
58555968,0100082C,true,Rx,0,8,00,C0,84,E8,66,04,12,DC,
58556248,0110483C,true,Rx,0,8,08,E9,6A,00,44,66,FC,52,
58559776,19000026,true,Rx,0,8,00,FF,01,40,38,11,84,00,
58564841,0340412E,true,Rx,0,8,7B,80,00,4D,80,00,00,00,
58565817,0100082C,true,Rx,0,8,00,C0,84,E8,66,04,12,DC,
58566089,0110483C,true,Rx,0,8,08,E9,6A,00,44,66,FC,52,
58566893,01C04026,true,Rx,0,8,80,00,80,00,80,00,80,00,
58567162,02000026,true,Rx,0,8,7F,34,00,DC,49,00,E0,AC,
58567441,02104136,true,Rx,0,8,BB,00,3F,FF,07,E0,00,00,
58567721,02804026,true,Rx,0,8,B7,FF,77,EB,F7,63,3D,FF,
58568012,02C00020,true,Rx,0,8,00,00,00,00,00,00,00,00,
58574843,0340412E,true,Rx,0,8,7C,80,00,3D,80,00,00,00,
58575131,19000026,true,Rx,0,8,00,FF,01,40,38,11,8C,00,
58575884,0100082C,true,Rx,0,8,00,C0,84,E8,66,04,12,DC,
58576166,0110483C,true,Rx,0,8,08,E9,6A,00,44,66,FC,52,
58580877,01C04026,true,Rx,0,8,80,00,80,00,80,00,80,00,
58581154,02000026,true,Rx,0,8,7F,34,00,DC,49,00,E0,AC,
58581445,02104136,true,Rx,0,8,BB,00,3F,FF,07,E0,00,00,
58581724,02804026,true,Rx,0,8,B7,FF,77,EB,F7,63,3D,FF,
58582015,02C00020,true,Rx,0,8,00,00,00,00,00,00,00,00,
58582306,19A00002,true,Rx,0,8,02,00,00,00,00,00,00,F7,
58582585,1BA0493C,true,Rx,0,8,0A,01,01,01,01,02,06,01,
58582875,1BE0493C,true,Rx,0,8,05,00,00,00,00,00,07,8F,
58584875,0340412E,true,Rx,0,8,7D,80,00,2D,80,00,00,00,
58586029,0100082C,true,Rx,0,8,00,C0,84,E8,76,04,12,DC,
58586308,0110483C,true,Rx,0,8,08,E9,6A,00,44,66,FC,52,
58589764,19000026,true,Rx,0,8,00,FF,01,40,38,11,84,00,
58594820,01C04026,true,Rx,0,8,80,00,80,00,80,00,80,00,
58595096,02000026,true,Rx,0,8,7F,34,00,DC,4A,00,E0,AC,
58595387,02104136,true,Rx,0,8,BB,00,3F,FF,07,E0,00,00,
58595666,02804026,true,Rx,0,8,B7,FF,77,EA,F7,63,3D,FF,
58595947,0100082C,true,Rx,0,8,00,C0,84,E8,66,04,12,DC,
58596217,0110483C,true,Rx,0,8,08,E9,EA,00,44,66,FC,52,
58596517,02C00020,true,Rx,0,8,00,00,00,00,00,00,00,00,
58596798,0340412E,true,Rx,0,8,7E,80,00,1D,80,00,00,00,
58604848,0340412E,true,Rx,0,8,7F,80,00,0D,80,00,00,00,
58605134,19000026,true,Rx,0,8,00,FF,01,40,38,11,8C,00,
58605847,0100082C,true,Rx,0,8,00,C0,84,E8,66,04,12,DC,
58606128,0110483C,true,Rx,0,8,08,E9,6A,00,44,66,FC,52,
58608859,01C04026,true,Rx,0,8,80,00,80,00,80,00,80,00,
58609137,02000026,true,Rx,0,8,7F,34,00,DC,4A,00,E0,AC,
58609426,02104136,true,Rx,0,8,BB,00,3F,FF,07,E0,00,00,
58609695,02804026,true,Rx,0,8,B7,FF,77,E9,F7,63,3D,FF,
58609998,02C00020,true,Rx,0,8,00,00,00,00,00,00,00,00,
58610288,19A00002,true,Rx,0,8,12,00,00,00,00,00,00,F7,
58614848,0340412E,true,Rx,0,8,70,80,00,FD,80,00,00,00,
58615876,0100082C,true,Rx,0,8,00,C0,84,E8,66,04,12,DC,
58616158,0110483C,true,Rx,0,8,08,E9,6A,00,44,66,FC,52,
58619831,19000026,true,Rx,0,8,00,FF,01,40,38,11,84,00,
58622864,01C04026,true,Rx,0,8,80,00,80,00,80,00,80,00,
58623141,02000026,true,Rx,0,8,7F,34,00,DC,4A,00,E0,AC,
58623420,02104136,true,Rx,0,8,BB,00,3F,FF,07,E0,00,00,
58623701,02804026,true,Rx,0,8,B7,FF,77,E9,F7,63,3D,FF,
58623992,02C00020,true,Rx,0,8,00,00,00,00,00,00,00,00,
58624848,0340412E,true,Rx,0,8,71,80,00,ED,80,00,00,00,
58625999,0100082C,true,Rx,0,8,00,C0,84,E8,66,04,12,DC,
58626279,0110483C,true,Rx,0,8,08,E9,6A,00,44,66,FC,53,
58630740,1B200002,true,Rx,0,8,00,00,00,00,00,00,0F,71,
58634839,0340412E,true,Rx,0,8,72,80,00,DD,80,00,00,00,
58635127,19000026,true,Rx,0,8,00,FF,01,40,38,11,84,00,
58635869,0100082C,true,Rx,0,8,00,C0,84,E8,66,04,12,DC,
58636141,0110483C,true,Rx,0,8,08,E9,6A,00,44,66,FC,52,
58636863,01C04026,true,Rx,0,8,80,00,80,00,80,00,80,00,
58637135,02000026,true,Rx,0,8,7F,34,00,DC,4A,00,E0,AC,
58637425,02104136,true,Rx,0,8,BB,00,3F,FF,07,E0,00,00,
58637695,02804026,true,Rx,0,8,B7,FF,77,E9,F7,63,3D,FF,
58637997,02C00020,true,Rx,0,8,00,00,00,00,00,00,00,00,
58638278,19A00002,true,Rx,0,8,6E,00,00,00,00,00,00,F7,
58644848,0340412E,true,Rx,0,8,73,80,00,CD,80,00,00,00,
58645805,0100082C,true,Rx,0,8,00,C0,84,E8,66,04,12,DC,
58646086,0110483C,true,Rx,0,8,08,E9,EA,00,44,66,FC,53,
58649769,19000026,true,Rx,0,8,00,FF,01,40,38,11,8C,00,
58651426,01C04026,true,Rx,0,8,80,00,80,00,80,00,80,00,
58651706,02000026,true,Rx,0,8,7F,34,00,DC,4A,00,E0,EC,
58651984,02104136,true,Rx,0,8,BB,00,3F,FF,06,E0,00,00,
58652265,02804026,true,Rx,0,8,B7,FF,77,E9,F7,63,3D,FF,
58652554,02C00020,true,Rx,0,8,00,00,00,00,00,00,00,00,
58654864,0340412E,true,Rx,0,8,74,80,00,BD,80,00,00,00,
58655966,0100082C,true,Rx,0,8,00,C0,84,E8,66,04,12,DC,
58656246,0110483C,true,Rx,0,8,08,E9,6A,00,44,66,FC,52,
58664857,0340412E,true,Rx,0,8,75,80,00,AD,80,00,00,00,
58665145,19000026,true,Rx,0,8,00,FF,01,40,38,11,84,00,
58665506,01C04026,true,Rx,0,8,80,00,80,00,80,00,80,00,
58665785,02000026,true,Rx,0,8,7F,34,00,FC,4A,00,E0,EF,
58666067,0100082C,true,Rx,0,8,00,C0,84,E8,66,04,12,DC,
58666347,0110483C,true,Rx,0,8,08,E9,6A,00,44,66,FC,52,
58666627,02104136,true,Rx,0,8,BB,00,3F,FF,06,E0,00,00,
58666914,02804026,true,Rx,0,8,B7,FF,77,E9,F7,63,3D,FF,
58667194,02C00020,true,Rx,0,8,00,00,00,00,00,00,00,00,
58667484,19A00002,true,Rx,0,8,12,00,00,00,00,00,00,F7,
58674846,0340412E,true,Rx,0,8,76,80,00,9D,80,00,00,00,
58675875,0100082C,true,Rx,0,8,00,C0,84,E8,76,04,12,DC,
58676146,0110483C,true,Rx,0,8,08,E9,6A,00,44,66,FC,52,
58679499,01C04026,true,Rx,0,8,80,00,80,00,80,00,80,00,
58679786,02000026,true,Rx,0,8,7F,34,00,FC,49,00,E0,EF,
58680066,02104136,true,Rx,0,8,BB,00,3F,FF,06,E0,00,00,
58680346,02804026,true,Rx,0,8,B7,FF,77,E8,F7,63,1D,FF,
58680637,02C00020,true,Rx,0,8,00,00,00,00,00,00,00,00,
58680917,19000026,true,Rx,0,8,00,FF,01,40,38,11,8C,00,
58684866,0340412E,true,Rx,0,8,77,80,00,8D,80,00,00,00,
58685947,0100082C,true,Rx,0,8,00,C0,84,E8,66,04,12,DC,
58686226,0110483C,true,Rx,0,8,08,E9,6A,00,44,66,FC,52,
58693485,01C04026,true,Rx,0,8,80,00,80,00,80,00,80,00,
58693762,02000026,true,Rx,0,8,7F,34,00,FC,49,00,E0,EF,
58694043,02104136,true,Rx,0,8,BB,00,3F,FF,06,E0,00,00,
58694323,02804026,true,Rx,0,8,B7,FF,77,E8,F7,63,1D,FF,
58694613,02C00020,true,Rx,0,8,00,00,00,00,00,00,00,00,
58694904,0340412E,true,Rx,0,8,78,80,00,7D,80,00,00,00,
58695184,19000026,true,Rx,0,8,00,FF,01,40,38,11,84,00,
58695474,19A00002,true,Rx,0,8,02,00,00,00,00,00,00,F7,
58696011,0100082C,true,Rx,0,8,00,C0,84,E8,66,04,12,DC,
58696280,0110483C,true,Rx,0,8,08,E9,EA,00,44,66,FC,52,
58704852,0340412E,true,Rx,0,8,79,80,00,6D,80,00,00,00,
58705799,0100082C,true,Rx,0,8,00,C0,84,E8,66,04,12,DC,
58706080,0110483C,true,Rx,0,8,08,E9,6A,00,44,66,FC,52,
58707512,01C04026,true,Rx,0,8,80,00,80,00,80,00,80,00,
58707791,02000026,true,Rx,0,8,7F,34,00,FC,49,00,E0,EF,
58708082,02104136,true,Rx,0,8,BB,00,3F,FF,06,E0,00,00,
58708352,02804026,true,Rx,0,8,B7,FF,77,E8,F7,63,1D,FF,
58708652,02C00020,true,Rx,0,8,00,00,00,00,00,00,00,00,
58709772,19000026,true,Rx,0,8,00,FF,01,40,38,11,8C,00,
58714852,0340412E,true,Rx,0,8,7A,80,00,5D,80,00,00,00,
58715705,1B200002,true,Rx,0,8,00,00,00,00,00,00,0F,71,
58715987,0100082C,true,Rx,0,8,00,C0,84,E8,66,04,12,DC,
58716266,0110483C,true,Rx,0,8,08,E9,6A,00,44,66,FC,52,
58721496,01C04026,true,Rx,0,8,80,00,80,00,80,00,80,00,
58721782,02000026,true,Rx,0,8,7F,34,00,FC,49,00,E0,EF,
58722064,02104136,true,Rx,0,8,BB,00,3F,FF,06,E0,00,00,
58722333,02804026,true,Rx,0,8,B7,FF,77,E8,F7,63,1D,FF,
58722633,02C00020,true,Rx,0,8,00,00,00,00,00,00,00,00,
58722925,19A00002,true,Rx,0,8,12,00,00,00,00,00,00,F7,
58724877,0340412E,true,Rx,0,8,7B,80,00,4D,80,00,00,00,
58725159,19000026,true,Rx,0,8,00,FF,01,40,38,11,84,00,
58725983,0100082C,true,Rx,0,8,00,C0,84,E8,66,04,12,DC,
58726263,0110483C,true,Rx,0,8,08,E9,6A,00,44,66,FC,52,
58734855,0340412E,true,Rx,0,8,7C,80,00,3D,80,00,00,00,
58735512,01C04026,true,Rx,0,8,80,00,80,00,80,00,80,00,
58735793,02000026,true,Rx,0,8,7F,34,00,FC,49,00,E0,EF,
58736074,0100082C,true,Rx,0,8,00,C0,84,E8,66,04,12,DC,
58736353,0110483C,true,Rx,0,8,08,E9,6A,00,44,66,FC,52,
58736633,02104136,true,Rx,0,8,BB,00,3F,FF,06,E0,00,00,
58736918,02804026,true,Rx,0,8,B7,FF,77,E8,F7,63,1D,FF,
58737198,02C00020,true,Rx,0,8,00,00,00,00,00,00,00,00,
58737488,1AE0092C,true,Rx,0,8,00,00,22,E0,41,A0,00,00,
58737778,1B700030,true,Rx,0,8,25,92,22,00,00,00,03,00,
58739782,19000026,true,Rx,0,8,00,FF,01,40,38,11,8C,00,
58744859,0340412E,true,Rx,0,8,7D,80,00,2D,80,00,00,00,
58745796,0100082C,true,Rx,0,8,00,C0,84,E8,66,04,12,DC,
58746076,0110483C,true,Rx,0,8,08,E9,EA,00,44,66,FC,53,
58749499,01C04026,true,Rx,0,8,80,00,80,00,80,00,80,00,
58749775,02000026,true,Rx,0,8,7F,34,00,FC,49,00,E0,EF,
58750066,02104136,true,Rx,0,8,BB,00,3F,FF,06,E0,00,00,
58750336,02804026,true,Rx,0,8,B7,FF,77,E8,F7,63,1D,FF,
58750636,02C00020,true,Rx,0,8,00,00,00,00,00,00,00,00,
58750917,19A00002,true,Rx,0,8,6E,00,00,00,00,00,00,F7,
58754876,0340412E,true,Rx,0,8,7E,80,00,1D,80,00,00,00,
58755154,19000026,true,Rx,0,8,00,FF,01,40,38,11,84,00,
58755959,0100082C,true,Rx,0,8,00,C0,84,E8,66,04,12,DC,
58756228,0110483C,true,Rx,0,8,08,E9,6A,00,44,66,FC,52,
58763459,01C04026,true,Rx,0,8,80,00,80,00,80,00,80,00,
58763735,02000026,true,Rx,0,8,7F,34,00,FC,49,00,E0,EF,
58764026,02104136,true,Rx,0,8,BB,00,3F,FF,06,E0,00,00,
58764296,02804026,true,Rx,0,8,B7,FF,77,E8,F7,63,1D,FF,
58764586,02C00020,true,Rx,0,8,00,00,00,00,00,00,00,00,
58764875,0340412E,true,Rx,0,8,7F,80,00,0D,80,00,00,00,
58765956,0100082C,true,Rx,0,8,00,C0,84,E8,76,04,12,DC,
58766235,0110483C,true,Rx,0,8,08,E9,6A,00,44,66,FC,52,
58769781,19000026,true,Rx,0,8,00,FF,01,40,38,11,84,00,
58774854,0340412E,true,Rx,0,8,70,80,00,FD,80,00,00,00,
58775821,0100082C,true,Rx,0,8,00,C0,84,E8,66,04,12,DC,
58776092,0110483C,true,Rx,0,8,08,E9,6A,00,44,66,FC,52,
58777349,01C04026,true,Rx,0,8,80,00,80,00,80,00,80,00,
58777628,02000026,true,Rx,0,8,7F,34,00,FC,49,00,E0,EF,
58777909,02104136,true,Rx,0,8,BB,00,3F,FF,06,E0,00,00,
58778179,02804026,true,Rx,0,8,B7,FF,77,E8,F7,63,1D,FF,
58778479,02C00020,true,Rx,0,8,00,00,00,00,00,00,00,00,
58778770,19A00002,true,Rx,0,8,12,00,00,00,00,00,00,F7,
58784858,0340412E,true,Rx,0,8,71,80,00,ED,80,00,00,00,
58785136,19000026,true,Rx,0,8,00,FF,01,40,38,11,8C,00,
58785848,0100082C,true,Rx,0,8,00,C0,84,E8,66,04,12,DC,
58786128,0110483C,true,Rx,0,8,08,E9,6A,00,44,66,FC,52,
58791371,01C04026,true,Rx,0,8,80,00,80,00,80,00,80,00,
58791646,02000026,true,Rx,0,8,7F,34,00,FC,49,00,E0,EF,
58791928,02104136,true,Rx,0,8,BB,00,3F,FF,06,E0,00,00,
58792207,02804026,true,Rx,0,8,B7,FF,77,E8,F7,63,1D,FF,
58792496,02C00020,true,Rx,0,8,00,00,00,00,00,00,00,00,
58794882,0340412E,true,Rx,0,8,72,80,00,DD,80,00,00,00,
58795962,0100082C,true,Rx,0,8,00,C0,84,E8,66,04,12,DC,
58796242,0110483C,true,Rx,0,8,08,E9,EA,00,44,66,FC,52,
58799767,19000026,true,Rx,0,8,00,FF,01,40,38,11,84,00,
58800733,1B200002,true,Rx,0,8,00,00,00,00,00,00,0F,71,
58804869,0340412E,true,Rx,0,8,73,80,00,CD,80,00,00,00,
58805331,01C04026,true,Rx,0,8,80,00,80,00,80,00,80,00,
58805610,02000026,true,Rx,0,8,7F,34,00,FC,49,00,E0,EF,
58805892,0100082C,true,Rx,0,8,00,C0,84,E8,66,04,12,DC,
58806171,0110483C,true,Rx,0,8,08,E9,6A,00,44,66,FC,52,
58806452,02104136,true,Rx,0,8,BB,00,3F,FF,06,E0,00,00,
58806731,02804026,true,Rx,0,8,B7,FF,77,E8,F7,63,1D,FF,
58807019,02C00020,true,Rx,0,8,00,00,00,00,00,00,00,00,
58807310,19A00002,true,Rx,0,8,02,00,00,00,00,00,00,F7,
58814854,0340412E,true,Rx,0,8,74,80,00,BD,80,00,00,00,
58815141,19000026,true,Rx,0,8,00,FF,01,40,38,11,8C,00,
58815863,0100082C,true,Rx,0,8,00,C0,84,E8,66,04,12,DC,
58816133,0110483C,true,Rx,0,8,08,E9,6A,00,44,66,FC,52,
58819375,01C04026,true,Rx,0,8,80,00,80,00,80,00,80,00,
58819651,02000026,true,Rx,0,8,7F,34,00,FC,49,00,E0,EF,
58819932,02104136,true,Rx,0,8,BB,00,3F,FF,06,E0,00,00,
58820211,02804026,true,Rx,0,8,B7,FF,77,E8,F7,63,1D,FF,
58820502,02C00020,true,Rx,0,8,00,00,00,00,00,00,00,00,
58824854,0340412E,true,Rx,0,8,75,80,00,AD,80,00,00,00,
58825862,0100082C,true,Rx,0,8,00,C0,84,E8,66,04,12,DC,
58826142,0110483C,true,Rx,0,8,08,E9,6A,00,44,66,FC,52,
58829836,19000026,true,Rx,0,8,00,FF,01,40,38,11,84,00,
58830927,1BA0493C,true,Rx,0,8,0B,01,01,01,02,03,03,01,
58833357,01C04026,true,Rx,0,8,80,00,80,00,80,00,80,00,
58833636,02000026,true,Rx,0,8,7F,34,00,FC,49,00,E0,EF,
58833925,02104136,true,Rx,0,8,BB,00,3F,FF,06,E0,00,00,
58834195,02804026,true,Rx,0,8,B7,FF,77,E8,F7,63,1D,FF,
58834485,02C00020,true,Rx,0,8,00,00,00,00,00,00,00,00,
58834774,19A00002,true,Rx,0,8,12,00,00,00,00,00,00,F7,
58835066,0340412E,true,Rx,0,8,76,80,00,9D,80,00,00,00,
58836020,0100082C,true,Rx,0,8,00,C0,84,E8,66,04,12,DC,
58836300,0110483C,true,Rx,0,8,08,E9,6A,00,44,66,FC,52,
58840786,1A200020,true,Rx,0,8,4E,00,02,34,00,00,02,34,
58844858,0340412E,true,Rx,0,8,77,80,00,8D,80,00,00,00,
58845146,19000026,true,Rx,0,8,00,FF,01,40,38,11,84,00,
58845827,0100082C,true,Rx,0,8,00,C0,84,E8,66,04,12,DC,
58846108,0110483C,true,Rx,0,8,08,E9,EA,00,44,66,FC,52,
58847389,01C04026,true,Rx,0,8,80,00,80,00,80,00,80,00,
58847668,02000026,true,Rx,0,8,7F,34,00,FC,49,00,E0,EF,
58847951,02104136,true,Rx,0,8,BB,00,3F,FF,06,E0,00,00,
58848220,02804026,true,Rx,0,8,B7,FF,77,E8,F7,63,1D,FF,
58848520,02C00020,true,Rx,0,8,00,00,00,00,00,00,00,00,
58854855,0340412E,true,Rx,0,8,78,80,00,7D,80,00,00,00,
58855832,0100082C,true,Rx,0,8,00,C0,84,E8,66,04,12,DC,
58856112,0110483C,true,Rx,0,8,08,E9,6A,00,44,66,FC,53,
58859775,19000026,true,Rx,0,8,00,FF,01,40,38,11,8C,00,
58861360,01C04026,true,Rx,0,8,80,00,80,00,80,00,80,00,
58861639,02000026,true,Rx,0,8,7F,34,00,FC,49,00,E0,EF,
58861920,02104136,true,Rx,0,8,BB,00,3F,FF,06,E0,00,00,
58862199,02804026,true,Rx,0,8,B7,FF,77,E8,F7,63,1D,FF,
58862490,02C00020,true,Rx,0,8,00,00,00,00,00,00,00,00,
58862780,19A00002,true,Rx,0,8,6E,00,00,00,00,00,00,F7,
58864876,0340412E,true,Rx,0,8,79,80,00,6D,80,00,00,00,
58866007,0100082C,true,Rx,0,8,00,C0,84,E8,66,04,12,DC,
58866287,0110483C,true,Rx,0,8,08,E9,6A,00,44,66,FC,52,
58874868,0340412E,true,Rx,0,8,7A,80,00,5D,80,00,00,00,
58875154,19000026,true,Rx,0,8,00,FF,01,40,38,11,84,00,
58875444,01C04026,true,Rx,0,8,80,00,80,00,80,00,80,00,
58875725,02000026,true,Rx,0,8,7F,34,00,FC,49,00,E0,EF,
58876005,0100082C,true,Rx,0,8,00,C0,84,E8,66,04,12,DC,
58876286,0110483C,true,Rx,0,8,08,E9,6A,00,44,66,FC,52,
58876565,02104136,true,Rx,0,8,BB,00,3F,FF,06,E0,00,00,
58876844,02804026,true,Rx,0,8,B7,FF,77,E8,F7,63,1D,FF,
58877138,02C00020,true,Rx,0,8,00,00,00,00,00,00,00,00,
58884854,0340412E,true,Rx,0,8,7B,80,00,4D,80,00,00,00,
58885738,1B200002,true,Rx,0,8,00,00,00,00,00,00,0F,71,
58886019,0100082C,true,Rx,0,8,00,C0,84,E8,66,04,12,DC,
58886289,0110483C,true,Rx,0,8,08,E9,6A,00,44,66,FC,52,
