Time Stamp,ID,Extended,Dir,Bus,LEN,D1,D2,D3,D4,D5,D6,D7,D8
9327763,0100082C,true,Rx,0,8,0F,C0,91,15,61,FC,00,BC,
9328049,0110483C,true,Rx,0,8,00,C0,00,00,80,66,D8,53,
9328330,1A200020,true,Rx,0,8,EC,00,02,2D,00,00,02,2F,
9328621,1AE0092C,true,Rx,0,8,60,00,22,20,01,A0,00,00,
9328900,1B700030,true,Rx,0,8,25,8E,22,00,00,00,03,00,
9337708,0100082C,true,Rx,0,8,0F,C0,91,15,65,FC,00,BC,
9337983,0110483C,true,Rx,0,8,08,E0,A0,08,44,66,FC,53,
9347724,0100082C,true,Rx,0,8,0F,C0,91,15,65,FC,00,BC,
9347999,0110483C,true,Rx,0,8,08,E0,20,00,44,66,FC,53,
9357708,0100082C,true,Rx,0,8,0F,C0,91,15,65,FC,00,BC,
9357983,0110483C,true,Rx,0,8,08,E0,20,00,44,66,FC,52,
9367712,0100082C,true,Rx,0,8,0F,C0,91,15,65,FC,00,BC,
9367998,0110483C,true,Rx,0,8,08,E0,20,00,44,66,FC,53,
9377707,0100082C,true,Rx,0,8,0F,C0,91,15,65,FC,00,BC,
9377993,0110483C,true,Rx,0,8,08,E0,20,00,44,66,FC,52,
9387731,0100082C,true,Rx,0,8,0F,C0,91,15,65,FC,00,BC,
9388006,0110483C,true,Rx,0,8,08,E0,A0,00,44,66,FC,52,
9397726,0100082C,true,Rx,0,8,0F,C0,91,15,65,FC,00,BC,
9398001,0110483C,true,Rx,0,8,08,E0,20,00,44,66,FC,52,
9407710,0100082C,true,Rx,0,8,0F,C0,91,15,65,FC,00,BC,
9407985,0110483C,true,Rx,0,8,08,E0,20,00,44,66,FC,52,
9413755,00800006,true,Rx,0,8,60,00,00,00,00,00,00,00,
9414041,0090411E,true,Rx,0,8,00,00,00,00,00,00,00,00,
9414342,0300410E,true,Rx,0,8,00,00,00,00,00,00,00,00,
9414633,03800006,true,Rx,0,8,00,00,00,00,00,00,00,00,
9414933,19E00006,true,Rx,0,8,00,00,00,C0,00,00,00,00,
9415223,1B600002,true,Rx,0,8,00,00,00,00,00,00,00,00,
9415658,0300410E,true,Rx,0,8,00,00,00,00,00,00,00,00,
9417666,00800006,true,Rx,0,8,80,00,00,00,00,00,00,00,
9417962,0090411E,true,Rx,0,8,00,00,00,00,00,00,00,00,
9418242,0100082C,true,Rx,0,8,0F,C0,91,15,65,FC,00,BC,
9418523,0110483C,true,Rx,0,8,08,E0,20,00,44,66,FC,52,
9418813,0300410E,true,Rx,0,8,00,00,00,00,00,00,00,00,
9419114,03800006,true,Rx,0,8,00,00,00,00,00,00,00,00,
9419662,0300410E,true,Rx,0,8,00,00,00,00,00,00,00,00,
9425606,00800006,true,Rx,0,8,C1,E0,0D,E0,41,E0,06,30,
9425893,0090411E,true,Rx,0,8,00,00,00,00,00,00,00,00,
9426172,0300410E,true,Rx,0,8,B7,CA,00,00,87,CA,F0,00,
9426473,03800006,true,Rx,0,8,10,00,00,00,00,00,00,00,
9427764,0100082C,true,Rx,0,8,0F,C0,91,15,65,FC,00,BC,
9428043,0110483C,true,Rx,0,8,08,E0,20,00,44,66,FC,52,
9435599,0300410E,true,Rx,0,8,37,CA,98,33,07,CA,6C,00,
9435885,19E00006,true,Rx,0,8,00,00,18,E0,67,00,40,00,
9437758,0100082C,true,Rx,0,8,0F,C0,91,15,65,FC,00,BC,
9438047,0110483C,true,Rx,0,8,08,E0,A0,00,44,66,FC,52,
9445614,00800006,true,Rx,0,8,09,E6,0D,E6,41,E6,A6,74,
9445901,0090411E,true,Rx,0,8,C2,00,E0,00,00,00,00,00,
9446180,0300410E,true,Rx,0,8,B7,D4,18,33,87,D5,FC,00,
9446471,03800006,true,Rx,0,8,70,00,00,00,00,00,00,00,
9447843,0100082C,true,Rx,0,8,0F,C0,91,15,65,FC,00,BC,
9448123,0110483C,true,Rx,0,8,08,E0,20,00,44,66,FC,52,
9455626,0300410E,true,Rx,0,8,37,D4,18,33,07,D5,6C,00,
9457706,0100082C,true,Rx,0,8,0F,C0,91,15,65,FC,00,BC,
9457992,0110483C,true,Rx,0,8,08,E0,20,00,44,66,FC,52,
9462704,1BA0493C,true,Rx,0,8,0C,03,01,01,02,02,01,09,
9462970,1BE0493C,true,Rx,0,8,11,4D,57,32,31,34,32,37,
9465637,00800006,true,Rx,0,8,49,EC,0D,EC,41,EC,26,6B,
9465927,0090411E,true,Rx,0,8,02,00,E0,00,00,00,00,00,
9466207,0300410E,true,Rx,0,8,B7,DE,98,33,87,DE,FC,00,
9466498,03800006,true,Rx,0,8,30,00,00,00,00,00,00,00,
9467790,0100082C,true,Rx,0,8,0F,C0,91,15,65,FC,00,BC,
9468069,0110483C,true,Rx,0,8,08,E0,20,00,44,66,FC,52,
9475642,0300410E,true,Rx,0,8,B7,DE,18,F1,87,DE,FC,00,
9477721,0100082C,true,Rx,0,8,0F,C0,91,15,65,FC,00,BC,
9477997,0110483C,true,Rx,0,8,08,E0,20,00,44,66,FC,52,
9485652,00800006,true,Rx,0,8,89,EC,0D,EC,41,EC,A6,6B,
9485939,0090411E,true,Rx,0,8,42,00,E0,00,00,00,00,00,
9486218,0300410E,true,Rx,0,8,37,DE,98,F1,07,DE,6C,00,
9486509,03800006,true,Rx,0,8,30,00,00,00,00,00,00,00,
9486800,19E00006,true,Rx,0,8,00,00,18,C0,67,00,40,00,
9487844,0100082C,true,Rx,0,8,0F,C0,91,15,65,FC,00,BC,
9488125,0110483C,true,Rx,0,8,08,E0,A0,00,44,66,FC,52,
9495658,0300410E,true,Rx,0,8,B7,DE,18,F1,87,DE,FC,00,
9497727,0100082C,true,Rx,0,8,0F,C0,91,15,65,FC,00,BC,
9498003,0110483C,true,Rx,0,8,08,E0,20,00,44,66,FC,52,
9505680,00800006,true,Rx,0,8,C1,EC,0D,EC,41,EC,26,6E,
9505967,0090411E,true,Rx,0,8,02,00,60,00,00,00,00,00,
9506246,0300410E,true,Rx,0,8,B7,DE,18,F1,87,DE,FC,00,
9506539,03800006,true,Rx,0,8,30,00,00,00,00,00,00,00,
9507797,0100082C,true,Rx,0,8,0F,C0,91,15,65,FC,00,BC,
9508077,0110483C,true,Rx,0,8,08,E0,20,00,44,66,FC,52,
9515683,0300410E,true,Rx,0,8,37,DE,98,F1,07,DE,6C,00,
9517713,0100082C,true,Rx,0,8,0F,C0,91,15,65,FC,00,BC,
9517998,0110483C,true,Rx,0,8,08,E0,20,00,44,66,FC,52,
9525686,00800006,true,Rx,0,8,09,EC,0D,EC,41,EC,A6,6E,
9525973,0090411E,true,Rx,0,8,42,00,E0,00,00,00,00,00,
9526252,0300410E,true,Rx,0,8,B7,DE,18,F1,87,DE,FC,00,
9526554,03800006,true,Rx,0,8,30,00,00,00,00,00,00,00,
9527781,0100082C,true,Rx,0,8,0F,C0,91,15,65,FC,00,BC,
9528062,0110483C,true,Rx,0,8,08,E2,20,00,44,66,FC,52,
9535699,0300410E,true,Rx,0,8,37,DE,18,F1,07,DE,6C,00,
9535986,19E00006,true,Rx,0,8,00,00,18,E0,67,00,40,00,
9537756,0100082C,true,Rx,0,8,0F,C0,91,15,65,FC,00,BC,
9538036,0110483C,true,Rx,0,8,08,E2,A0,00,44,66,FC,52,
9538327,1B700030,true,Rx,0,8,25,8E,22,00,00,00,03,00,
9545708,00800006,true,Rx,0,8,49,EC,0D,EC,41,EC,26,6E,
9546004,0090411E,true,Rx,0,8,82,00,E0,00,00,00,00,00,
9546273,0300410E,true,Rx,0,8,B7,DE,98,F1,87,DE,FC,00,
9546575,03800006,true,Rx,0,8,70,00,00,00,00,00,00,00,
9547853,0100082C,true,Rx,0,8,0F,C0,91,15,65,FC,00,BC,
9548134,0110483C,true,Rx,0,8,08,E2,20,00,44,66,FC,52,
9555722,0300410E,true,Rx,0,8,B7,DE,18,F1,87,DE,FC,00,
9556007,1B600002,true,Rx,0,8,00,80,00,40,00,1B,4C,00,
9557798,0100082C,true,Rx,0,8,0F,C0,91,15,65,FC,00,BC,
9558078,0110483C,true,Rx,0,8,08,E2,20,00,44,66,FC,52,
9565727,00800006,true,Rx,0,8,81,EC,0D,EC,41,EC,26,6E,
9566023,0090411E,true,Rx,0,8,02,00,60,00,00,00,00,00,
9566302,0300410E,true,Rx,0,8,37,DE,18,F1,07,DE,6C,00,
9566594,03800006,true,Rx,0,8,30,00,00,00,00,00,00,00,
9567812,0100082C,true,Rx,0,8,0F,C0,91,15,65,FC,00,BC,
9568092,0110483C,true,Rx,0,8,08,E2,20,00,44,66,FC,52,
9575741,0300410E,true,Rx,0,8,B7,DE,98,F1,87,DE,FC,00,
9577717,0100082C,true,Rx,0,8,0F,C0,91,15,65,FC,00,BC,
9577993,0110483C,true,Rx,0,8,08,E2,20,00,44,66,FC,52,
9585754,00800006,true,Rx,0,8,C9,EC,0D,EC,41,EC,A6,6E,
9586039,0090411E,true,Rx,0,8,42,00,E0,00,00,00,00,00,
9586308,0300410E,true,Rx,0,8,B7,DE,18,F1,87,DE,FC,00,
9586610,03800006,true,Rx,0,8,30,00,00,00,00,00,00,00,
9586900,19E00006,true,Rx,0,8,00,00,18,C0,67,00,40,00,
9587811,0100082C,true,Rx,0,8,0F,C0,91,15,65,FC,00,BC,
9588092,0110483C,true,Rx,0,8,08,E2,A0,00,44,66,FC,52,
9595762,0300410E,true,Rx,0,8,37,DE,18,F1,07,DE,6C,00,
9597727,0100082C,true,Rx,0,8,0F,C0,91,15,65,FC,00,BC,
9598013,0110483C,true,Rx,0,8,08,E2,20,00,44,66,FC,52,
9605773,00800006,true,Rx,0,8,09,EC,0D,EC,41,EC,26,6E,
9606058,0090411E,true,Rx,0,8,02,00,E0,00,00,00,00,00,
9606339,0300410E,true,Rx,0,8,B7,DE,98,F1,87,DE,FC,00,
9606640,03800006,true,Rx,0,8,30,00,00,00,00,00,00,00,
9607795,0100082C,true,Rx,0,8,0F,C0,91,15,65,FC,00,BC,
9608068,0110483C,true,Rx,0,8,08,E2,20,00,44,66,FC,52,
9615785,0300410E,true,Rx,0,8,37,DE,18,F1,07,DE,6C,00,
9617709,0100082C,true,Rx,0,8,0F,C0,91,15,65,FC,00,BC,
9617986,0110483C,true,Rx,0,8,08,E2,20,00,44,66,FC,52,
9625796,00800006,true,Rx,0,8,41,EC,0D,EC,41,EC,A6,6E,
9626082,0090411E,true,Rx,0,8,42,00,60,00,00,00,00,00,
9626363,0300410E,true,Rx,0,8,B7,DE,18,F1,87,DE,FC,00,
9626653,03800006,true,Rx,0,8,30,00,00,00,00,00,00,00,
9627808,0100082C,true,Rx,0,8,0F,C0,91,15,65,FC,00,BC,
9628091,0110483C,true,Rx,0,8,08,E2,20,00,44,66,FC,52,
9635799,0300410E,true,Rx,0,8,B7,DE,98,F1,87,DE,FC,00,
9636084,19E00006,true,Rx,0,8,00,00,18,E0,67,00,40,00,
9637755,0100082C,true,Rx,0,8,0F,C0,91,15,65,FC,00,BC,
9638034,0110483C,true,Rx,0,8,08,E2,A0,00,44,66,FC,52,
9642715,1A200020,true,Rx,0,8,0E,00,02,2D,00,00,02,2F,
9645811,00800006,true,Rx,0,8,89,EC,0D,EC,41,EC,26,6E,
9646106,0090411E,true,Rx,0,8,82,00,E0,00,00,00,00,00,
9646378,0300410E,true,Rx,0,8,37,DE,18,F1,07,DE,6C,00,
9646678,03800006,true,Rx,0,8,70,00,00,00,00,00,00,00,
9647823,0100082C,true,Rx,0,8,0F,C0,91,15,65,FC,00,BC,
9648106,0110483C,true,Rx,0,8,08,E2,20,00,44,66,FC,52,
9655823,0300410E,true,Rx,0,8,B7,DE,18,F1,87,DE,FC,00,
9657717,0100082C,true,Rx,0,8,0F,C0,91,15,65,FC,00,BC,
9657993,0110483C,true,Rx,0,8,08,E2,20,00,44,66,FC,52,
9665836,00800006,true,Rx,0,8,C1,EC,0D,EC,41,EC,26,6E,
9666131,0090411E,true,Rx,0,8,02,00,60,00,00,00,00,00,
9666404,0300410E,true,Rx,0,8,B7,DE,18,F1,87,DE,FC,00,
9666704,03800006,true,Rx,0,8,30,00,00,00,00,00,00,00,
9667807,0100082C,true,Rx,0,8,0F,C0,91,15,65,FC,00,BC,
9668090,0110483C,true,Rx,0,8,08,E2,20,00,44,66,FC,52,
9675839,0300410E,true,Rx,0,8,37,DE,98,F1,07,DE,6C,00,
9677723,0100082C,true,Rx,0,8,0F,C0,91,15,65,FC,00,BC,
9677999,0110483C,true,Rx,0,8,08,E2,20,00,44,66,FC,52,
9685851,00800006,true,Rx,0,8,09,EC,0D,EC,41,EC,A6,6E,
9686136,0090411E,true,Rx,0,8,42,00,E0,00,00,00,00,00,
9686408,0300410E,true,Rx,0,8,B7,DE,18,F1,87,DE,FC,00,
9686708,03800006,true,Rx,0,8,30,00,00,00,00,00,00,00,
9686998,19E00006,true,Rx,0,8,00,00,18,C0,67,00,40,00,
9687847,0100082C,true,Rx,0,8,0F,C0,91,15,65,FC,00,BC,
9688120,0110483C,true,Rx,0,8,08,E2,A0,00,44,66,FC,52,
9695860,0300410E,true,Rx,0,8,37,DE,18,F1,07,DE,6C,00,
9697732,0100082C,true,Rx,0,8,0F,C0,91,15,65,FC,00,BC,
9698019,0110483C,true,Rx,0,8,08,E2,20,00,44,66,FC,52,
9705871,00800006,true,Rx,0,8,49,EC,0D,EC,41,EC,26,6E,
9706157,0090411E,true,Rx,0,8,02,00,E0,00,00,00,00,00,
9706439,0300410E,true,Rx,0,8,B7,DE,98,F1,87,DE,FC,00,
9706729,03800006,true,Rx,0,8,30,00,00,00,00,00,00,00,
9707813,0100082C,true,Rx,0,8,0F,C0,91,15,65,FC,00,BC,
9708095,0110483C,true,Rx,0,8,08,E2,20,00,44,66,FC,52,
9712734,1BA0493C,true,Rx,0,8,0D,01,02,01,01,01,01,01,
9713020,1BE0493C,true,Rx,0,8,01,00,2A,6D,D6,91,02,04,
9715893,0300410E,true,Rx,0,8,B7,DE,18,F1,87,DE,FC,00,
9717714,0100082C,true,Rx,0,8,0F,C0,91,15,65,FC,00,BC,
9717995,0110483C,true,Rx,0,8,08,E2,20,00,44,66,FC,52,
9725888,00800006,true,Rx,0,8,89,EC,0D,EC,41,EC,26,6E,
9726173,0090411E,true,Rx,0,8,02,00,E0,00,00,00,00,00,
9726455,0300410E,true,Rx,0,8,37,DE,98,F1,07,DE,6C,00,
9726755,03800006,true,Rx,0,8,30,00,00,00,00,00,00,00,
9727046,1B600002,true,Rx,0,8,00,80,00,40,00,1B,4C,00,
9727841,0100082C,true,Rx,0,8,0F,C0,91,15,65,FC,00,BC,
9728125,0110483C,true,Rx,0,8,08,E2,20,00,44,66,FC,52,
9735894,0300410E,true,Rx,0,8,B7,DE,18,F1,87,DE,FC,00,
9736180,19E00006,true,Rx,0,8,00,00,18,E0,67,00,40,00,
9737749,0100082C,true,Rx,0,8,0F,C0,91,15,65,FC,00,BC,
9738026,0110483C,true,Rx,0,8,08,E2,A0,00,44,66,FC,52,
9745918,00800006,true,Rx,0,8,C1,EC,0D,EC,41,EC,A6,6E,
9746205,0090411E,true,Rx,0,8,C2,00,60,00,00,00,00,00,
9746475,0300410E,true,Rx,0,8,B7,DE,18,F1,87,DE,FC,00,
9746775,03800006,true,Rx,0,8,70,00,00,00,00,00,00,00,
9747860,0100082C,true,Rx,0,8,0F,C0,91,15,65,FC,00,BC,
9748141,0110483C,true,Rx,0,8,08,E2,20,00,44,66,FC,52,
9748432,1AE0092C,true,Rx,0,8,80,00,22,E0,41,A0,00,00,
9748713,1B700030,true,Rx,0,8,35,8E,22,00,00,00,03,00,
9755918,0300410E,true,Rx,0,8,37,DE,98,F1,07,DE,6C,00,
9757720,0100082C,true,Rx,0,8,0F,C0,91,15,65,FC,00,BC,
9758006,0110483C,true,Rx,0,8,08,E2,20,00,44,66,FC,52,
9765929,00800006,true,Rx,0,8,09,EC,0D,EC,41,EC,26,6E,
9766216,0090411E,true,Rx,0,8,02,00,E0,00,00,00,00,00,
9766497,0300410E,true,Rx,0,8,B7,DE,18,F1,87,DE,FC,00,
9766796,03800006,true,Rx,0,8,30,00,00,00,00,00,00,00,
9767809,0100082C,true,Rx,0,8,0F,C0,91,15,65,FC,00,BC,
9768090,0110483C,true,Rx,0,8,08,E2,20,00,44,66,FC,52,
9775943,0300410E,true,Rx,0,8,37,DE,18,F1,07,DE,6C,00,
9777725,0100082C,true,Rx,0,8,0F,C0,91,15,65,FC,00,BC,
9778010,0110483C,true,Rx,0,8,08,E2,20,00,44,66,FC,52,
9785954,00800006,true,Rx,0,8,49,EC,0D,EC,41,EC,A6,6E,
9786241,0090411E,true,Rx,0,8,42,00,E0,00,00,00,00,00,
9786511,0300410E,true,Rx,0,8,B7,DE,98,F1,87,DE,FC,00,
9786811,03800006,true,Rx,0,8,30,00,00,00,00,00,00,00,
9787091,19E00006,true,Rx,0,8,00,00,18,C0,67,00,40,00,
9787857,0100082C,true,Rx,0,8,0F,C0,91,15,65,FC,00,BC,
9788141,0110483C,true,Rx,0,8,08,E2,A0,00,44,66,FC,52,
9795963,0300410E,true,Rx,0,8,B7,DE,18,F1,87,DE,FC,00,
9797734,0100082C,true,Rx,0,8,0F,C0,91,15,65,FC,00,BC,
9798009,0110483C,true,Rx,0,8,08,E2,20,00,44,66,FC,52,
9805975,00800006,true,Rx,0,8,81,EC,0D,EC,41,EC,26,6E,
9806262,0090411E,true,Rx,0,8,02,00,60,00,00,00,00,00,
9806542,0300410E,true,Rx,0,8,37,DE,18,F1,07,DE,6C,00,
9806833,03800006,true,Rx,0,8,30,00,00,00,00,00,00,00,
9807783,0100082C,true,Rx,0,8,0F,C0,91,15,65,FC,00,BC,
9808064,0110483C,true,Rx,0,8,08,E2,20,00,44,66,FC,52,
9815979,0300410E,true,Rx,0,8,B7,DE,98,F1,87,DE,FC,00,
9817719,0100082C,true,Rx,0,8,0F,C0,91,15,65,FC,00,BC,
9818009,0110483C,true,Rx,0,8,08,E2,20,00,44,66,FC,52,
9826007,00800006,true,Rx,0,8,C9,EC,0D,EC,41,EC,A6,6E,
9826294,0090411E,true,Rx,0,8,42,00,E0,00,00,00,00,00,
9826574,0300410E,true,Rx,0,8,B7,DE,18,F1,87,DE,FC,00,
9826875,03800006,true,Rx,0,8,30,00,00,00,00,00,00,00,
9827814,0100082C,true,Rx,0,8,0F,C0,91,15,65,FC,00,BC,
9828096,0110483C,true,Rx,0,8,08,E2,20,00,44,66,FC,52,
9836000,0300410E,true,Rx,0,8,37,DE,18,F1,07,DE,6C,00,
9836287,19E00006,true,Rx,0,8,00,00,18,E0,67,00,40,00,
9837754,0100082C,true,Rx,0,8,0F,C0,91,15,65,FC,00,BC,
9838042,0110483C,true,Rx,0,8,08,E2,A0,00,44,66,FC,52,
9846017,00800006,true,Rx,0,8,09,EC,0D,EC,41,EC,26,6E,
9846303,0090411E,true,Rx,0,8,82,00,E0,00,00,00,00,00,
9846573,0300410E,true,Rx,0,8,B7,DE,98,F1,87,DE,FC,00,
9846874,03800006,true,Rx,0,8,70,00,00,00,00,00,00,00,
9847834,0100082C,true,Rx,0,8,0F,C0,91,15,65,FC,00,BC,
9848116,0110483C,true,Rx,0,8,08,E2,20,00,44,66,FC,52,
9856021,0300410E,true,Rx,0,8,37,DE,18,F1,07,DE,6C,00,
9857719,0100082C,true,Rx,0,8,0F,C0,91,15,65,FC,00,BC,
9857999,0110483C,true,Rx,0,8,08,E2,20,00,44,66,FC,52,
9866029,00800006,true,Rx,0,8,41,EC,0D,EC,41,EC,26,6E,
9866326,0090411E,true,Rx,0,8,02,00,60,00,00,00,00,00,
9866595,0300410E,true,Rx,0,8,B7,DE,18,F1,87,DE,FC,00,
9866896,03800006,true,Rx,0,8,30,00,00,00,00,00,00,00,
9867804,0100082C,true,Rx,0,8,0F,C0,91,15,65,FC,00,BC,
9868086,0110483C,true,Rx,0,8,08,E2,20,00,44,66,FC,52,
9876043,0300410E,true,Rx,0,8,B7,DE,98,F1,87,DE,FC,00,
9877741,0100082C,true,Rx,0,8,0F,C0,91,15,65,FC,00,BC,
9878020,0110483C,true,Rx,0,8,08,E2,20,00,44,66,FC,52,
9886053,00800006,true,Rx,0,8,89,EC,0D,EC,41,EC,A6,6E,
9886339,0090411E,true,Rx,0,8,42,00,E0,00,00,00,00,00,
9886619,0300410E,true,Rx,0,8,37,DE,18,F1,07,DE,6C,00,
9886909,03800006,true,Rx,0,8,30,00,00,00,00,00,00,00,
9887199,19E00006,true,Rx,0,8,00,00,18,C0,67,00,40,00,
9887831,0100082C,true,Rx,0,8,0F,C0,91,15,65,FC,00,BC,
9888115,0110483C,true,Rx,0,8,08,E2,A0,00,44,66,FC,52,
9896059,0300410E,true,Rx,0,8,B7,DE,18,F1,87,DE,FC,00,
9896347,1B600002,true,Rx,0,8,00,80,00,40,00,1B,4C,00,
9897811,0100082C,true,Rx,0,8,0F,C0,91,15,65,FC,00,BC,
9898109,0110483C,true,Rx,0,8,08,E2,20,00,44,66,FC,52,
9906075,00800006,true,Rx,0,8,C1,EC,0D,EC,41,EC,26,6E,
9906363,0090411E,true,Rx,0,8,02,00,60,00,00,00,00,00,
9906642,0300410E,true,Rx,0,8,B7,DE,18,F1,87,DE,FC,00,
9906943,03800006,true,Rx,0,8,30,00,00,00,00,00,00,00,
9907780,0100082C,true,Rx,0,8,0F,C0,91,15,65,FC,00,BC,
9908059,0110483C,true,Rx,0,8,08,E2,20,00,44,66,FC,52,
9916085,0300410E,true,Rx,0,8,37,DE,98,F1,07,DE,6C,00,
9917733,0100082C,true,Rx,0,8,0F,C0,91,15,65,FC,00,BC,
9918012,0110483C,true,Rx,0,8,08,E2,20,00,44,66,FC,52,
9926094,00800006,true,Rx,0,8,09,EC,0D,EC,41,EC,A6,6E,
9926380,0090411E,true,Rx,0,8,42,00,E0,00,00,00,00,00,
9926651,0300410E,true,Rx,0,8,B7,DE,18,F1,87,DE,FC,00,
9926951,03800006,true,Rx,0,8,30,00,00,00,00,00,00,00,
9927828,0100082C,true,Rx,0,8,0F,C0,91,15,65,FC,00,BC,
9928108,0110483C,true,Rx,0,8,08,E2,20,00,44,66,FC,52,
9936103,0300410E,true,Rx,0,8,37,DE,18,F1,07,DE,6C,00,
9936390,19E00006,true,Rx,0,8,00,00,18,E0,67,00,40,00,
9937762,0100082C,true,Rx,0,8,0F,C0,91,15,65,FC,00,BC,
9938042,0110483C,true,Rx,0,8,08,E2,A0,00,44,66,FC,52,
9946105,00800006,true,Rx,0,8,49,EC,0D,EC,41,EC,26,6E,
9946402,0090411E,true,Rx,0,8,82,00,E0,00,00,00,00,00,
9946672,0300410E,true,Rx,0,8,B7,DE,98,F1,87,DE,FC,00,
9946972,03800006,true,Rx,0,8,70,00,00,00,00,00,00,00,
9947839,0100082C,true,Rx,0,8,0F,C0,91,15,65,FC,00,BC,
9948118,0110483C,true,Rx,0,8,08,E2,20,00,44,66,FC,52,
9956114,0300410E,true,Rx,0,8,B7,DE,18,F1,87,DE,FC,00,
9957751,0100082C,true,Rx,0,8,0F,C0,91,15,65,FC,00,BC,
9958030,0110483C,true,Rx,0,8,08,E2,20,00,44,66,FC,52,
9958320,1A200020,true,Rx,0,8,4E,00,02,2D,00,00,02,2F,
9958600,1B700030,true,Rx,0,8,25,8E,22,00,00,00,03,00,
9962715,1BA0493C,true,Rx,0,8,0E,01,01,01,02,02,01,02,
9963001,1BE0493C,true,Rx,0,8,02,4A,8B,00,3F,04,19,24,
9966142,00800006,true,Rx,0,8,89,EC,0D,EC,41,EC,26,6E,
9966422,0090411E,true,Rx,0,8,02,00,E0,00,00,00,00,00,
9966703,0300410E,true,Rx,0,8,37,DE,98,F1,07,DE,6C,00,
9967003,03800006,true,Rx,0,8,30,00,00,00,00,00,00,00,
9967840,0100082C,true,Rx,0,8,0F,C0,91,15,65,FC,00,BC,
9968120,0110483C,true,Rx,0,8,08,E2,20,00,44,66,FC,52,
9976138,0300410E,true,Rx,0,8,B7,DE,18,F1,87,DE,FC,00,
9977733,0100082C,true,Rx,0,8,0F,C0,91,15,65,FC,00,BC,
9978013,0110483C,true,Rx,0,8,08,E2,20,00,44,66,FC,52,
9986156,00800006,true,Rx,0,8,C1,EC,0D,EC,41,EC,A6,6E,
9986443,0090411E,true,Rx,0,8,42,00,60,00,00,00,00,00,
9986713,0300410E,true,Rx,0,8,B7,DE,18,F1,87,DE,FC,00,
9987013,03800006,true,Rx,0,8,30,00,00,00,00,00,00,00,
9987304,19E00006,true,Rx,0,8,00,00,18,C0,67,00,40,00,
9987852,0100082C,true,Rx,0,8,0F,C0,91,15,65,FC,00,BC,
9988132,0110483C,true,Rx,0,8,08,E2,A0,00,44,66,FC,52,
9996160,0300410E,true,Rx,0,8,37,DE,98,F1,07,DE,6C,00,
9997745,0100082C,true,Rx,0,8,0F,C0,91,15,65,FC,00,BC,
9998024,0110483C,true,Rx,0,8,08,E2,20,00,44,66,FC,52,
10006168,00800006,true,Rx,0,8,09,EC,0D,EC,41,EC,26,6E,
10006465,0090411E,true,Rx,0,8,02,00,E0,00,00,00,00,00,
10006735,0300410E,true,Rx,0,8,B7,DE,18,F1,87,DE,FC,00,
10007035,03800006,true,Rx,0,8,30,00,00,00,00,00,00,00,
10007830,0100082C,true,Rx,0,8,0F,C0,91,15,65,FC,00,BC,
10008111,0110483C,true,Rx,0,8,08,E2,20,00,44,66,FC,52,
10016177,0300410E,true,Rx,0,8,37,DE,18,F1,07,DE,6C,00,
10017722,0100082C,true,Rx,0,8,0F,C0,91,15,65,FC,00,BC,
10018001,0110483C,true,Rx,0,8,08,E2,20,00,44,66,FC,52,
10026186,00800006,true,Rx,0,8,49,EC,0D,EC,41,EC,26,6E,
10026474,0090411E,true,Rx,0,8,02,00,E0,00,00,00,00,00,
10026753,0300410E,true,Rx,0,8,B7,DE,98,F1,87,DE,FC,00,
10027053,03800006,true,Rx,0,8,30,00,00,00,00,00,00,00,
10027849,0100082C,true,Rx,0,8,0F,C0,91,15,65,FC,00,BD,
10028129,0110483C,true,Rx,0,8,08,E2,20,00,44,66,FC,52,
10036196,0300410E,true,Rx,0,8,B7,DE,18,F1,87,DE,FC,00,
10036484,19E00006,true,Rx,0,8,00,00,18,E0,67,00,40,00,
10037762,0100082C,true,Rx,0,8,0F,C0,91,15,65,FC,00,BD,
10038043,0110483C,true,Rx,0,8,08,E2,A0,00,44,66,FC,52,
10046218,00800006,true,Rx,0,8,81,EC,0D,EC,41,EC,A6,6E,
10046506,0090411E,true,Rx,0,8,C2,00,60,00,00,00,00,00,
10046785,0300410E,true,Rx,0,8,37,DE,18,F1,07,DE,6C,00,
10047075,03800006,true,Rx,0,8,70,00,00,00,00,00,00,00,
10047881,0100082C,true,Rx,0,8,0F,C0,91,15,65,FC,00,BD,
10048161,0110483C,true,Rx,0,8,08,E2,20,00,44,66,FC,52,
10056219,0300410E,true,Rx,0,8,B7,DE,98,F1,87,DE,FC,00,
10057732,0100082C,true,Rx,0,8,0F,C0,91,15,65,FC,00,BD,
10058013,0110483C,true,Rx,0,8,08,E2,20,00,44,66,FC,52,
10066227,00800006,true,Rx,0,8,C9,EC,0D,EC,41,EC,26,6E,
10066515,0090411E,true,Rx,0,8,02,00,E0,00,00,00,00,00,
10066794,0300410E,true,Rx,0,8,B7,DE,18,F1,87,DE,FC,00,
10067094,03800006,true,Rx,0,8,30,00,00,00,00,00,00,00,
10067376,1B600002,true,Rx,0,8,00,80,00,40,00,1B,4C,00,
10067860,0100082C,true,Rx,0,8,0F,C0,91,15,65,FC,00,BD,
10068141,0110483C,true,Rx,0,8,08,E2,20,00,44,66,FC,52,
10076242,0300410E,true,Rx,0,8,37,DE,18,F1,07,DE,6C,00,
10077735,0100082C,true,Rx,0,8,0F,C0,91,15,65,FC,00,BD,
10078015,0110483C,true,Rx,0,8,08,E2,20,00,44,66,FC,52,
10086250,00800006,true,Rx,0,8,09,EC,0D,EC,41,EC,A6,6E,
10086538,0090411E,true,Rx,0,8,42,00,E0,00,00,00,00,00,
10086807,0300410E,true,Rx,0,8,B7,DE,98,F1,87,DE,FC,00,
10087107,03800006,true,Rx,0,8,30,00,00,00,00,00,00,00,
10087399,19E00006,true,Rx,0,8,00,00,18,C0,67,00,40,00,
10087853,0100082C,true,Rx,0,8,0F,C0,91,15,65,FC,00,BD,
10088134,0110483C,true,Rx,0,8,08,E2,A0,00,44,66,FC,52,
10096264,0300410E,true,Rx,0,8,37,DE,18,F1,07,DE,6C,00,
10097746,0100082C,true,Rx,0,8,0F,C0,91,15,65,FC,00,BD,
10098027,0110483C,true,Rx,0,8,08,E2,20,00,44,66,FC,52,
10106274,00800006,true,Rx,0,8,41,EC,0D,EC,41,EC,26,6E,
10106561,0090411E,true,Rx,0,8,02,00,60,00,00,00,00,00,
10106841,0300410E,true,Rx,0,8,B7,DE,18,F1,87,DE,FC,00,
10107131,03800006,true,Rx,0,8,30,00,00,00,00,00,00,00,
10107833,0100082C,true,Rx,0,8,0F,C0,91,15,65,FC,00,BD,
10108114,0110483C,true,Rx,0,8,08,E2,20,00,44,66,FC,52,
10116273,0300410E,true,Rx,0,8,B7,DE,98,F1,87,DE,FC,00,
10117734,0100082C,true,Rx,0,8,0F,C0,91,15,65,FC,00,BD,
10118015,0110483C,true,Rx,0,8,08,E2,20,00,44,66,FC,52,
10126291,00800006,true,Rx,0,8,89,EC,0D,EC,41,EC,A6,6E,
10126568,0090411E,true,Rx,0,8,42,00,E0,00,00,00,00,00,
10126848,0300410E,true,Rx,0,8,37,DE,18,F1,07,DE,6C,00,
10127149,03800006,true,Rx,0,8,30,00,00,00,00,00,00,00,
10127840,0100082C,true,Rx,0,8,0F,C0,91,15,65,FC,00,BD,
10128121,0110483C,true,Rx,0,8,08,E2,20,00,44,66,FC,52,
10136301,0300410E,true,Rx,0,8,B7,DE,18,F1,87,DE,FC,00,
10136588,19E00006,true,Rx,0,8,00,00,18,E0,67,00,40,00,
10137764,0100082C,true,Rx,0,8,0F,C0,91,15,65,FC,00,BD,
10138044,0110483C,true,Rx,0,8,08,E2,A0,00,44,66,FC,52,
10146314,00800006,true,Rx,0,8,C1,EC,0D,EC,41,EC,26,6E,
10146611,0090411E,true,Rx,0,8,82,00,60,00,00,00,00,00,
10146880,0300410E,true,Rx,0,8,B7,DE,18,F1,87,DE,FC,00,
10147181,03800006,true,Rx,0,8,70,00,00,00,00,00,00,00,
10147853,0100082C,true,Rx,0,8,0F,C0,91,15,65,FC,00,BD,
10148132,0110483C,true,Rx,0,8,08,E2,20,00,44,66,FC,52,
10156324,0300410E,true,Rx,0,8,37,DE,98,F1,07,DE,6C,00,
10157732,0100082C,true,Rx,0,8,0F,C0,91,15,65,FC,00,BD,
10158013,0110483C,true,Rx,0,8,08,E2,20,00,44,66,FC,52,
10166332,00800006,true,Rx,0,8,09,EC,0D,EC,41,EC,26,6E,
10166618,0090411E,true,Rx,0,8,02,00,E0,00,00,00,00,00,
10166897,0300410E,true,Rx,0,8,B7,DE,18,F1,87,DE,FC,00,
10167198,03800006,true,Rx,0,8,30,00,00,00,00,00,00,00,
10167901,0100082C,true,Rx,0,8,0F,C0,91,15,65,FC,00,BD,
10168181,0110483C,true,Rx,0,8,08,E2,20,00,44,66,FC,52,
10168466,1AE0092C,true,Rx,0,8,C0,00,22,E0,41,A0,00,00,
10168757,1B700030,true,Rx,0,8,35,8E,22,00,00,00,03,00,
10176343,0300410E,true,Rx,0,8,37,DE,18,F1,07,DE,6C,00,
10177730,0100082C,true,Rx,0,8,0F,C0,91,15,65,FC,00,BD,
10178011,0110483C,true,Rx,0,8,08,E2,20,00,44,66,FC,52,
10186343,00800006,true,Rx,0,8,49,EC,0D,EC,41,EC,A6,6E,
10186629,0090411E,true,Rx,0,8,42,00,E0,00,00,00,00,00,
10186908,0300410E,true,Rx,0,8,B7,DE,98,F1,87,DE,FC,00,
10187209,03800006,true,Rx,0,8,30,00,00,00,00,00,00,00,
10187490,19E00006,true,Rx,0,8,00,00,18,C0,67,00,40,00,
10187853,0100082C,true,Rx,0,8,0F,C0,91,15,65,FC,00,BD,
10188132,0110483C,true,Rx,0,8,08,E2,A0,00,44,66,FC,52,
10196359,0300410E,true,Rx,0,8,B7,DE,18,F1,87,DE,FC,00,
10197747,0100082C,true,Rx,0,8,0F,C0,91,15,65,FC,00,BD,
10198027,0110483C,true,Rx,0,8,08,E2,20,00,44,66,FC,52,
10206369,00800006,true,Rx,0,8,89,EC,0D,EC,41,EC,26,6E,
10206654,0090411E,true,Rx,0,8,02,00,E0,00,00,00,00,00,
10206934,0300410E,true,Rx,0,8,37,DE,98,F1,07,DE,6C,00,
10207235,03800006,true,Rx,0,8,30,00,00,00,00,00,00,00,
10207825,0100082C,true,Rx,0,8,0F,C0,91,15,65,FC,00,BD,
10208104,0110483C,true,Rx,0,8,08,E2,20,00,44,66,FC,52,
10212761,1BA0493C,true,Rx,0,8,0F,01,01,01,01,01,00,00,
10216386,0300410E,true,Rx,0,8,B7,DE,18,F1,87,DE,FC,00,
10217734,0100082C,true,Rx,0,8,0F,C0,91,15,65,FC,00,BD,
10218013,0110483C,true,Rx,0,8,08,E2,20,00,44,66,FC,52,
10226394,00800006,true,Rx,0,8,C1,EC,0D,EC,41,EC,A6,6E,
10226679,0090411E,true,Rx,0,8,42,00,60,00,00,00,00,00,
10226960,0300410E,true,Rx,0,8,B7,DE,18,F1,87,DE,FC,00,
10227249,03800006,true,Rx,0,8,30,00,00,00,00,00,00,00,
10227870,0100082C,true,Rx,0,8,0F,C0,91,15,65,FC,00,BD,
10228150,0110483C,true,Rx,0,8,08,E2,20,00,44,66,FC,52,
10236404,0300410E,true,Rx,0,8,37,DE,98,F1,07,DE,6C,00,
10236689,19E00006,true,Rx,0,8,00,00,18,E0,67,00,40,00,
10236980,1B600002,true,Rx,0,8,00,80,00,40,00,1B,4C,00,
10237806,0100082C,true,Rx,0,8,0F,C0,91,15,65,FC,00,BD,
10238086,0110483C,true,Rx,0,8,08,E2,A0,00,44,66,FC,52,
10246410,00800006,true,Rx,0,8,09,EC,0D,EC,41,EC,26,6E,
10246695,0090411E,true,Rx,0,8,82,00,E0,00,00,00,00,00,
10246976,0300410E,true,Rx,0,8,B7,DE,18,F1,87,DE,FC,00,
10247275,03800006,true,Rx,0,8,70,00,00,00,00,00,00,00,
10247876,0100082C,true,Rx,0,8,0F,C0,91,15,65,FC,00,BD,
10248155,0110483C,true,Rx,0,8,08,E2,20,00,44,66,FC,52,
10256420,0300410E,true,Rx,0,8,37,DE,18,F1,07,DE,6C,00,
10257727,0100082C,true,Rx,0,8,0F,C0,91,15,65,FC,00,BD,
10258016,0110483C,true,Rx,0,8,08,E2,20,00,44,66,FC,52,
10266430,00800006,true,Rx,0,8,49,EC,0D,EC,41,EC,26,6E,
10266715,0090411E,true,Rx,0,8,02,00,E0,00,00,00,00,00,
10266996,0300410E,true,Rx,0,8,B7,DE,98,F1,87,DE,FC,00,
10267286,03800006,true,Rx,0,8,30,00,00,00,00,00,00,00,
10267855,0100082C,true,Rx,0,8,0F,C0,91,15,65,FC,00,BD,
10268134,0110483C,true,Rx,0,8,08,E2,20,00,44,66,FC,52,
10272802,1A200020,true,Rx,0,8,8E,00,02,2D,00,00,02,2F,
10276447,0300410E,true,Rx,0,8,B7,DE,18,F1,87,DE,FC,00,
10277732,0100082C,true,Rx,0,8,0F,C0,91,15,65,FC,00,BD,
10278012,0110483C,true,Rx,0,8,08,E2,20,00,44,66,FC,52,
10286456,00800006,true,Rx,0,8,81,EC,0D,EC,41,EC,A6,6E,
10286741,0090411E,true,Rx,0,8,42,00,60,00,00,00,00,00,
10287022,0300410E,true,Rx,0,8,37,DE,18,F1,07,DE,6C,00,
10287311,03800006,true,Rx,0,8,30,00,00,00,00,00,00,00,
10287603,19E00006,true,Rx,0,8,00,00,18,C0,67,00,40,00,
10287882,0100082C,true,Rx,0,8,0F,C0,91,15,65,FC,00,BD,
10288162,0110483C,true,Rx,0,8,08,E2,A0,00,44,66,FC,52,
10296458,0300410E,true,Rx,0,8,B7,DE,98,F1,87,DE,FC,00,
10297755,0100082C,true,Rx,0,8,0F,C0,91,15,65,FC,00,BD,
10298034,0110483C,true,Rx,0,8,08,E2,20,00,44,66,FC,52,
10306468,00800006,true,Rx,0,8,C9,EC,0D,EC,41,EC,26,6E,
10306753,0090411E,true,Rx,0,8,02,00,E0,00,00,00,00,00,
10307034,0300410E,true,Rx,0,8,B7,DE,18,F1,87,DE,FC,00,
10307335,03800006,true,Rx,0,8,30,00,00,00,00,00,00,00,
10307852,0100082C,true,Rx,0,8,0F,C0,91,15,65,FC,00,BD,
10308131,0110483C,true,Rx,0,8,08,E2,20,00,44,66,FC,52,
10316477,0300410E,true,Rx,0,8,37,DE,18,F1,07,DE,6C,00,
10317732,0100082C,true,Rx,0,8,0F,C0,91,15,65,FC,00,BD,
10318011,0110483C,true,Rx,0,8,08,E2,20,00,44,66,FC,52,
10326487,00800006,true,Rx,0,8,09,EC,0D,EC,41,EC,26,6E,
10326784,0090411E,true,Rx,0,8,02,00,E0,00,00,00,00,00,
10327053,0300410E,true,Rx,0,8,B7,DE,98,F1,87,DE,FC,00,
10327354,03800006,true,Rx,0,8,30,00,00,00,00,00,00,00,
10327809,0100082C,true,Rx,0,8,0F,C0,91,15,65,FC,00,BD,
10328098,0110483C,true,Rx,0,8,08,E2,20,00,44,66,FC,52,
10336497,0300410E,true,Rx,0,8,37,DE,18,F1,07,DE,6C,00,
10336784,19E00006,true,Rx,0,8,00,00,18,E0,67,00,40,00,
10337795,0100082C,true,Rx,0,8,0F,C0,91,15,65,FC,00,BD,
10338074,0110483C,true,Rx,0,8,08,E2,A0,00,44,66,FC,52,
10346513,00800006,true,Rx,0,8,41,EC,0D,EC,41,EC,A6,6E,
10346800,0090411E,true,Rx,0,8,C2,00,60,00,00,00,00,00,
10347079,0300410E,true,Rx,0,8,B7,DE,18,F1,87,DE,FC,00,
10347370,03800006,true,Rx,0,8,70,00,00,00,00,00,00,00,
10347846,0100082C,true,Rx,0,8,0F,C0,91,15,65,FC,00,BD,
10348125,0110483C,true,Rx,0,8,08,E2,20,00,44,66,FC,52,
10356513,0300410E,true,Rx,0,8,B7,DE,98,F1,87,DE,FC,00,
10357737,0100082C,true,Rx,0,8,0F,C0,91,15,65,FC,00,BD,
10358027,0110483C,true,Rx,0,8,08,E2,20,00,44,66,FC,52,
10366531,00800006,true,Rx,0,8,89,EC,0D,EC,41,EC,26,6E,
10366818,0090411E,true,Rx,0,8,02,00,E0,00,00,00,00,00,
10367097,0300410E,true,Rx,0,8,37,DE,18,F1,07,DE,6C,00,
10367388,03800006,true,Rx,0,8,30,00,00,00,00,00,00,00,
10367812,0100082C,true,Rx,0,8,0F,C0,91,15,65,FC,00,BD,
10368091,0110483C,true,Rx,0,8,08,E2,20,00,44,66,FC,52,
10376533,0300410E,true,Rx,0,8,B7,DE,18,F1,87,DE,FC,00,
10377757,0100082C,true,Rx,0,8,0F,C0,91,15,65,FC,00,BD,
10378037,0110483C,true,Rx,0,8,08,E2,20,00,44,66,FC,52,
10378318,1B700030,true,Rx,0,8,25,8E,22,00,00,00,03,00,
10386555,00800006,true,Rx,0,8,C1,EC,0D,EC,41,EC,A6,6E,
10386842,0090411E,true,Rx,0,8,42,00,60,00,00,00,00,00,
10387111,0300410E,true,Rx,0,8,B7,DE,18,F1,87,DE,FC,00,
10387412,03800006,true,Rx,0,8,30,00,00,00,00,00,00,00,
10387703,19E00006,true,Rx,0,8,00,00,18,C0,67,00,40,00,
10387982,0100082C,true,Rx,0,8,0F,C0,91,15,65,FC,00,BD,
10388263,0110483C,true,Rx,0,8,08,E2,A0,00,44,66,FC,52,
10396559,0300410E,true,Rx,0,8,37,DE,98,F1,07,DE,6C,00,
10397763,0100082C,true,Rx,0,8,0F,C0,91,15,65,FC,00,BD,
10398042,0110483C,true,Rx,0,8,08,E2,20,00,44,66,FC,52,
10406567,00800006,true,Rx,0,8,09,EC,0D,EC,41,EC,26,6E,
10406853,0090411E,true,Rx,0,8,02,00,E0,00,00,00,00,00,
10407133,0300410E,true,Rx,0,8,B7,DE,18,F1,87,DE,FC,00,
10407436,03800006,true,Rx,0,8,30,00,00,00,00,00,00,00,
10407715,1B600002,true,Rx,0,8,00,80,00,5C,00,1B,4C,00,
10408005,0100082C,true,Rx,0,8,0F,C0,91,15,65,FC,00,BD,
10408285,0110483C,true,Rx,0,8,08,E2,20,00,44,66,FC,52,
10416581,0300410E,true,Rx,0,8,37,DE,18,F1,07,DE,6C,00,
10417734,0100082C,true,Rx,0,8,0F,C0,91,15,65,FC,00,BD,
10418013,0110483C,true,Rx,0,8,08,E2,20,00,44,66,FC,52,
10426590,00800006,true,Rx,0,8,49,EC,0D,EC,41,EC,A6,6E,
10426877,0090411E,true,Rx,0,8,42,00,E0,00,00,00,00,00,
10427146,0300410E,true,Rx,0,8,B7,DE,98,F1,87,DE,FC,00,
10427448,03800006,true,Rx,0,8,30,00,00,00,00,00,00,00,
10427830,0100082C,true,Rx,0,8,0F,C0,91,15,65,FC,00,BD,
10428109,0110483C,true,Rx,0,8,08,E2,20,00,44,66,FC,52,
10436601,0300410E,true,Rx,0,8,B7,DE,18,F1,87,DE,FC,00,
10436887,19E00006,true,Rx,0,8,00,00,18,E0,67,00,40,00,
10437764,0100082C,true,Rx,0,8,0F,C0,91,15,65,FC,00,BD,
10438033,0110483C,true,Rx,0,8,08,E4,A0,00,44,66,FC,52,
10446606,00800006,true,Rx,0,8,89,EC,0D,EC,41,EC,26,6E,
10446892,0090411E,true,Rx,0,8,82,00,E0,00,00,00,00,00,
10447171,0300410E,true,Rx,0,8,37,DE,98,F1,07,DE,6C,00,
10447473,03800006,true,Rx,0,8,70,00,00,00,00,00,00,00,
10447845,0100082C,true,Rx,0,8,0F,C0,91,15,65,FC,00,BD,
10448115,0110483C,true,Rx,0,8,08,E4,20,00,44,66,FC,52,
10456618,0300410E,true,Rx,0,8,B7,DE,18,F1,87,DE,FC,00,
10457738,0100082C,true,Rx,0,8,0F,C0,91,15,65,FC,00,BD,
10458017,0110483C,true,Rx,0,8,08,E4,20,00,44,66,FC,52,
10462749,1BA0493C,true,Rx,0,8,10,01,00,00,00,00,00,00,
10466643,00800006,true,Rx,0,8,C1,EC,0D,EC,41,EC,26,6E,
10466928,0090411E,true,Rx,0,8,02,00,60,00,00,00,00,00,
10467208,0300410E,true,Rx,0,8,B7,DE,18,F1,87,DE,FC,00,
10467500,03800006,true,Rx,0,8,30,00,00,00,00,00,00,00,
10467861,0100082C,true,Rx,0,8,0F,C0,91,15,65,FC,00,BD,
10468142,0110483C,true,Rx,0,8,08,E4,20,00,44,66,FC,52,
10476643,0300410E,true,Rx,0,8,37,DE,98,F1,07,DE,6C,00,
10477753,0100082C,true,Rx,0,8,0F,C0,91,15,65,FC,00,BD,
10478032,0110483C,true,Rx,0,8,08,E4,20,00,44,66,FC,52,
10486651,00800006,true,Rx,0,8,09,EC,0D,EC,41,EC,A6,6E,
10486936,0090411E,true,Rx,0,8,42,00,E0,00,00,00,00,00,
10487216,0300410E,true,Rx,0,8,B7,DE,18,F1,87,DE,FC,00,
10487508,03800006,true,Rx,0,8,30,00,00,00,00,00,00,00,
10487797,19E00006,true,Rx,0,8,00,00,18,C0,67,00,40,00,
10488078,0100082C,true,Rx,0,8,0F,C0,91,15,65,FC,00,BD,
10488358,0110483C,true,Rx,0,8,08,E4,A0,00,44,66,FC,52,
10496654,0300410E,true,Rx,0,8,37,DE,18,F1,07,DE,6C,00,
10497754,0100082C,true,Rx,0,8,0F,C0,91,15,65,FC,00,BD,
10498034,0110483C,true,Rx,0,8,08,E4,20,00,44,66,FC,52,
10506663,00800006,true,Rx,0,8,49,EC,0D,EC,41,EC,26,6E,
10506949,0090411E,true,Rx,0,8,02,00,E0,00,00,00,00,00,
10507228,0300410E,true,Rx,0,8,B7,DE,98,F1,87,DE,FC,00,
10507531,03800006,true,Rx,0,8,30,00,00,00,00,00,00,00,
10507810,0100082C,true,Rx,0,8,0F,C0,91,15,65,FC,00,BD,
10508090,0110483C,true,Rx,0,8,08,E6,2A,00,44,66,FC,52,
10516673,0300410E,true,Rx,0,8,B7,DE,18,F1,87,DE,FC,00,
10517742,0100082C,true,Rx,0,8,0F,C0,91,15,65,FC,00,BD,
10518023,0110483C,true,Rx,0,8,08,E6,2A,00,44,66,FC,52,
10526692,00800006,true,Rx,0,8,81,EC,0D,EC,41,EC,A6,6E,
10526978,0090411E,true,Rx,0,8,42,00,60,00,00,00,00,00,
10527258,0300410E,true,Rx,0,8,37,DE,18,F1,07,DE,6C,00,
10527559,03800006,true,Rx,0,8,30,00,00,00,00,00,00,00,
10527839,0100082C,true,Rx,0,8,0F,C8,91,15,65,FC,00,BD,
10528119,0110483C,true,Rx,0,8,08,E6,2A,00,44,66,FC,52,
10536691,0300410E,true,Rx,0,8,B7,DE,98,F1,87,DE,FC,00,
10536977,19E00006,true,Rx,0,8,00,00,18,E0,67,00,40,00,
10537782,0100082C,true,Rx,0,8,0F,C8,91,15,65,FC,00,BD,
10538063,0110483C,true,Rx,0,8,08,E6,AA,00,44,66,FC,52,
10546746,00800006,true,Rx,0,8,C9,EC,0D,EC,41,EC,26,6E,
10547032,0090411E,true,Rx,0,8,82,00,E0,00,00,00,00,00,
10547312,0300410E,true,Rx,0,8,37,DE,18,F1,07,DE,6C,00,
10547603,03800006,true,Rx,0,8,70,00,00,00,00,00,00,00,
10547893,0100082C,true,Rx,0,8,0F,C8,91,15,65,FC,00,BD,
10548173,0110483C,true,Rx,0,8,08,E6,2A,00,44,66,FC,52,
10556718,0300410E,true,Rx,0,8,B7,DE,18,F1,87,DE,FC,00,
10557766,0100082C,true,Rx,0,8,0F,C8,91,15,65,FC,00,BD,
10558046,0110483C,true,Rx,0,8,08,E6,2A,00,44,66,FC,52,
10563368,01C04026,true,Rx,0,8,80,00,80,00,80,00,80,00,
10563654,02000026,true,Rx,0,8,7F,34,00,CC,4E,00,E0,AC,
10563933,02104136,true,Rx,0,8,BB,00,3F,FF,07,E0,00,00,
10564214,02804026,true,Rx,0,8,B7,FF,77,FF,F2,00,1E,0A,
10564515,02C00020,true,Rx,0,8,00,00,00,00,00,00,00,00,
10564805,19A00002,true,Rx,0,8,12,00,00,00,00,00,00,07,
10566759,00800006,true,Rx,0,8,09,EC,0D,EC,41,EC,26,6E,
10567038,0090411E,true,Rx,0,8,02,00,E0,00,00,00,00,00,
10567320,0300410E,true,Rx,0,8,B7,DE,98,F1,87,DE,FC,00,
10567620,03800006,true,Rx,0,8,30,00,00,00,00,00,00,00,
10567993,0100082C,true,Rx,0,8,0F,C8,91,15,65,FC,00,BD,
10568283,0110483C,true,Rx,0,8,08,E9,2A,00,44,66,FC,52,
10576735,0300410E,true,Rx,0,8,37,DE,18,F1,07,DE,6C,00,
10577021,1B600002,true,Rx,0,8,00,80,00,4C,00,1B,4C,00,
10577375,01C04026,true,Rx,0,8,80,00,80,00,80,00,80,00,
10577654,02000026,true,Rx,0,8,7F,34,00,CC,4E,00,E0,AC,
10577935,0100082C,true,Rx,0,8,0F,C8,91,15,65,FC,00,BD,
10578214,0110483C,true,Rx,0,8,08,E9,2A,00,44,66,FC,52,
10578505,02104136,true,Rx,0,8,BB,00,3F,FF,07,E0,00,00,
10578802,02804026,true,Rx,0,8,B7,FF,77,FF,F2,00,1E,0A,
10579071,02C00020,true,Rx,0,8,00,00,00,00,00,00,00,00,
10586751,00800006,true,Rx,0,8,41,EC,0D,EC,41,EC,A6,6E,
10587037,0090411E,true,Rx,0,8,42,00,60,00,00,00,00,00,
10587307,0300410E,true,Rx,0,8,B7,DE,18,F1,87,DE,FC,00,
10587609,03800006,true,Rx,0,8,30,00,00,00,00,00,00,00,
10587890,0100082C,true,Rx,0,8,0F,C8,91,15,65,FC,00,BD,
10588169,0110483C,true,Rx,0,8,08,E9,EA,00,44,66,FC,52,
10588460,19E00006,true,Rx,0,8,00,00,18,C0,67,00,40,00,
10588740,1A200020,true,Rx,0,8,CE,00,02,2D,00,00,02,2F,
10589028,1AE0092C,true,Rx,0,8,00,00,22,E0,41,A0,00,00,
10589308,1B700030,true,Rx,0,8,25,8E,22,00,00,C0,03,00,
10591432,01C04026,true,Rx,0,8,80,00,80,00,80,00,80,00,
10591711,02000026,true,Rx,0,8,7F,34,00,CC,4E,00,E0,AC,
10592002,02104136,true,Rx,0,8,BB,00,3F,FF,07,E0,00,00,
10592281,02804026,true,Rx,0,8,B7,FF,77,FF,F2,00,1E,0A,
10592574,02C00020,true,Rx,0,8,00,00,00,00,00,00,00,00,
10592858,19A00002,true,Rx,0,8,6E,00,00,00,00,00,00,F7,
10596781,0300410E,true,Rx,0,8,F7,DE,98,F1,87,DE,FC,00,
10597923,0100082C,true,Rx,0,8,0F,C8,91,15,65,FC,00,BD,
10598203,0110483C,true,Rx,0,8,08,E9,6A,00,44,66,FC,52,
10605380,01C04026,true,Rx,0,8,80,00,80,00,80,00,80,00,
10605656,02000026,true,Rx,0,8,7F,34,00,CC,4E,00,E0,AC,
10605936,02104136,true,Rx,0,8,BB,00,3F,FF,07,E0,00,00,
10606225,02804026,true,Rx,0,8,B7,FF,77,FF,F2,00,1E,0C,
10606517,02C00020,true,Rx,0,8,00,01,00,00,00,02,75,81,
10606786,00800006,true,Rx,0,8,89,EC,0D,EC,41,EC,26,6E,
10607077,0090411E,true,Rx,0,8,02,00,E0,00,00,00,00,00,
10607357,0300410E,true,Rx,0,8,37,DE,18,F1,07,DE,6C,00,
10607656,03800006,true,Rx,0,8,30,00,00,00,00,00,00,00,
10607936,0100082C,true,Rx,0,8,0F,C8,91,15,65,FC,00,BD,
10608215,0110483C,true,Rx,0,8,08,E9,6A,00,44,66,FC,52,
10616772,0300410E,true,Rx,0,8,B7,DE,18,F1,87,DE,FC,00,
10617769,0100082C,true,Rx,0,8,0F,C8,91,15,65,FC,00,BD,
10618039,0110483C,true,Rx,0,8,08,E9,6A,00,44,66,FC,52,
10619431,01C04026,true,Rx,0,8,80,00,80,00,80,00,80,00,
10619710,02000026,true,Rx,0,8,7F,34,00,CC,4E,00,E0,AC,
10620000,02104136,true,Rx,0,8,BB,00,3F,FF,07,E0,00,00,
10620281,02804026,true,Rx,0,8,B7,FF,77,FF,F2,00,1E,0C,
10620571,02C00020,true,Rx,0,8,00,00,00,00,00,02,75,81,
10620855,19A00002,true,Rx,0,8,12,00,00,00,00,00,00,F7,
10626789,00800006,true,Rx,0,8,C1,EC,0D,EC,41,EC,26,6E,
10627086,0090411E,true,Rx,0,8,02,00,60,00,00,00,00,00,
10627357,0300410E,true,Rx,0,8,B7,DE,18,F1,87,DE,FC,00,
10627656,03800006,true,Rx,0,8,30,00,00,00,00,00,00,00,
10627937,0100082C,true,Rx,0,8,0F,C8,91,15,65,FC,00,BD,
10628216,0110483C,true,Rx,0,8,08,E9,6A,00,44,66,FC,52,
10633607,01C04026,true,Rx,0,8,80,00,80,00,80,00,80,00,
10633893,02000026,true,Rx,0,8,7F,34,00,CC,4E,00,E0,AC,
10634174,02104136,true,Rx,0,8,BB,00,3F,FF,07,E0,00,00,
10634455,02804026,true,Rx,0,8,37,FF,77,FF,F2,00,0E,0C,
10634746,02C00020,true,Rx,0,8,00,00,00,00,00,02,75,81,
10636820,0300410E,true,Rx,0,8,37,DE,98,F1,07,DE,6C,00,
10637111,19E00006,true,Rx,0,8,00,00,18,E0,67,00,40,00,
10637905,0100082C,true,Rx,0,8,0F,C8,91,15,65,FC,00,BD,
10638184,0110483C,true,Rx,0,8,08,E9,EA,00,44,66,FC,52,
10646808,00800006,true,Rx,0,8,09,EC,0D,EC,41,EC,A6,6E,
10647095,0090411E,true,Rx,0,8,C2,00,E0,00,00,00,00,00,
10647365,0300410E,true,Rx,0,8,B7,DE,18,F1,87,DE,FC,00,
10647655,01C04026,true,Rx,0,8,80,00,80,00,80,00,80,00,
10647946,0100082C,true,Rx,0,8,0F,C8,91,15,65,FC,00,BD,
10648215,0110483C,true,Rx,0,8,08,E9,6A,00,44,66,FC,52,
10648496,02000026,true,Rx,0,8,7F,34,00,DC,4E,00,E0,AC,
10648787,02104136,true,Rx,0,8,BB,00,3F,FF,07,E0,00,00,
10649065,02804026,true,Rx,0,8,37,FF,77,FF,F2,00,0E,0C,
10649357,02C00020,true,Rx,0,8,00,00,00,00,00,02,75,81,
10649636,03800006,true,Rx,0,8,74,00,9B,CF,58,77,06,A6,
10649926,19A00002,true,Rx,0,8,02,00,00,00,00,00,00,F7,
10650393,1B200002,true,Rx,0,8,00,00,00,00,00,00,04,51,
10656820,0300410E,true,Rx,0,8,37,DE,18,F1,07,DE,6C,00,
10657755,0100082C,true,Rx,0,8,0F,C8,91,15,65,FC,00,BD,
10658036,0110483C,true,Rx,0,8,08,E9,6A,00,44,66,FC,52,
10661606,01C04026,true,Rx,0,8,80,00,80,00,80,00,80,00,
10661882,02000026,true,Rx,0,8,7F,34,00,DC,4E,00,E0,AC,
10662171,02104136,true,Rx,0,8,BB,00,3F,FF,07,E0,00,00,
10662453,02804026,true,Rx,0,8,37,FF,77,FF,F2,00,0E,0C,
10662743,02C00020,true,Rx,0,8,00,00,00,00,00,02,75,81,
10666854,00800006,true,Rx,0,8,49,EC,0D,EC,41,EC,26,6E,
10667141,0090411E,true,Rx,0,8,02,00,E0,00,00,00,00,00,
10667411,0300410E,true,Rx,0,8,B7,DE,98,F1,87,DE,FC,00,
10667691,03800006,true,Rx,0,8,30,00,9B,CF,58,77,06,A6,
10667981,0100082C,true,Rx,0,8,0F,C0,8E,3F,E5,FC,00,BD,
10668261,0110483C,true,Rx,0,8,08,E9,6A,00,44,66,FC,52,
10675582,01C04026,true,Rx,0,8,80,00,80,00,80,00,80,00,
10675857,02000026,true,Rx,0,8,7F,34,00,DC,4E,00,E0,AC,
10676147,02104136,true,Rx,0,8,BB,00,3F,FF,07,E0,00,00,
10676429,02804026,true,Rx,0,8,37,FF,77,FF,F2,00,0E,0C,
10676718,02C00020,true,Rx,0,8,00,00,00,00,00,02,75,81,
10676999,0300410E,true,Rx,0,8,B7,DE,18,F1,87,DE,FC,00,
10677288,19A00002,true,Rx,0,8,12,00,00,00,00,00,00,F7,
10677926,0100082C,true,Rx,0,8,0F,C0,8E,3F,65,FC,00,BD,
10678205,0110483C,true,Rx,0,8,08,E9,6A,00,44,66,FC,52,
10686849,00800006,true,Rx,0,8,89,EC,0D,EC,41,EC,BE,6E,
10687136,0090411E,true,Rx,0,8,42,00,E0,00,00,00,00,00,
10687417,0300410E,true,Rx,0,8,37,DE,98,F1,07,DE,6C,00,
10687696,03800006,true,Rx,0,8,30,00,9B,CF,58,77,06,A6,
10687976,0100082C,true,Rx,0,8,0F,C0,8E,3F,65,FC,00,BD,
10688256,0110483C,true,Rx,0,8,08,E9,EA,00,44,66,FC,52,
10688538,19E00006,true,Rx,0,8,00,00,18,C0,67,00,40,00,
10689628,01C04026,true,Rx,0,8,80,00,80,00,80,00,80,00,
10689908,02000026,true,Rx,0,8,7F,34,00,DC,4E,00,E0,AC,
10690188,02104136,true,Rx,0,8,BB,00,3F,FF,07,E0,00,00,
10690479,02804026,true,Rx,0,8,37,FF,77,FF,F2,00,0E,0C,
10690768,02C00020,true,Rx,0,8,00,00,00,00,00,02,75,81,
10696856,0300410E,true,Rx,0,8,B7,DE,18,F1,87,DE,FC,00,
10697793,0100082C,true,Rx,0,8,0F,C0,8E,3F,65,FC,00,BD,
10698072,0110483C,true,Rx,0,8,08,E9,6A,00,44,66,FC,52,
10703601,01C04026,true,Rx,0,8,80,00,80,00,80,00,80,00,
10703878,02000026,true,Rx,0,8,7F,34,00,DC,4E,00,E0,AC,
10704167,02104136,true,Rx,0,8,BB,00,3F,FF,07,E0,00,00,
10704448,02804026,true,Rx,0,8,37,FF,77,FF,F2,00,0E,0C,
10704739,02C00020,true,Rx,0,8,00,00,00,00,00,02,75,81,
10705028,19A00002,true,Rx,0,8,6E,00,00,00,00,00,00,F7,
10706899,00800006,true,Rx,0,8,C1,EC,0E,6C,41,EC,2E,6E,
10707190,0090411E,true,Rx,0,8,02,00,60,00,00,00,00,00,
10707460,0300410E,true,Rx,0,8,B8,B3,18,F1,87,DE,FC,00,
10707741,03800006,true,Rx,0,8,30,00,9B,CF,58,77,06,A6,
10708082,0100082C,true,Rx,0,8,0F,C0,8E,3F,65,FC,00,BD,
10708352,0110483C,true,Rx,0,8,08,E9,6A,00,44,66,FC,52,
10712832,1BA0493C,true,Rx,0,8,11,00,00,00,00,00,00,00,
10713109,1BE0493C,true,Rx,0,8,01,00,2A,6D,D6,9C,FD,FB,
10716887,0300410E,true,Rx,0,8,38,B3,A8,F1,07,DE,6C,00,
10717597,01C04026,true,Rx,0,8,80,00,80,00,80,00,80,00,
10717877,0100082C,true,Rx,0,8,0F,C0,8E,3F,65,FC,00,BD,
10718157,0110483C,true,Rx,0,8,08,E9,6A,00,44,66,FC,52,
10718438,02000026,true,Rx,0,8,7F,34,00,DC,4E,00,E0,AC,
10718718,02104136,true,Rx,0,8,BB,00,3F,FF,07,E0,00,00,
10719001,02804026,true,Rx,0,8,37,FF,77,FF,F2,00,0E,0C,
10719292,02C00020,true,Rx,0,8,00,00,00,00,00,02,75,81,
10726932,00800006,true,Rx,0,8,09,EC,0E,6C,41,EC,AE,6E,
10727218,0090411E,true,Rx,0,8,42,00,E0,00,00,00,00,00,
10727498,0300410E,true,Rx,0,8,B8,B3,28,1C,87,DE,FC,00,
10727779,03800006,true,Rx,0,8,30,00,9B,CF,58,77,06,A6,
10728058,0100082C,true,Rx,0,8,0F,C0,8E,3F,65,FC,00,BD,
10728339,0110483C,true,Rx,0,8,08,E9,6A,00,44,66,FC,52,
10731626,01C04026,true,Rx,0,8,80,00,80,00,80,00,80,00,
10731901,02000026,true,Rx,0,8,7F,34,00,DC,4E,00,E0,AC,
10732191,02104136,true,Rx,0,8,BB,00,3F,FF,07,E0,00,00,
10732472,02804026,true,Rx,0,8,37,FF,77,FF,F2,00,0E,0C,
10732762,02C00020,true,Rx,0,8,00,00,00,00,00,02,75,81,
10733053,19A00002,true,Rx,0,8,12,00,00,00,00,00,00,F7,
10735779,1B200002,true,Rx,0,8,00,00,00,00,00,00,0F,71,
10736922,0300410E,true,Rx,0,8,38,B3,28,1C,07,DE,6C,00,
10737211,19E00006,true,Rx,0,8,00,00,18,E0,67,00,40,00,
10737964,0100082C,true,Rx,0,8,0F,C0,8E,3F,65,FC,00,BD,
10738243,0110483C,true,Rx,0,8,08,E9,EA,00,44,66,FC,52,
10745602,01C04026,true,Rx,0,8,80,00,80,00,80,00,80,00,
10745877,02000026,true,Rx,0,8,7F,34,00,DC,4E,00,E0,AC,
10746168,02104136,true,Rx,0,8,BB,00,3F,FF,07,E0,00,00,
10746449,02804026,true,Rx,0,8,37,FF,77,F6,F2,00,0E,0C,
10746739,02C00020,true,Rx,0,8,00,00,00,00,00,02,75,81,
10747009,00800006,true,Rx,0,8,49,EC,0E,6C,41,EC,2E,6E,
10747299,0090411E,true,Rx,0,8,82,00,E0,00,00,00,00,00,
10747579,0300410E,true,Rx,0,8,B8,B3,A8,1C,87,DE,FC,00,
10747858,03800006,true,Rx,0,8,78,00,9B,CF,58,77,06,A6,
10748138,0100082C,true,Rx,0,8,0F,C0,8E,3F,65,FC,00,BD,
10748419,0110483C,true,Rx,0,8,08,E9,6A,00,44,66,FC,52,
10748709,1B600002,true,Rx,0,8,00,80,00,0C,00,1B,4C,00,
10756915,0300410E,true,Rx,0,8,B8,B3,28,1C,87,DE,FC,00,
10757768,0100082C,true,Rx,0,8,0F,C0,8E,3F,65,FC,00,BD,
10758047,0110483C,true,Rx,0,8,08,E9,6A,00,44,66,FC,52,
10759634,01C04026,true,Rx,0,8,80,00,80,00,80,00,80,00,
10759915,02000026,true,Rx,0,8,7F,34,00,DC,4D,00,E0,AC,
10760195,02104136,true,Rx,0,8,BB,00,3F,FF,07,E0,00,00,
10760475,02804026,true,Rx,0,8,37,FF,77,CD,F6,86,0E,07,
10760766,02C00020,true,Rx,0,8,00,00,00,00,00,02,75,81,
10761060,19A00002,true,Rx,0,8,02,00,00,00,00,00,00,F7,
10766923,00800006,true,Rx,0,8,81,EC,0E,6C,41,EC,2E,6E,
10767219,0090411E,true,Rx,0,8,02,00,60,00,00,00,00,00,
10767500,0300410E,true,Rx,0,8,38,B3,28,1C,07,DE,6C,00,
10767770,03800006,true,Rx,0,8,38,00,9B,CF,58,77,06,A6,
10768059,0100082C,true,Rx,0,8,0F,C0,8E,3F,65,FC,00,BD,
10768340,0110483C,true,Rx,0,8,08,E9,6A,00,44,66,FC,52,
10773626,01C04026,true,Rx,0,8,80,00,80,00,80,00,80,00,
10773903,02000026,true,Rx,0,8,7F,34,00,DC,4D,00,E0,AC,
10774182,02104136,true,Rx,0,8,BB,00,3F,FF,07,E0,00,00,
10774463,02804026,true,Rx,0,8,37,FF,77,90,F6,ED,0E,01,
10774753,02C00020,true,Rx,0,8,00,00,00,00,00,02,75,81,
10776962,0300410E,true,Rx,0,8,B8,B3,A8,1C,87,DE,FC,00,
10777920,0100082C,true,Rx,0,8,0F,C0,8E,3F,65,FC,00,BD,
10778199,0110483C,true,Rx,0,8,08,E9,6A,00,44,66,FC,52,
10786948,00800006,true,Rx,0,8,C9,EC,0E,67,41,EC,AE,6E,
10787234,0090411E,true,Rx,0,8,42,00,E0,00,00,00,00,00,
10787504,0300410E,true,Rx,0,8,B8,AC,28,1C,87,DE,FC,00,
10787795,01C04026,true,Rx,0,8,80,00,80,00,80,00,80,00,
10788085,0100082C,true,Rx,0,8,0F,C0,8E,3F,65,FC,00,BD,
10788356,0110483C,true,Rx,0,8,08,E9,EA,00,44,66,FC,52,
10788635,02000026,true,Rx,0,8,7F,34,00,DC,4D,00,E0,AC,
10788925,02104136,true,Rx,0,8,BB,00,3F,FF,07,E0,00,00,
10789204,02804026,true,Rx,0,8,37,FF,77,47,F7,3C,0D,FF,
10789495,02C00020,true,Rx,0,8,00,00,00,00,00,02,75,81,
10789774,03800006,true,Rx,0,8,38,00,9B,CF,58,77,06,A6,
10790055,19A00002,true,Rx,0,8,12,00,00,00,00,00,00,F7,
10790346,19E00006,true,Rx,0,8,00,00,18,C0,67,00,40,00,
10796959,0300410E,true,Rx,0,8,38,AC,28,1C,07,DE,6C,00,
10797812,0100082C,true,Rx,0,8,0F,C0,8E,3F,65,FC,00,BD,
10798092,0110483C,true,Rx,0,8,08,E9,6A,00,44,66,FC,52,
10798373,1B700030,true,Rx,0,8,35,8E,22,00,00,C0,03,00,
10801655,01C04026,true,Rx,0,8,80,00,80,00,80,00,80,00,
10801930,02000026,true,Rx,0,8,7F,34,00,DC,4D,00,E0,AC,
10802221,02104136,true,Rx,0,8,BB,00,3F,FF,07,E0,00,00,
10802501,02804026,true,Rx,0,8,37,FF,77,09,F7,30,0D,FF,
10802791,02C00020,true,Rx,0,8,00,00,00,00,00,02,75,81,
10806987,00800006,true,Rx,0,8,09,EC,0E,67,41,EC,2E,6E,
10807283,0090411E,true,Rx,0,8,02,00,E0,00,00,00,00,00,
10807555,0300410E,true,Rx,0,8,B8,AC,A8,1C,87,DE,FC,00,
10807834,03800006,true,Rx,0,8,38,00,9B,CF,58,77,06,A6,
10808124,0100082C,true,Rx,0,8,0F,C0,8E,3F,65,FC,00,BD,
10808405,0110483C,true,Rx,0,8,08,E9,6A,00,44,66,FC,52,
10815640,01C04026,true,Rx,0,8,80,00,80,00,80,00,80,00,
10815915,02000026,true,Rx,0,8,7F,34,00,DC,4D,00,E0,AC,
10816206,02104136,true,Rx,0,8,BB,00,3F,FF,07,E0,00,00,
10816476,02804026,true,Rx,0,8,37,FF,77,04,F6,EA,0D,F7,
10816767,02C00020,true,Rx,0,8,00,00,00,00,00,02,75,81,
10817046,0300410E,true,Rx,0,8,38,AC,28,1C,07,DE,6C,00,
10817337,19A00002,true,Rx,0,8,6E,00,00,00,00,00,00,F7,
10817933,0100082C,true,Rx,0,8,0F,C0,8E,3F,65,FC,00,BD,
10818212,0110483C,true,Rx,0,8,08,E9,6A,00,44,66,FC,52,
10820800,1B200002,true,Rx,0,8,00,00,00,00,00,00,0F,71,
10826989,00800006,true,Rx,0,8,41,EC,0E,67,41,EC,AE,6E,
10827274,0090411E,true,Rx,0,8,42,00,60,00,00,00,00,00,
10827556,0300410E,true,Rx,0,8,B8,AC,28,1D,87,DE,FC,00,
10827835,03800006,true,Rx,0,8,38,00,9B,CF,58,77,06,A6,
10828115,0100082C,true,Rx,0,8,0F,C0,8E,3F,65,FC,00,BD,
10828396,0110483C,true,Rx,0,8,08,E9,6A,00,44,66,FC,52,
10829659,01C04026,true,Rx,0,8,80,00,80,00,80,00,80,00,
10829939,02000026,true,Rx,0,8,7F,34,00,DC,4D,00,E0,AC,
10830218,02104136,true,Rx,0,8,BB,00,3F,FF,07,E0,00,00,
10830499,02804026,true,Rx,0,8,37,FF,77,24,F6,B3,0D,EC,
10830790,02C00020,true,Rx,0,8,00,00,00,00,00,02,75,81,
10836990,0300410E,true,Rx,0,8,B8,AC,A8,1D,87,DE,FC,00,
10837276,19E00006,true,Rx,0,8,00,00,18,E0,67,00,40,00,
10837804,0100082C,true,Rx,0,8,0F,C0,8E,3F,65,FC,00,BD,
10838084,0110483C,true,Rx,0,8,08,E9,EA,00,44,66,FC,52,
10843666,01C04026,true,Rx,0,8,80,00,80,00,80,00,80,00,
10843942,02000026,true,Rx,0,8,7F,34,00,DC,4D,00,E0,AC,
10844231,02104136,true,Rx,0,8,BB,00,3F,FF,07,E0,00,00,
10844503,02804026,true,Rx,0,8,37,FF,77,5B,F6,89,0D,DE,
10844793,02C00020,true,Rx,0,8,00,00,00,00,00,02,75,81,
10845082,19A00002,true,Rx,0,8,12,00,00,00,00,00,00,F7,
10847026,00800006,true,Rx,0,8,89,EC,0E,67,41,EC,2E,6E,
10847317,0090411E,true,Rx,0,8,82,00,E0,00,00,00,00,00,
10847597,0300410E,true,Rx,0,8,38,AC,28,1D,07,DE,6C,00,
10847877,03800006,true,Rx,0,8,78,00,9B,CF,58,77,06,A6,
10848156,0100082C,true,Rx,0,8,0F,C0,8E,3F,65,FC,00,BD,
10848438,0110483C,true,Rx,0,8,08,E9,6A,00,44,66,FC,52,
10857012,0300410E,true,Rx,0,8,B8,AB,28,1D,87,DF,FC,00,
10857649,01C04026,true,Rx,0,8,80,00,80,00,80,00,80,00,
10857928,0100082C,true,Rx,0,8,0F,C0,8E,3F,65,FC,00,BD,
10858208,0110483C,true,Rx,0,8,08,E9,6A,00,44,66,FC,52,
10858489,02000026,true,Rx,0,8,7F,34,00,DC,4D,00,E0,AC,
10858769,02104136,true,Rx,0,8,BB,00,3F,FF,07,E0,00,00,
10859049,02804026,true,Rx,0,8,37,FF,77,6B,F6,F0,0D,D3,
10859337,02C00020,true,Rx,0,8,00,00,00,00,00,02,75,81,
10867032,00800006,true,Rx,0,8,C1,EC,0E,67,41,EC,2E,6E,
10867319,0090411E,true,Rx,0,8,02,00,60,00,00,00,00,00,
10867600,0300410E,true,Rx,0,8,B8,AB,28,1D,87,DF,FC,00,
10867889,0100082C,true,Rx,0,8,0F,C0,8E,3F,65,FC,00,BD,
10868168,0110483C,true,Rx,0,8,08,E9,6A,00,44,66,FC,52,
10868440,03800006,true,Rx,0,8,38,00,9B,CF,58,77,06,A6,
10871664,01C04026,true,Rx,0,8,80,00,80,00,80,00,80,00,
10871939,02000026,true,Rx,0,8,7F,34,00,DC,4D,00,E0,AC,
10872220,02104136,true,Rx,0,8,BB,00,3F,FF,07,E0,00,00,
10872501,02804026,true,Rx,0,8,37,FF,77,52,F7,3E,0D,D0,
10872790,02C00020,true,Rx,0,8,00,00,00,00,00,02,75,81,
10873081,19A00002,true,Rx,0,8,02,00,00,00,00,00,00,F7,
10877062,0300410E,true,Rx,0,8,38,AB,A8,1D,07,DF,6C,00,
10877946,0100082C,true,Rx,0,8,0F,C0,8E,3F,65,FC,00,BD,
10878227,0110483C,true,Rx,0,8,08,E9,6A,00,44,66,FC,52,
10885620,01C04026,true,Rx,0,8,80,00,80,00,80,00,80,00,
10885896,02000026,true,Rx,0,8,7F,34,00,DC,4D,00,E0,AC,
10886186,02104136,true,Rx,0,8,BB,00,3F,FF,07,E0,00,00,
10886456,02804026,true,Rx,0,8,37,FF,77,1F,F7,63,0D,D8,
10886747,02C00020,true,Rx,0,8,00,00,00,00,00,02,75,81,
10887067,00800006,true,Rx,0,8,09,E2,0E,59,41,E2,AE,64,
10887348,0090411E,true,Rx,0,8,42,00,E0,F5,00,00,00,00,
10887629,0300410E,true,Rx,0,8,B8,95,28,1D,87,CE,FC,00,
10887906,03800006,true,Rx,0,8,38,00,9B,CF,58,77,06,A6,
10888187,0100082C,true,Rx,0,8,0F,C0,8E,3F,65,FC,00,BD,
10888467,0110483C,true,Rx,0,8,08,E9,EA,00,44,66,FC,52,
10888757,19E00006,true,Rx,0,8,00,00,18,C0,67,00,40,00,
10897056,0300410E,true,Rx,0,8,38,95,28,1D,07,CE,6C,00,
10897868,0100082C,true,Rx,0,8,0F,C0,8E,3F,24,00,00,BD,
10898148,0110483C,true,Rx,0,8,08,E9,6A,00,44,66,FC,52,
10899632,01C04026,true,Rx,0,8,80,00,80,00,80,00,80,00,
10899912,02000026,true,Rx,0,8,7F,34,00,DC,4D,00,E0,AC,
10900192,02104136,true,Rx,0,8,BB,00,3F,FF,07,E0,00,00,
10900473,02804026,true,Rx,0,8,37,FF,76,EF,F7,60,0D,E4,
10900763,02C00020,true,Rx,0,8,00,00,00,00,00,02,75,81,
10901053,19A00002,true,Rx,0,8,12,00,00,00,00,00,00,F7,
10902939,1A200020,true,Rx,0,8,0E,00,00,00,00,00,02,2F,
10905774,1B200002,true,Rx,0,8,00,00,00,00,00,00,0F,71,
10907070,00800006,true,Rx,0,8,49,E2,0E,5B,41,E2,2E,64,
10907350,0090411E,true,Rx,0,8,02,00,E0,F5,00,00,00,00,
10907631,0300410E,true,Rx,0,8,B8,97,A8,1D,87,CE,FC,00,
10907921,0100082C,true,Rx,0,8,0F,C0,8E,3F,24,00,00,BD,
10908201,0110483C,true,Rx,0,8,08,E9,6A,00,44,66,FC,52,
10908472,03800006,true,Rx,0,8,38,00,9B,CF,58,77,06,A6,
10913689,01C04026,true,Rx,0,8,80,00,80,00,80,00,80,00,
10913975,02000026,true,Rx,0,8,7F,34,00,DC,4D,00,E0,AC,
10914254,02104136,true,Rx,0,8,BB,00,3F,FF,07,E0,00,00,
10914536,02804026,true,Rx,0,8,37,FF,76,F4,F7,0F,0D,F2,
10914826,02C00020,true,Rx,0,8,00,00,00,00,00,02,75,81,
10917096,0300410E,true,Rx,0,8,B8,97,28,1D,87,D2,FC,00,
10917389,1B600002,true,Rx,0,8,00,80,00,0C,00,1B,4C,00,
10917923,0100082C,true,Rx,0,8,0F,C0,8E,3F,24,00,00,BD,
10918194,0110483C,true,Rx,0,8,08,E9,6A,00,44,66,FC,52,
10927085,00800006,true,Rx,0,8,89,E5,0E,5B,41,E5,2E,64,
10927362,0090411E,true,Rx,0,8,02,00,E0,F5,00,00,00,00,
10927662,01C04026,true,Rx,0,8,80,00,80,00,80,00,80,00,
10927942,0100082C,true,Rx,0,8,0F,C0,8E,3F,24,00,00,BD,
10928222,0110483C,true,Rx,0,8,08,E9,6A,00,44,66,FC,52,
10928502,02000026,true,Rx,0,8,7F,34,00,DC,4D,00,E0,AC,
10928792,02104136,true,Rx,0,8,BB,00,3F,FF,07,E0,00,00,
10929062,02804026,true,Rx,0,8,37,FF,77,1A,F6,CE,0D,FD,
10929352,02C00020,true,Rx,0,8,00,00,00,00,00,02,75,81,
10929631,0300410E,true,Rx,0,8,38,97,A8,1D,07,D2,6C,00,
10929912,03800006,true,Rx,0,8,38,00,9B,CF,58,77,06,A6,
10930202,19A00002,true,Rx,0,8,6E,00,00,00,00,00,00,F7,
10937093,0300410E,true,Rx,0,8,B8,90,28,2E,87,D2,FC,00,
10937381,19E00006,true,Rx,0,8,00,00,18,E0,67,00,40,00,
10937814,0100082C,true,Rx,0,8,0F,C0,8E,3F,75,FA,00,BD,
10938095,0110483C,true,Rx,0,8,08,E9,EA,00,44,66,FC,52,
10941665,01C04026,true,Rx,0,8,80,00,80,00,80,00,80,00,
10941942,02000026,true,Rx,0,8,7F,34,00,DC,4D,00,E0,AC,
10942231,02104136,true,Rx,0,8,BB,00,3F,FF,07,E0,00,00,
10942512,02804026,true,Rx,0,8,37,FF,77,55,F6,9F,0D,FF,
10942803,02C00020,true,Rx,0,8,00,00,00,00,00,02,75,81,
10947495,00800006,true,Rx,0,8,C1,E5,0E,57,41,E5,AE,64,
10947781,0090411E,true,Rx,0,8,C2,00,60,F5,00,00,00,00,
10948071,0100082C,true,Rx,0,8,0F,C0,8E,3F,65,FA,00,BD,
10948342,0110483C,true,Rx,0,8,08,E9,6A,00,44,66,FC,52,
10948621,0300410E,true,Rx,0,8,B8,90,28,2E,87,D2,FC,00,
10948912,0340412E,true,Rx,0,8,00,00,00,00,00,00,00,00,
10949191,03800006,true,Rx,0,8,58,00,9B,CF,58,77,06,A6,
10949482,19000026,true,Rx,0,8,00,00,00,00,00,00,00,00,
10955668,01C04026,true,Rx,0,8,80,00,80,00,80,00,80,00,
10955944,02000026,true,Rx,0,8,7F,34,00,DC,4D,00,E0,AC,
10956224,02104136,true,Rx,0,8,BB,00,3F,FF,07,E0,00,00,
10956504,02804026,true,Rx,0,8,37,FF,77,89,F6,C0,0E,04,
10956795,02C00020,true,Rx,0,8,00,00,00,00,00,02,75,81,
10957084,19A00002,true,Rx,0,8,12,00,00,00,00,00,00,F7,
10957366,0300410E,true,Rx,0,8,38,90,A8,2E,07,D2,6C,00,
10957909,0100082C,true,Rx,0,8,0F,C0,8E,3F,65,FA,00,BD,
10958190,0110483C,true,Rx,0,8,08,E9,6A,00,44,66,FC,52,
10958882,0340412E,true,Rx,0,8,00,00,00,00,00,00,00,00,
10962816,1BA0493C,true,Rx,0,8,12,00,00,00,00,00,00,00,
10963091,1BE0493C,true,Rx,0,8,FF,7A,01,02,58,08,40,F4,
10963939,19000026,true,Rx,0,8,00,00,00,00,00,00,04,00,
10967145,00800006,true,Rx,0,8,09,E3,0E,55,41,E3,2E,63,
10967423,0090411E,true,Rx,0,8,02,08,E1,2A,00,00,00,00,
10967702,0300410E,true,Rx,0,8,B8,8D,28,2E,87,CF,FC,00,
10967991,0100082C,true,Rx,0,8,0F,C0,8E,3F,65,FA,00,BD,
10968272,0110483C,true,Rx,0,8,08,E9,6A,00,44,66,FC,52,
10968542,03800006,true,Rx,0,8,18,00,9B,CF,58,77,06,A6,
10968874,0340412E,true,Rx,0,8,00,00,00,00,00,00,00,00,
10969749,01C04026,true,Rx,0,8,80,00,80,00,80,00,80,00,
10970028,02000026,true,Rx,0,8,7F,34,00,DC,4D,00,E0,AC,
10970319,02104136,true,Rx,0,8,BB,00,3F,FF,07,E0,00,00,
10970589,02804026,true,Rx,0,8,37,FF,77,88,F7,1A,0E,01,
10970878,02C00020,true,Rx,0,8,00,00,00,00,00,02,75,81,
10977130,0300410E,true,Rx,0,8,38,8D,28,2E,07,CF,6C,00,
10977819,0100082C,true,Rx,0,8,0F,C0,8E,3F,65,FA,00,BD,
10978089,0110483C,true,Rx,0,8,08,E9,6A,00,44,66,FC,52,
10978957,0340412E,true,Rx,0,8,70,80,00,FD,80,00,00,00,
10979257,19000026,true,Rx,0,8,00,00,00,00,38,13,04,00,
10983659,01C04026,true,Rx,0,8,80,00,80,00,80,00,80,00,
10983944,02000026,true,Rx,0,8,7F,34,00,DC,4D,00,E0,AC,
10984225,02104136,true,Rx,0,8,BB,00,3F,FF,07,E0,00,00,
10984505,02804026,true,Rx,0,8,37,FF,77,64,F7,60,0E,01,
10984795,02C00020,true,Rx,0,8,00,00,00,00,00,02,75,81,
10985075,19A00002,true,Rx,0,8,02,00,00,00,00,00,00,F7,
10987172,00800006,true,Rx,0,8,49,E3,0E,55,41,E3,AE,63,
10987455,0090411E,true,Rx,0,8,42,08,E1,2A,00,00,00,00,
10987732,0300410E,true,Rx,0,8,B8,8D,A8,2F,87,CF,FC,00,
10988023,0100082C,true,Rx,0,8,0F,C0,8E,3F,65,FA,00,BD,
10988292,0110483C,true,Rx,0,8,08,E9,EA,00,44,66,FC,52,
10988572,03800006,true,Rx,0,8,18,00,9B,CF,58,77,06,A6,
10988863,19E00006,true,Rx,0,8,00,00,18,C0,67,00,40,00,
10989142,0340412E,true,Rx,0,8,71,80,00,ED,80,00,00,00,
10990831,1B200002,true,Rx,0,8,00,00,00,00,00,00,0F,71,
10993838,19000026,true,Rx,0,8,00,00,01,40,38,11,84,00,
10997162,0300410E,true,Rx,0,8,B8,8E,28,2F,87,CF,FC,00,
10997604,01C04026,true,Rx,0,8,80,00,80,00,80,00,80,00,
10997893,0100082C,true,Rx,0,8,0F,C0,8E,3F,65,FA,00,BD,
10998174,0110483C,true,Rx,0,8,08,E9,6A,00,44,66,FC,52,
10998445,02000026,true,Rx,0,8,7F,34,00,DC,4D,00,E0,AC,
10998734,02104136,true,Rx,0,8,BB,00,3F,FF,07,E0,00,00,
10999015,02804026,true,Rx,0,8,37,FF,77,2B,F7,63,0D,FF,
10999301,02C00020,true,Rx,0,8,00,00,00,00,00,02,75,81,
10999583,0340412E,true,Rx,0,8,72,80,00,DD,80,00,00,00,
11007166,00800006,true,Rx,0,8,81,E3,0E,55,41,E3,2E,63,
11007444,0090411E,true,Rx,0,8,02,08,61,2A,00,00,00,00,
11007724,0300410E,true,Rx,0,8,38,8E,28,2F,07,CF,6C,00,
11008015,0100082C,true,Rx,0,8,0F,C0,8E,3F,65,FA,00,BD,
11008294,0110483C,true,Rx,0,8,08,E9,6A,00,44,66,FC,52,
11008575,03800006,true,Rx,0,8,18,00,9B,CF,58,77,06,A6,
11008855,1AE0092C,true,Rx,0,8,40,00,22,E0,40,00,00,00,
11009134,0340412E,true,Rx,0,8,73,80,00,CD,80,00,00,00,
11009424,19000026,true,Rx,0,8,00,00,01,40,38,11,84,00,
11009715,1B700030,true,Rx,0,8,25,00,22,00,00,00,00,00,
11011652,01C04026,true,Rx,0,8,80,00,80,00,80,00,80,00,
11011933,02000026,true,Rx,0,8,7F,34,00,DC,4D,00,E0,AC,
11012222,02104136,true,Rx,0,8,BB,00,3F,FF,07,E0,00,00,
11012492,02804026,true,Rx,0,8,37,FF,76,E4,F7,63,0D,FD,
11012783,02C00020,true,Rx,0,8,00,00,00,00,00,02,75,81,
11013073,19A00002,true,Rx,0,8,12,00,00,00,00,00,00,F7,
11017204,0300410E,true,Rx,0,8,B8,8E,A8,2F,87,CF,FC,00,
11017933,0100082C,true,Rx,0,8,0F,C0,8E,3F,65,FA,00,BD,
11018214,0110483C,true,Rx,0,8,08,E9,6A,00,44,66,FC,52,
11019050,0340412E,true,Rx,0,8,74,80,00,BD,80,00,00,00,
11023849,19000026,true,Rx,0,8,00,00,01,40,38,11,84,00,
11025672,01C04026,true,Rx,0,8,80,00,80,00,80,00,80,00,
11025947,02000026,true,Rx,0,8,7F,34,00,DC,4D,00,E0,AC,
11026237,02104136,true,Rx,0,8,BB,00,3F,FF,07,E0,00,00,
11026508,02804026,true,Rx,0,8,37,FF,76,94,F7,63,0D,FD,
11026798,02C00020,true,Rx,0,8,00,00,00,00,00,02,75,81,
11027212,00800006,true,Rx,0,8,C9,E3,0E,55,41,E3,2E,63,
11027492,0090411E,true,Rx,0,8,02,08,E1,2A,00,00,00,00,
11027782,0300410E,true,Rx,0,8,B8,8D,28,2F,87,CF,FC,00,
11028061,0100082C,true,Rx,0,8,0F,C0,8E,3F,75,FA,00,BD,
11028342,0110483C,true,Rx,0,8,08,E9,6A,00,44,66,FC,52,
11028621,03800006,true,Rx,0,8,18,00,9B,CF,58,77,06,A6,
11029066,0340412E,true,Rx,0,8,75,80,00,AD,80,00,00,00,
11037189,0300410E,true,Rx,0,8,38,8D,28,2F,07,CF,6C,00,
11037475,19E00006,true,Rx,0,8,00,00,18,E0,67,00,40,00,
11037775,0100082C,true,Rx,0,8,0F,C0,8E,3F,65,FA,00,BD,
11038056,0110483C,true,Rx,0,8,08,E9,EA,00,44,66,FC,52,
11039036,0340412E,true,Rx,0,8,76,80,00,9D,80,00,00,00,
11039329,19000026,true,Rx,0,8,00,00,01,40,38,11,84,00,
11039641,01C04026,true,Rx,0,8,80,00,80,00,80,00,80,00,
11039920,02000026,true,Rx,0,8,7F,34,00,DC,4D,00,E0,AC,
11040210,02104136,true,Rx,0,8,BB,00,3F,FF,07,E0,00,00,
11040492,02804026,true,Rx,0,8,37,FF,76,3E,F7,63,0D,FF,
11040781,02C00020,true,Rx,0,8,00,00,00,00,00,02,75,81,
11041062,19A00002,true,Rx,0,8,6E,00,00,00,00,00,00,F7,
11047205,00800006,true,Rx,0,8,09,E3,0E,55,41,E3,AE,63,
11047481,0090411E,true,Rx,0,8,C2,08,E1,2A,00,00,00,00,
11047771,0300410E,true,Rx,0,8,B8,8D,A8,2F,87,CF,FC,00,
11048051,0100082C,true,Rx,0,8,0F,C0,8E,3F,65,FA,00,BD,
11048331,0110483C,true,Rx,0,8,08,E9,6A,00,44,66,FC,52,
11048611,03800006,true,Rx,0,8,58,00,9B,CF,58,77,06,A6,
11049056,0340412E,true,Rx,0,8,77,80,00,8D,80,00,00,00,
11053674,01C04026,true,Rx,0,8,80,00,80,00,80,00,80,00,
11053949,02000026,true,Rx,0,8,7F,34,00,DC,4D,00,E0,AC,
11054241,02104136,true,Rx,0,8,BB,00,3F,FF,07,E0,00,00,
11054522,02804026,true,Rx,0,8,37,FF,75,E5,F7,63,0D,FD,
11054811,02C00020,true,Rx,0,8,00,00,00,00,00,02,75,81,
11055092,19000026,true,Rx,0,8,00,00,01,40,38,11,84,00,
11057242,0300410E,true,Rx,0,8,38,8D,28,2F,07,CF,6C,00,
11057982,0100082C,true,Rx,0,8,0F,C0,8E,3F,65,FA,00,BD,
11058261,0110483C,true,Rx,0,8,08,E9,6A,00,44,66,FC,52,
11059057,0340412E,true,Rx,0,8,78,80,00,7D,80,00,00,00,
11067220,00800006,true,Rx,0,8,41,E3,0E,55,41,E3,2E,63,
11067507,0090411E,true,Rx,0,8,02,08,61,2A,00,00,00,00,
11067796,01C04026,true,Rx,0,8,80,00,80,00,80,00,80,00,
11068087,0100082C,true,Rx,0,8,0F,C0,8E,3F,65,FA,00,BD,
11068357,0110483C,true,Rx,0,8,08,E9,6A,00,44,66,FC,52,
11068637,02000026,true,Rx,0,8,7F,34,00,DC,4D,00,E0,AC,
11068928,02104136,true,Rx,0,8,BB,00,3F,FF,07,E0,00,00,
11069197,02804026,true,Rx,0,8,37,FF,75,89,F7,63,0D,FD,
11069487,02C00020,true,Rx,0,8,00,00,00,00,00,02,75,81,
11069777,0300410E,true,Rx,0,8,B8,8D,28,2F,87,CF,FC,00,
11070056,0340412E,true,Rx,0,8,79,80,00,6D,80,00,00,00,
11070338,03800006,true,Rx,0,8,18,00,9B,CF,58,77,06,A6,
11070627,19000026,true,Rx,0,8,00,00,01,40,38,11,84,00,
11070917,19A00002,true,Rx,0,8,12,00,00,00,00,00,00,F7,
11075784,1B200002,true,Rx,0,8,00,00,00,00,00,00,0F,71,
11077234,0300410E,true,Rx,0,8,B8,8D,A8,2F,87,CF,FC,00,
11077849,0100082C,true,Rx,0,8,0F,C0,8E,3F,65,FA,00,BD,
11078130,0110483C,true,Rx,0,8,08,E9,6A,00,44,66,FC,52,
11079038,0340412E,true,Rx,0,8,7A,80,00,5D,80,00,00,00,
11081710,01C04026,true,Rx,0,8,80,00,80,00,80,00,80,00,
11081985,02000026,true,Rx,0,8,7F,34,00,DC,4D,00,E0,AC,
11082275,02104136,true,Rx,0,8,BB,00,3F,FF,07,E0,00,00,
11082546,02804026,true,Rx,0,8,37,FF,75,2D,F7,63,0D,FA,
11082836,02C00020,true,Rx,0,8,00,00,00,00,00,02,75,81,
11083857,19000026,true,Rx,0,8,00,00,01,40,38,11,84,00,
11087272,00800006,true,Rx,0,8,89,E3,0E,55,41,E3,AE,63,
11087549,0090411E,true,Rx,0,8,41,FF,E1,26,00,00,00,00,
11087828,0300410E,true,Rx,0,8,38,8D,28,2F,07,CF,6C,00,
11088119,0100082C,true,Rx,0,8,0F,C0,8E,3F,65,FA,00,BD,
11088399,0110483C,true,Rx,0,8,08,E9,EA,00,44,66,FC,52,
11088670,03800006,true,Rx,0,8,18,00,9B,CF,58,77,06,A6,
11088959,19E00006,true,Rx,0,8,00,00,18,C0,67,00,40,00,
11089239,0340412E,true,Rx,0,8,7B,80,00,4D,80,00,00,00,
11089529,1B600002,true,Rx,0,8,00,80,00,0C,00,1B,4C,00,
11095681,01C04026,true,Rx,0,8,80,00,80,00,80,00,80,00,
11095956,02000026,true,Rx,0,8,7F,34,00,DC,4D,00,E0,AC,
11096246,02104136,true,Rx,0,8,BB,00,3F,FF,07,E0,00,00,
11096517,02804026,true,Rx,0,8,37,FF,74,CF,F7,63,0D,FD,
11096807,02C00020,true,Rx,0,8,00,00,00,00,00,02,75,81,
11097098,19A00002,true,Rx,0,8,02,00,00,00,00,00,00,F7,
11097379,0300410E,true,Rx,0,8,B8,89,28,2F,87,CF,FC,00,
11097974,0100082C,true,Rx,0,8,0F,C0,8E,3F,65,FA,00,BD,
11098253,0110483C,true,Rx,0,8,08,E9,6A,00,44,66,FC,52,
11099070,0340412E,true,Rx,0,8,7C,80,00,3D,80,00,00,00,
11099362,19000026,true,Rx,0,8,00,00,01,40,38,11,84,00,
11107269,00800006,true,Rx,0,8,C1,E3,0E,53,41,E3,2E,63,
11107555,0090411E,true,Rx,0,8,01,FF,61,26,00,00,00,00,
11107836,0100082C,true,Rx,0,8,0F,C0,8E,3F,65,FA,00,BD,
11108115,0110483C,true,Rx,0,8,08,E9,6A,00,44,66,FC,52,
11108396,0300410E,true,Rx,0,8,B8,89,28,2F,87,CF,FC,00,
11108676,03800006,true,Rx,0,8,18,00,9B,CF,58,77,06,A6,
11109048,0340412E,true,Rx,0,8,7D,80,00,2D,80,00,00,00,
11109727,01C04026,true,Rx,0,8,80,00,80,00,80,00,80,00,
11110006,02000026,true,Rx,0,8,7F,34,00,DC,4D,00,E0,AC,
11110287,02104136,true,Rx,0,8,BB,00,3F,FF,07,E0,00,00,
11110568,02804026,true,Rx,0,8,37,FF,74,70,F7,63,0D,FF,
11110857,02C00020,true,Rx,0,8,00,00,00,00,00,02,75,81,
11113855,19000026,true,Rx,0,8,00,00,01,40,38,11,84,00,
11117282,0300410E,true,Rx,0,8,38,89,A8,2F,07,CF,6C,00,
11117888,0100082C,true,Rx,0,8,0F,C0,8E,3F,65,FA,00,BD,
11118168,0110483C,true,Rx,0,8,08,E9,6A,00,44,66,FC,52,
11119066,0340412E,true,Rx,0,8,7E,80,00,1D,80,00,00,00,
11123719,01C04026,true,Rx,0,8,80,00,80,00,80,00,80,00,
11123995,02000026,true,Rx,0,8,7F,34,00,DC,4D,00,E0,AC,
11124275,02104136,true,Rx,0,8,BB,00,3F,FF,07,E0,00,00,
11124555,02804026,true,Rx,0,8,37,FF,74,12,F7,63,0D,FF,
11124846,02C00020,true,Rx,0,8,00,00,00,00,00,02,75,81,
11125136,19A00002,true,Rx,0,8,12,00,00,00,00,00,00,F7,
11127306,00800006,true,Rx,0,8,09,E3,0E,52,41,E3,AE,63,
11127597,0090411E,true,Rx,0,8,41,FF,E1,26,00,00,00,00,
11127875,0300410E,true,Rx,0,8,B8,88,28,2F,87,CF,FC,00,
11128165,0100082C,true,Rx,0,8,0F,C0,8E,3F,65,FA,00,BD,
11128445,0110483C,true,Rx,0,8,08,E9,6A,00,44,66,FC,52,
11128716,03800006,true,Rx,0,8,18,00,9B,CF,58,77,06,A6,
11129005,0340412E,true,Rx,0,8,7F,80,00,0D,80,00,00,00,
11129295,19000026,true,Rx,0,8,00,00,01,40,38,11,84,00,
11137290,0300410E,true,Rx,0,8,38,88,28,2F,07,CF,6C,00,
11137577,19E00006,true,Rx,0,8,00,00,18,E0,67,00,40,00,
11137868,0100082C,true,Rx,0,8,0F,C0,8E,3F,65,FA,00,BD,
11138147,0110483C,true,Rx,0,8,08,E9,EA,00,44,66,FC,52,
11138438,01C04026,true,Rx,0,8,80,00,80,00,80,00,80,00,
11138708,02000026,true,Rx,0,8,7F,34,00,DC,4D,00,E0,AC,
11138998,02104136,true,Rx,0,8,BB,00,3F,FF,07,E0,00,00,
11139277,02804026,true,Rx,0,8,37,FF,73,B3,F7,63,0D,FD,
11139568,02C00020,true,Rx,0,8,00,00,00,00,00,02,75,81,
11139847,0340412E,true,Rx,0,8,70,80,00,FD,80,00,00,00,
11143859,19000026,true,Rx,0,8,00,FF,01,40,38,11,8C,00,
11147307,00800006,true,Rx,0,8,49,E3,0E,52,41,E3,2E,63,
11147595,0090411E,true,Rx,0,8,81,FF,E1,26,00,00,00,00,
11147875,0300410E,true,Rx,0,8,B8,88,A8,2F,87,CF,FC,00,
11148165,0100082C,true,Rx,0,8,0F,C0,8E,3F,65,FA,00,BD,
11148435,0110483C,true,Rx,0,8,08,E9,6A,00,44,66,FC,52,
11148716,03800006,true,Rx,0,8,58,00,9B,CF,58,77,06,A6,
11149036,0340412E,true,Rx,0,8,71,80,00,ED,80,00,00,00,
11151696,01C04026,true,Rx,0,8,80,00,80,00,80,00,80,00,
11151981,02000026,true,Rx,0,8,7F,34,00,DC,4D,00,E0,AC,
11152260,02104136,true,Rx,0,8,BB,00,3F,FF,07,E0,00,00,
11152532,02804026,true,Rx,0,8,37,FF,73,54,F7,63,0D,FA,
11152821,02C00020,true,Rx,0,8,00,00,00,00,00,02,75,81,
11153111,19A00002,true,Rx,0,8,6E,00,00,00,00,00,00,F7,
11157343,0300410E,true,Rx,0,8,B8,88,28,2F,87,CE,FC,00,
11157968,0100082C,true,Rx,0,8,0F,C0,8E,3F,65,FA,00,BD,
11158248,0110483C,true,Rx,0,8,08,E9,6A,00,44,66,FC,52,
11159064,0340412E,true,Rx,0,8,72,80,00,DD,80,00,00,00,
11159346,19000026,true,Rx,0,8,00,FF,01,40,38,11,84,00,
11160823,1B200002,true,Rx,0,8,00,00,00,00,00,00,0F,71,
11165666,01C04026,true,Rx,0,8,80,00,80,00,80,00,80,00,
11165941,02000026,true,Rx,0,8,7F,34,00,DC,4D,00,E0,AC,
11166232,02104136,true,Rx,0,8,BB,00,3F,FF,07,E0,00,00,
11166512,02804026,true,Rx,0,8,37,FF,72,F5,F7,63,0D,FA,
11166802,02C00020,true,Rx,0,8,00,00,00,00,00,02,75,81,
11167350,00800006,true,Rx,0,8,89,E3,0E,52,41,E3,2E,63,
11167630,0090411E,true,Rx,0,8,02,04,E1,3C,00,00,00,00,
11167907,0300410E,true,Rx,0,8,38,88,A8,2F,07,CE,6C,00,
11168196,0100082C,true,Rx,0,8,0F,C0,8E,3F,75,FA,00,BD,
11168466,0110483C,true,Rx,0,8,08,E9,6A,00,44,66,FC,52,
11168747,03800006,true,Rx,0,8,18,00,9B,CF,58,77,06,A6,
11169037,0340412E,true,Rx,0,8,73,80,00,CD,80,00,00,00,
11173878,19000026,true,Rx,0,8,00,FF,01,40,38,11,84,00,
11177336,0300410E,true,Rx,0,8,B8,84,28,2F,87,CE,FC,00,
11177880,0100082C,true,Rx,0,8,0F,C0,8E,3F,65,FA,00,BD,
11178159,0110483C,true,Rx,0,8,08,E9,6A,00,44,66,FC,52,
11179068,0340412E,true,Rx,0,8,74,80,00,BD,80,00,00,00,
11179678,01C04026,true,Rx,0,8,80,00,80,00,80,00,80,00,
11179958,02000026,true,Rx,0,8,7F,34,00,DC,4D,00,E0,AC,
11180248,02104136,true,Rx,0,8,BB,00,3F,FF,07,E0,00,00,
11180519,02804026,true,Rx,0,8,37,FF,72,95,F7,63,0D,FD,
11180809,02C00020,true,Rx,0,8,00,00,00,00,00,02,75,81,
11181099,19A00002,true,Rx,0,8,12,00,00,00,00,00,00,F7,
11187344,00800006,true,Rx,0,8,C1,E3,0E,50,41,E3,AE,63,
11187629,0090411E,true,Rx,0,8,42,04,61,3C,00,00,00,00,
11187910,0100082C,true,Rx,0,8,0F,C0,8E,3F,65,FA,00,BD,
11188189,0110483C,true,Rx,0,8,08,E9,EA,00,44,66,FC,52,
11188471,0300410E,true,Rx,0,8,B8,84,28,2F,87,CE,FC,00,
11188750,03800006,true,Rx,0,8,18,00,9B,CF,58,77,06,A6,
11189040,19E00006,true,Rx,0,8,00,00,18,C0,67,00,40,00,
11189321,0340412E,true,Rx,0,8,75,80,00,AD,80,00,00,00,
11189599,19000026,true,Rx,0,8,00,FF,01,40,38,11,84,00,
11193688,01C04026,true,Rx,0,8,80,00,80,00,80,00,80,00,
11193965,02000026,true,Rx,0,8,7F,34,00,DC,4D,00,E0,AC,
11194244,02104136,true,Rx,0,8,BB,00,3F,FF,07,E0,00,00,
11194524,02804026,true,Rx,0,8,37,FF,72,36,F7,63,0D,FD,
11194815,02C00020,true,Rx,0,8,00,00,00,00,00,02,75,81,
11197385,0300410E,true,Rx,0,8,38,84,A8,2F,07,CE,6C,00,
11197908,0100082C,true,Rx,0,8,0F,C0,8E,3F,65,FA,00,BD,
11198188,0110483C,true,Rx,0,8,08,E9,6A,00,44,66,FC,52,
11199086,0340412E,true,Rx,0,8,76,80,00,9D,80,00,00,00,
11203853,19000026,true,Rx,0,8,00,FF,01,40,38,11,84,00,
11207362,00800006,true,Rx,0,8,09,E3,0E,4F,41,E3,2E,63,
11207659,01C04026,true,Rx,0,8,80,00,80,00,80,00,80,00,
11207938,0090411E,true,Rx,0,8,02,04,E1,3C,00,00,00,00,
11208228,0100082C,true,Rx,0,8,0F,C0,8E,3F,65,FA,00,BD,
11208500,0110483C,true,Rx,0,8,08,E9,6A,00,44,66,FC,52,
11208779,02000026,true,Rx,0,8,7F,34,00,DC,4D,00,E0,AC,
11209069,02104136,true,Rx,0,8,BB,00,3F,FF,07,E0,00,00,
11209340,02804026,true,Rx,0,8,37,FF,71,D7,F7,63,0D,FD,
11209628,02C00020,true,Rx,0,8,00,00,00,00,00,02,75,81,
11209918,0300410E,true,Rx,0,8,B8,83,28,2F,87,CE,FC,00,
11210198,0340412E,true,Rx,0,8,77,80,00,8D,80,00,00,00,
11210479,03800006,true,Rx,0,8,18,00,9B,CF,58,77,06,A6,
11210769,19A00002,true,Rx,0,8,02,00,00,00,00,00,00,F7,
11213043,1BA0493C,true,Rx,0,8,13,00,00,00,00,00,00,00,
11217379,0300410E,true,Rx,0,8,38,83,28,2F,07,CE,6C,00,
11217809,0100082C,true,Rx,0,8,0F,C0,8E,3F,65,FA,00,BD,
11218089,0110483C,true,Rx,0,8,08,E9,6A,00,44,66,FC,52,
11218369,1A200020,true,Rx,0,8,4E,00,00,00,00,00,02,2F,
11218670,1B700030,true,Rx,0,8,25,00,22,00,00,00,00,00,
11219053,0340412E,true,Rx,0,8,78,80,00,7D,80,00,00,00,
11219344,19000026,true,Rx,0,8,00,FF,01,40,38,11,84,00,
11221662,01C04026,true,Rx,0,8,80,00,80,00,80,00,80,00,
11221937,02000026,true,Rx,0,8,7F,34,00,DC,4D,00,E0,AC,
11222227,02104136,true,Rx,0,8,BB,00,3F,FF,07,E0,00,00,
11222498,02804026,true,Rx,0,8,37,FF,71,78,F7,63,0D,FF,
11222788,02C00020,true,Rx,0,8,00,00,00,00,00,02,75,81,
11227398,00800006,true,Rx,0,8,49,E1,0E,4D,41,E1,2E,63,
11227685,0090411E,true,Rx,0,8,02,25,E1,D8,00,00,00,00,
11227975,0100082C,true,Rx,0,8,0F,C0,8E,3F,65,FA,00,BD,
11228254,0110483C,true,Rx,0,8,08,E9,6A,00,44,66,FC,52,
11228536,0300410E,true,Rx,0,8,B8,80,A8,2F,87,CB,FC,00,
11228805,03800006,true,Rx,0,8,18,00,9B,CF,58,77,06,A6,
11229094,0340412E,true,Rx,0,8,79,80,00,6D,80,00,00,00,
11233857,19000026,true,Rx,0,8,00,FF,01,40,38,11,8C,00,
11235678,01C04026,true,Rx,0,8,80,00,80,00,80,00,80,00,
11235954,02000026,true,Rx,0,8,7F,34,00,DC,4D,00,E0,AC,
11236244,02104136,true,Rx,0,8,BB,00,3F,FF,07,E0,00,00,
11236515,02804026,true,Rx,0,8,37,FF,71,18,F7,63,0D,FF,
11236804,02C00020,true,Rx,0,8,00,00,00,00,00,02,75,81,
11237095,19A00002,true,Rx,0,8,12,00,00,00,00,00,00,F7,
11237427,0300410E,true,Rx,0,8,B8,7E,28,30,87,CB,FC,00,
11237707,19E00006,true,Rx,0,8,00,00,18,E0,67,00,40,00,
11238016,0100082C,true,Rx,0,8,0F,C0,8E,3F,65,FA,00,BD,
11238295,0110483C,true,Rx,0,8,08,E9,EA,00,44,66,FC,52,
11239060,0340412E,true,Rx,0,8,7A,80,00,5D,80,00,00,00,
11245792,1B200002,true,Rx,0,8,00,00,00,00,00,00,0F,71,
11247408,00800006,true,Rx,0,8,81,E1,0E,4C,41,E1,AE,63,
11247689,0090411E,true,Rx,0,8,C2,25,61,D8,00,00,00,00,
11247977,0100082C,true,Rx,0,8,0F,C0,8E,3F,65,FA,00,BD,
11248256,0110483C,true,Rx,0,8,08,E9,6A,00,44,66,FC,52,
11248528,0300410E,true,Rx,0,8,38,7E,28,30,07,CB,6C,00,
11248807,03800006,true,Rx,0,8,58,00,9B,CF,58,77,06,A6,
11249086,0340412E,true,Rx,0,8,7B,80,00,4D,80,00,00,00,
11249378,19000026,true,Rx,0,8,00,FF,01,40,38,11,84,00,
11249668,01C04026,true,Rx,0,8,80,00,80,00,80,00,80,00,
11249937,02000026,true,Rx,0,8,7F,34,00,DC,4D,00,E0,AC,
11250226,02104136,true,Rx,0,8,BB,00,3F,FF,07,E0,00,00,
11250507,02804026,true,Rx,0,8,37,FF,70,B9,F7,63,0D,FA,
11250798,02C00020,true,Rx,0,8,00,00,00,00,00,02,75,81,
11257417,0300410E,true,Rx,0,8,B8,7E,B8,30,87,CB,FC,00,
11257703,1B600002,true,Rx,0,8,00,80,00,0C,00,1B,4C,00,
11257983,0100082C,true,Rx,0,8,0F,C0,8E,3F,75,FA,00,BD,
11258262,0110483C,true,Rx,0,8,08,E9,6A,00,44,66,FC,52,
11259068,0340412E,true,Rx,0,8,7C,80,00,3D,80,00,00,00,
11263681,01C04026,true,Rx,0,8,80,00,80,00,80,00,80,00,
11263957,02000026,true,Rx,0,8,7F,34,00,DC,4D,00,E0,AC,
11264236,02104136,true,Rx,0,8,BB,00,3F,FF,07,E0,00,00,
11264518,02804026,true,Rx,0,8,37,FF,70,5A,F7,63,0D,F7,
11264807,02C00020,true,Rx,0,8,00,00,00,00,00,02,75,81,
11265087,19000026,true,Rx,0,8,00,FF,01,40,38,11,84,00,
11265379,19A00002,true,Rx,0,8,6E,00,00,00,00,00,00,F7,
11267458,00800006,true,Rx,0,8,C9,EA,0E,51,41,EA,2E,73,
11267754,0090411E,true,Rx,0,8,02,41,E2,8B,00,00,00,00,
11268023,0300410E,true,Rx,0,8,B8,86,38,30,87,DB,FC,00,
11268303,0100082C,true,Rx,0,8,0F,C0,8E,3F,65,FA,00,BD,
11268585,0110483C,true,Rx,0,8,08,E9,6A,00,44,66,FC,52,
11268864,03800006,true,Rx,0,8,18,00,9B,CF,58,77,06,A6,
11269144,0340412E,true,Rx,0,8,7D,80,00,2D,80,00,00,00,
11277428,0300410E,true,Rx,0,8,38,86,38,22,07,DB,6C,00,
11277725,01C04026,true,Rx,0,8,80,00,80,00,80,00,80,00,
11278004,0100082C,true,Rx,0,8,0F,C0,8E,3F,65,FA,00,BD,
11278283,0110483C,true,Rx,0,8,08,E9,6A,00,44,66,FC,52,
11278565,02000026,true,Rx,0,8,7F,34,00,DC,4D,00,E0,AC,
11278854,02104136,true,Rx,0,8,BB,00,3F,FF,07,E0,00,00,
11279135,02804026,true,Rx,0,8,37,FF,70,00,F7,63,0D,FA,
11279416,02C00020,true,Rx,0,8,00,00,00,00,00,02,75,81,
11279704,0340412E,true,Rx,0,8,7E,80,00,1D,80,00,00,00,
11279984,19000026,true,Rx,0,8,00,FF,01,40,38,11,84,00,
11287446,00800006,true,Rx,0,8,09,EA,0E,51,41,EA,AE,73,
11287723,0090411E,true,Rx,0,8,42,41,E2,8B,00,00,00,00,
11288002,0300410E,true,Rx,0,8,B8,86,B8,22,87,DB,FC,00,
11288293,0100082C,true,Rx,0,8,0F,C0,8E,3F,65,FA,00,BD,
11288573,0110483C,true,Rx,0,8,08,E7,EA,00,44,66,FC,52,
11288853,03800006,true,Rx,0,8,18,00,9B,CF,58,77,06,A6,
11289133,0340412E,true,Rx,0,8,7F,80,00,0D,80,00,00,00,
11289424,19E00006,true,Rx,0,8,00,00,18,C0,67,00,40,00,
11291704,01C04026,true,Rx,0,8,80,00,80,00,80,00,80,00,
11291979,02000026,true,Rx,0,8,7F,34,00,DC,4D,00,E0,AC,
11292270,02104136,true,Rx,0,8,BB,00,3F,FF,07,E0,00,00,
11292551,02804026,true,Rx,0,8,37,FF,70,00,F7,63,0D,FF,
11292840,02C00020,true,Rx,0,8,00,00,00,00,00,02,75,81,
11293131,19A00002,true,Rx,0,8,12,00,00,00,00,00,00,F7,
11293869,19000026,true,Rx,0,8,00,FF,01,40,38,11,8C,00,
11297473,0300410E,true,Rx,0,8,38,86,38,22,07,DB,6C,00,
11298027,0100082C,true,Rx,0,8,0F,C0,8E,3F,65,FA,00,BD,
11298307,0110483C,true,Rx,0,8,08,E7,62,00,44,66,FC,52,
11299072,0340412E,true,Rx,0,8,70,80,00,FD,80,00,00,00,
11305662,01C04026,true,Rx,0,8,80,00,80,00,80,00,80,00,
11305937,02000026,true,Rx,0,8,7F,34,00,DC,4D,00,E0,AC,
11306228,02104136,true,Rx,0,8,BB,00,3F,FF,07,E0,00,00,
11306498,02804026,true,Rx,0,8,37,FF,70,00,F7,63,0D,FF,
11306789,02C00020,true,Rx,0,8,00,00,00,00,00,02,75,81,
11307492,00800006,true,Rx,0,8,41,E9,0E,4D,41,E9,2E,78,
11307776,0090411E,true,Rx,0,8,02,41,62,8B,00,00,00,00,
11308055,0100082C,true,Rx,0,8,0F,C0,8E,3F,65,FA,00,BD,
11308337,0110483C,true,Rx,0,8,08,E7,62,00,44,66,FC,52,
11308616,0300410E,true,Rx,0,8,B8,7F,38,22,87,D9,FC,00,
11308895,03800006,true,Rx,0,8,18,00,9B,CF,58,77,06,A6,
11309176,0340412E,true,Rx,0,8,71,80,00,ED,80,00,00,00,
11309467,19000026,true,Rx,0,8,00,FF,01,40,38,11,84,00,
11317476,0300410E,true,Rx,0,8,B8,7F,B8,22,87,D9,FC,00,
11317761,0100082C,true,Rx,0,8,0F,C0,8E,3F,65,FA,00,BD,
11318040,0110483C,true,Rx,0,8,08,E7,62,00,44,66,FC,52,
11319063,0340412E,true,Rx,0,8,72,80,00,DD,80,00,00,00,
11319673,01C04026,true,Rx,0,8,80,00,80,00,80,00,80,00,
11319953,02000026,true,Rx,0,8,7F,34,00,DC,4D,00,E0,AC,
11320243,02104136,true,Rx,0,8,BB,00,3F,FF,07,E0,00,00,
11320523,02804026,true,Rx,0,8,37,FF,70,00,F7,63,0D,FD,
11320804,02C00020,true,Rx,0,8,00,00,00,00,00,02,75,81,
11321094,19A00002,true,Rx,0,8,02,00,00,00,00,00,00,F7,
11323866,19000026,true,Rx,0,8,00,FF,01,40,38,11,8C,00,
11327491,00800006,true,Rx,0,8,89,E9,0E,4D,41,E9,AE,78,
11327766,0090411E,true,Rx,0,8,42,48,E3,20,00,00,00,00,
11328056,0100082C,true,Rx,0,8,0F,C0,8E,3F,65,FA,00,BD,
11328337,0110483C,true,Rx,0,8,08,E7,62,00,44,66,FC,52,
11328617,0300410E,true,Rx,0,8,38,7F,38,23,07,D9,6C,00,
11328896,03800006,true,Rx,0,8,18,00,9B,CF,58,77,06,A6,
11329176,0340412E,true,Rx,0,8,73,80,00,CD,80,00,00,00,
11330834,1B200002,true,Rx,0,8,00,00,00,00,00,00,0F,71,
11333677,01C04026,true,Rx,0,8,80,00,80,00,80,00,80,00,
11333952,02000026,true,Rx,0,8,7F,34,00,DC,4D,00,E0,AC,
11334242,02104136,true,Rx,0,8,BB,00,3F,FF,07,E0,00,00,
11334524,02804026,true,Rx,0,8,37,FF,70,00,F7,63,0D,FA,
11334813,02C00020,true,Rx,0,8,00,00,00,00,00,02,75,81,
11337518,0300410E,true,Rx,0,8,B8,7B,38,23,87,D9,FC,00,
11337804,19E00006,true,Rx,0,8,00,00,18,E0,67,00,40,00,
11338093,0100082C,true,Rx,0,8,0F,C0,8E,3F,65,FA,00,BD,
11338375,0110483C,true,Rx,0,8,08,E7,E2,00,44,66,FC,52,
11339087,0340412E,true,Rx,0,8,74,80,00,BD,80,00,00,00,
11339367,19000026,true,Rx,0,8,00,FF,01,40,38,11,84,00,
11347506,00800006,true,Rx,0,8,C1,E9,0E,4A,41,E9,2E,7D,
11347791,0090411E,true,Rx,0,8,82,48,63,20,01,00,00,00,
11348071,0100082C,true,Rx,0,8,0F,C0,8E,3F,75,FA,00,BD,
11348352,0110483C,true,Rx,0,8,08,E7,62,00,44,66,FC,52,
11348642,01C04026,true,Rx,0,8,80,00,80,00,80,00,80,00,
11348921,02000026,true,Rx,0,8,7F,34,00,DC,4D,00,E0,AC,
11349202,02104136,true,Rx,0,8,BB,00,3F,FF,07,E0,00,00,
11349482,02804026,true,Rx,0,8,37,FF,70,00,F7,63,0D,FA,
11349772,02C00020,true,Rx,0,8,00,00,00,00,00,02,75,81,
11350051,0300410E,true,Rx,0,8,B8,7B,38,23,87,D9,FC,00,
11350331,0340412E,true,Rx,0,8,75,80,00,AD,80,00,00,00,
11350612,03800006,true,Rx,0,8,58,00,9B,CF,58,77,06,A6,
11350901,19A00002,true,Rx,0,8,12,00,00,00,00,00,00,F7,
11353869,19000026,true,Rx,0,8,00,FF,01,40,38,11,84,00,
11357524,0300410E,true,Rx,0,8,38,7B,B8,23,07,D9,6C,00,
11357861,0100082C,true,Rx,0,8,0F,C0,8E,3F,65,FA,00,BD,
11358140,0110483C,true,Rx,0,8,08,E7,62,00,44,66,FC,52,
11359050,0340412E,true,Rx,0,8,76,80,00,9D,80,00,00,00,
11361690,01C04026,true,Rx,0,8,80,00,80,00,80,00,80,00,
11361966,02000026,true,Rx,0,8,7F,34,00,DC,4D,00,E0,AC,
11362256,02104136,true,Rx,0,8,BB,00,3F,FF,07,E0,00,00,
11362537,02804026,true,Rx,0,8,37,FF,70,00,F7,63,0D,FF,
11362828,02C00020,true,Rx,0,8,00,00,00,00,00,02,75,81,
11367541,00800006,true,Rx,0,8,09,E8,0E,47,41,E8,2E,7F,
11367827,0090411E,true,Rx,0,8,02,5B,E3,BB,01,00,00,00,
11368116,0100082C,true,Rx,0,8,0F,C0,8E,3F,65,FA,00,BD,
11368388,0110483C,true,Rx,0,8,08,E7,62,00,44,66,FC,52,
11368667,0300410E,true,Rx,0,8,B8,76,38,23,87,D8,FC,00,
11368948,03800006,true,Rx,0,8,18,00,9B,CF,58,77,06,A6,
11369227,0340412E,true,Rx,0,8,77,80,00,8D,80,00,00,00,
11369518,19000026,true,Rx,0,8,00,FF,01,40,38,11,8C,00,
11375684,01C04026,true,Rx,0,8,80,00,80,00,80,00,80,00,
11375960,02000026,true,Rx,0,8,7F,34,00,DC,4D,00,E0,AC,
11376250,02104136,true,Rx,0,8,BB,00,3F,FF,07,E0,00,00,
11376530,02804026,true,Rx,0,8,37,FF,70,00,F7,63,0D,FF,
11376821,02C00020,true,Rx,0,8,00,00,00,00,00,02,75,81,
11377101,19A00002,true,Rx,0,8,6E,00,00,00,00,00,00,F7,
11377557,0300410E,true,Rx,0,8,38,76,38,23,07,D8,6C,00,
11377966,0100082C,true,Rx,0,8,0F,C0,8E,3F,65,FA,00,BD,
11378237,0110483C,true,Rx,0,8,08,E7,62,00,44,66,FC,52,
11379073,0340412E,true,Rx,0,8,78,80,00,7D,80,00,00,00,
11383858,19000026,true,Rx,0,8,00,FF,01,40,38,11,84,00,
11387546,00800006,true,Rx,0,8,49,E8,0E,47,41,E8,AE,7F,
11387832,0090411E,true,Rx,0,8,42,1E,E3,E9,01,00,00,00,
11388111,0100082C,true,Rx,0,8,0F,C0,8E,3F,65,FA,00,00,
11388393,0110483C,true,Rx,0,8,08,E7,E2,00,44,66,FC,52,
11388673,0300410E,true,Rx,0,8,B8,76,B8,25,87,D8,FC,00,
11388953,03800006,true,Rx,0,8,18,00,9B,CF,58,77,06,A6,
11389233,0340412E,true,Rx,0,8,79,80,00,6D,80,00,00,00,
11389524,19E00006,true,Rx,0,8,00,00,18,C0,67,00,40,00,
11389813,01C04026,true,Rx,0,8,80,00,80,00,80,00,80,00,
11390092,02000026,true,Rx,0,8,7F,34,00,DC,4D,00,E0,AC,
11390373,02104136,true,Rx,0,8,BB,00,3F,FF,07,E0,00,00,
11390654,02804026,true,Rx,0,8,37,FF,70,00,F7,63,0D,FD,
11390943,02C00020,true,Rx,0,8,00,00,00,00,00,02,75,81,
11397547,0300410E,true,Rx,0,8,B8,6E,38,25,87,D7,FC,00,
11397843,0100082C,true,Rx,0,8,0F,C0,8E,3F,65,FA,00,00,
11398123,0110483C,true,Rx,0,8,08,E7,62,00,44,66,FC,52,
11399052,0340412E,true,Rx,0,8,7A,80,00,5D,80,00,00,00,
11399343,19000026,true,Rx,0,8,00,FF,01,40,38,11,8C,00,
11403687,01C04026,true,Rx,0,8,80,00,80,00,80,00,80,00,
11403962,02000026,true,Rx,0,8,7F,34,00,DC,4D,00,E0,AC,
11404252,02104136,true,Rx,0,8,BB,00,3F,FF,07,E0,00,00,
11404534,02804026,true,Rx,0,8,37,FF,70,00,F7,63,0D,F7,
11404823,02C00020,true,Rx,0,8,00,00,00,00,00,02,75,81,
11405114,19A00002,true,Rx,0,8,12,00,00,00,00,00,00,F7,
11407667,00800006,true,Rx,0,8,81,E8,0E,43,41,E8,2E,81,
11407952,0090411E,true,Rx,0,8,02,1E,63,E9,01,00,00,00,
11408243,0100082C,true,Rx,0,8,0F,C0,8E,3F,65,FA,00,00,
11408523,0110483C,true,Rx,0,8,08,E7,62,00,44,66,FC,52,
11408792,0300410E,true,Rx,0,8,38,6E,38,25,07,D7,6C,00,
11409083,0340412E,true,Rx,0,8,7B,80,00,4D,80,00,00,00,
11409354,03800006,true,Rx,0,8,18,00,9B,CF,58,77,06,A6,
11413878,19000026,true,Rx,0,8,00,FF,01,40,38,11,84,00,
11415782,1B200002,true,Rx,0,8,00,00,00,00,00,00,0F,71,
11417583,0300410E,true,Rx,0,8,B8,6A,B8,25,87,D7,FC,00,
11417873,0100082C,true,Rx,0,8,0F,C0,8E,3F,65,FA,00,00,
11418151,0110483C,true,Rx,0,8,08,E7,62,00,44,66,FC,52,
11418431,01C04026,true,Rx,0,8,80,00,80,00,80,00,80,00,
11418711,02000026,true,Rx,0,8,7F,34,00,DC,4D,00,E0,AC,
11419002,02104136,true,Rx,0,8,BB,00,3F,FF,07,E0,00,00,
11419281,02804026,true,Rx,0,8,37,FF,70,00,F7,63,0D,F7,
11419572,02C00020,true,Rx,0,8,00,00,00,00,00,02,75,81,
11419852,0340412E,true,Rx,0,8,7C,80,00,3D,80,00,00,00,
11427582,00800006,true,Rx,0,8,C9,E8,0E,40,41,E8,2E,82,
11427868,0090411E,true,Rx,0,8,02,1B,E4,58,01,00,00,00,
11428159,0100082C,true,Rx,0,8,0F,C0,8E,3F,65,FA,00,00,
11428439,0110483C,true,Rx,0,8,08,E7,62,00,44,66,FC,52,
11428719,0300410E,true,Rx,0,8,B8,6A,38,25,87,D7,FC,00,
11428989,03800006,true,Rx,0,8,18,00,9B,CF,58,77,06,A6,
11429279,0340412E,true,Rx,0,8,7D,80,00,2D,80,00,00,00,
11429559,19000026,true,Rx,0,8,00,FF,01,40,38,11,84,00,
11429849,1AE0092C,true,Rx,0,8,80,00,22,E0,41,A0,00,00,
11430138,1B600002,true,Rx,0,8,00,80,00,1C,00,1B,4C,00,
11430420,1B700030,true,Rx,0,8,35,8E,22,00,00,C0,03,00,
11431688,01C04026,true,Rx,0,8,80,00,80,00,80,00,80,00,
11431959,02000026,true,Rx,0,8,7F,34,00,DC,4D,00,E0,AC,
11432248,02104136,true,Rx,0,8,BB,00,3F,FF,07,E0,00,00,
11432529,02804026,true,Rx,0,8,37,FF,70,00,F7,63,0D,FD,
11432820,02C00020,true,Rx,0,8,00,00,00,00,00,02,75,81,
11433099,19A00002,true,Rx,0,8,02,00,00,00,00,00,00,F7,
11437602,0300410E,true,Rx,0,8,38,6A,B8,26,07,D7,6C,00,
11437887,19E00006,true,Rx,0,8,00,00,18,E0,67,00,40,00,
11438178,0100082C,true,Rx,0,8,0F,C0,8E,3F,75,FA,00,00,
11438459,0110483C,true,Rx,0,8,08,E7,E2,00,44,66,FC,52,
11438996,0340412E,true,Rx,0,8,7E,80,00,1D,80,00,00,00,
11443876,19000026,true,Rx,0,8,00,FF,01,40,38,11,8C,00,
11445646,01C04026,true,Rx,0,8,80,00,80,00,80,00,80,00,
11445922,02000026,true,Rx,0,8,7F,34,00,DC,4D,00,E0,AC,
11446212,02104136,true,Rx,0,8,BB,00,3F,FF,07,E0,00,00,
11446492,02804026,true,Rx,0,8,37,FF,70,00,F7,63,0D,FF,
11446783,02C00020,true,Rx,0,8,00,00,00,00,00,02,75,81,
11447640,00800006,true,Rx,0,8,09,E7,0E,3C,41,E7,AE,85,
11447934,0090411E,true,Rx,0,8,C2,2C,E4,93,02,00,00,00,
11448204,0100082C,true,Rx,0,8,0F,C0,8E,3F,65,FA,00,00,
11448476,0110483C,true,Rx,0,8,08,E7,62,00,44,66,FC,52,
11448765,0300410E,true,Rx,0,8,B8,64,38,26,87,D6,FC,00,
11449036,03800006,true,Rx,0,8,58,00,9B,CF,58,77,06,A6,
11449327,0340412E,true,Rx,0,8,7F,80,00,0D,80,00,00,00,
11457766,0100082C,true,Rx,0,8,0F,C0,8E,3F,65,FA,00,00,
11458042,0110483C,true,Rx,0,8,08,E7,62,00,44,66,FC,52,
11458323,0300410E,true,Rx,0,8,38,64,38,26,07,D6,6C,00,
11459066,0340412E,true,Rx,0,8,70,80,00,FD,80,00,00,00,
11459346,19000026,true,Rx,0,8,00,FF,01,40,38,11,84,00,
11459647,01C04026,true,Rx,0,8,80,00,80,00,80,00,80,00,
11459931,02000026,true,Rx,0,8,7F,34,00,DC,4D,00,E0,AC,
11460221,02104136,true,Rx,0,8,BB,00,3F,FF,07,E0,00,00,
11460492,02804026,true,Rx,0,8,37,FF,70,1B,F7,63,0D,FD,
11460782,02C00020,true,Rx,0,8,00,00,00,00,00,02,75,81,
11461071,19A00002,true,Rx,0,8,12,00,00,00,00,00,00,F7,
11463026,1BA0493C,true,Rx,0,8,14,00,00,00,00,00,00,00,
11463295,1BE0493C,true,Rx,0,8,12,32,33,31,39,36,35,36,
11467634,00800006,true,Rx,0,8,49,E7,0E,3C,41,E7,2E,85,
11467909,0090411E,true,Rx,0,8,02,28,E4,C5,02,00,00,00,
11468200,0100082C,true,Rx,0,8,0F,C0,8E,3F,65,FA,00,00,
11468480,0110483C,true,Rx,0,8,08,E7,62,00,44,66,FC,52,
11468760,0300410E,true,Rx,0,8,B8,64,B8,26,87,D6,FC,00,
11469030,03800006,true,Rx,0,8,18,00,9B,CF,58,77,06,A6,
11469321,0340412E,true,Rx,0,8,71,80,00,ED,80,00,00,00,
11473699,01C04026,true,Rx,0,8,80,00,80,00,80,00,80,00,
11473974,02000026,true,Rx,0,8,7F,34,00,DC,4D,00,E0,AC,
11474265,02104136,true,Rx,0,8,BB,00,3F,FF,07,E0,00,00,
11474535,02804026,true,Rx,0,8,37,FF,70,76,F7,63,0D,FA,
11474825,02C00020,true,Rx,0,8,00,00,00,00,00,02,75,81,
11475116,19000026,true,Rx,0,8,00,FF,01,40,38,11,8C,00,
11477667,0300410E,true,Rx,0,8,B8,5F,38,27,87,D6,FC,00,
11478036,0100082C,true,Rx,0,8,0F,C0,8E,3F,65,FA,00,00,
11478317,0110483C,true,Rx,0,8,08,E7,62,00,44,66,FC,52,
11479070,0340412E,true,Rx,0,8,72,80,00,DD,80,00,00,00,
11487607,01C04026,true,Rx,0,8,80,00,80,00,80,00,80,00,
11487892,00800006,true,Rx,0,8,81,E7,0E,39,41,E7,AE,86,
11488173,0090411E,true,Rx,0,8,42,28,64,C5,02,00,00,00,
11488453,0100082C,true,Rx,0,8,0F,C0,8E,3F,65,FA,00,00,
11488744,0110483C,true,Rx,0,8,08,E7,E2,00,44,66,FC,52,
11489013,02000026,true,Rx,0,8,7F,34,00,DC,4D,00,E0,AC,
11489303,02104136,true,Rx,0,8,BB,00,3F,FF,07,E0,00,00,
11489574,02804026,true,Rx,0,8,37,FF,70,D3,F7,63,0D,FA,
11489872,02C00020,true,Rx,0,8,00,00,00,00,00,02,75,81,
11490152,0300410E,true,Rx,0,8,38,5F,38,27,07,D6,6C,00,
11490433,0340412E,true,Rx,0,8,73,80,00,CD,80,00,00,00,
11490713,03800006,true,Rx,0,8,18,00,9B,CF,58,77,06,A6,
11490992,19000026,true,Rx,0,8,00,FF,01,40,38,11,84,00,
11491283,19A00002,true,Rx,0,8,6E,00,00,00,00,00,00,F7,
11491563,19E00006,true,Rx,0,8,00,00,18,C0,67,00,40,00,
11497657,0300410E,true,Rx,0,8,B8,59,B8,27,87,D5,FC,00,
11497942,0100082C,true,Rx,0,8,0F,C0,8E,3F,65,FA,00,00,
11498223,0110483C,true,Rx,0,8,08,E7,62,00,44,66,FC,52,
11499080,0340412E,true,Rx,0,8,74,80,00,BD,80,00,00,00,
11501668,01C04026,true,Rx,0,8,80,00,80,00,80,00,80,00,
11501945,02000026,true,Rx,0,8,7F,34,00,DC,4D,00,E0,AC,
11502234,02104136,true,Rx,0,8,BB,00,3F,FF,07,E0,00,00,
11502515,02804026,true,Rx,0,8,37,FF,71,31,F7,63,0D,FF,
11502806,02C00020,true,Rx,0,8,00,00,00,00,00,02,75,81,
11503095,1B200002,true,Rx,0,8,00,00,00,00,00,00,0F,71,
11503864,19000026,true,Rx,0,8,00,FF,01,40,38,11,8C,00,
11507676,00800006,true,Rx,0,8,C9,E6,0E,32,41,E6,2E,89,
11507963,0090411E,true,Rx,0,8,02,20,E4,EC,02,00,00,00,
11508242,0100082C,true,Rx,0,8,0F,C0,8E,3F,65,FA,00,00,
11508523,0110483C,true,Rx,0,8,08,E7,62,00,44,66,FC,52,
11508803,0300410E,true,Rx,0,8,B8,54,38,27,87,D5,FC,00,
11509083,0340412E,true,Rx,0,8,75,80,00,AD,80,00,00,00,
11509363,03800006,true,Rx,0,8,18,00,9B,CF,58,77,06,A6,
11515670,01C04026,true,Rx,0,8,80,00,80,00,80,00,80,00,
11515945,02000026,true,Rx,0,8,7F,34,00,DC,4D,00,E0,AC,
11516234,02104136,true,Rx,0,8,BB,00,3F,FF,07,E0,00,00,
11516506,02804026,true,Rx,0,8,37,FF,71,8F,F7,63,0D,FF,
11516795,02C00020,true,Rx,0,8,00,00,00,00,00,02,75,81,
11517085,19A00002,true,Rx,0,8,12,00,00,00,00,00,00,F7,
11517696,0300410E,true,Rx,0,8,38,54,38,27,07,D5,6C,00,
11517983,0100082C,true,Rx,0,8,0F,C0,8E,3F,65,FA,00,00,
11518262,0110483C,true,Rx,0,8,08,E7,62,00,44,66,FC,52,
11519181,0340412E,true,Rx,0,8,76,80,00,9D,80,00,00,00,
11519463,19000026,true,Rx,0,8,00,FF,01,40,38,11,84,00,
11527682,00800006,true,Rx,0,8,01,E6,0E,32,41,E6,2E,89,
11527968,0090411E,true,Rx,0,8,02,20,64,EC,02,00,00,00,
11528258,0100082C,true,Rx,0,8,0F,C0,8E,3F,75,FA,00,00,
11528539,0110483C,true,Rx,0,8,08,E7,62,00,44,66,FC,52,
11528809,0300410E,true,Rx,0,8,B8,54,38,27,87,D5,FC,00,
11529099,0340412E,true,Rx,0,8,77,80,00,8D,80,00,00,00,
11529369,03800006,true,Rx,0,8,18,00,9B,CF,58,77,06,A6,
11529660,01C04026,true,Rx,0,8,80,00,80,00,80,00,80,00,
11529938,02000026,true,Rx,0,8,7F,34,00,DC,4D,00,E0,AC,
11530228,02104136,true,Rx,0,8,BB,00,3F,FF,07,E0,00,00,
11530509,02804026,true,Rx,0,8,37,FF,71,ED,F7,63,0D,FD,
11530798,02C00020,true,Rx,0,8,00,00,00,00,00,02,75,81,
11532997,1A200020,true,Rx,0,8,8F,00,AA,2F,00,00,02,2F,
11533881,19000026,true,Rx,0,8,00,FF,01,40,38,11,8C,00,
11537702,0300410E,true,Rx,0,8,38,54,B8,28,07,D5,6C,00,
11537989,0100082C,true,Rx,0,8,0F,C0,8E,3F,65,FA,00,00,
11538268,0110483C,true,Rx,0,8,08,E7,E2,00,44,66,FC,52,
11538559,19E00006,true,Rx,0,8,00,00,18,E0,67,00,40,00,
11539086,0340412E,true,Rx,0,8,78,80,00,7D,80,00,00,00,
11543678,01C04026,true,Rx,0,8,80,00,80,00,80,00,80,00,
11543953,02000026,true,Rx,0,8,7F,34,00,DC,4D,00,E0,AC,
11544233,02104136,true,Rx,0,8,BB,00,3F,FF,07,E0,00,00,
11544514,02804026,true,Rx,0,8,37,FF,72,4C,F7,63,0D,FA,
11544804,02C00020,true,Rx,0,8,00,00,00,00,00,02,75,81,
11545094,19A00002,true,Rx,0,8,02,00,00,00,00,00,00,F7,
11547967,0100082C,true,Rx,0,8,0F,C0,8E,3F,65,FA,00,00,
11548242,00800006,true,Rx,0,8,49,E6,0E,2E,41,E6,AE,8A,
11548522,0090411E,true,Rx,0,8,C2,29,E5,4D,03,00,00,00,
11548803,0110483C,true,Rx,0,8,08,E7,62,00,44,66,FC,52,
11549082,0300410E,true,Rx,0,8,B8,4D,38,28,87,D4,FC,00,
11549363,0340412E,true,Rx,0,8,79,80,00,6D,80,00,00,00,
11549643,03800006,true,Rx,0,8,58,00,9B,CF,58,77,06,A6,
11549923,19000026,true,Rx,0,8,00,FF,01,40,38,11,84,00,
11557634,01C04026,true,Rx,0,8,80,00,80,00,80,00,80,00,
11557921,0100082C,true,Rx,0,8,0F,C0,8E,3F,65,FA,00,00,
11558200,0110483C,true,Rx,0,8,08,E7,62,00,44,66,FC,52,
11558480,02000026,true,Rx,0,8,7F,34,00,DC,4D,00,E0,AC,
11558761,02104136,true,Rx,0,8,BB,00,3F,FF,07,E0,00,00,
11559040,02804026,true,Rx,0,8,37,FF,72,AB,F7,63,0D,FA,
11559332,02C00020,true,Rx,0,8,00,00,00,00,00,02,75,81,
11559612,0300410E,true,Rx,0,8,B8,48,B8,28,87,D4,FC,00,
11559900,0340412E,true,Rx,0,8,7A,80,00,5D,80,00,00,00,
11563877,19000026,true,Rx,0,8,00,FF,01,40,38,11,84,00,
11567729,00800006,true,Rx,0,8,89,E6,0E,2C,41,E6,2E,8B,
11568016,0090411E,true,Rx,0,8,02,1E,E5,6E,03,00,00,00,
11568295,0100082C,true,Rx,0,8,0F,C0,8E,3F,65,FA,00,00,
11568575,0110483C,true,Rx,0,8,08,E7,62,00,44,66,FC,52,
11568856,0300410E,true,Rx,0,8,38,48,38,28,07,D4,6C,00,
11569135,0340412E,true,Rx,0,8,7B,80,00,4D,80,00,00,00,
11569417,03800006,true,Rx,0,8,18,00,9B,CF,58,77,06,A6,
11571670,01C04026,true,Rx,0,8,80,00,80,00,80,00,80,00,
11571947,02000026,true,Rx,0,8,7F,34,00,DC,4D,00,E0,AC,
11572237,02104136,true,Rx,0,8,BB,00,3F,FF,07,E0,00,00,
11572518,02804026,true,Rx,0,8,37,FF,73,0A,F7,63,0D,FD,
11572808,02C00020,true,Rx,0,8,00,00,00,00,00,02,75,81,
11573097,19A00002,true,Rx,0,8,12,00,00,00,00,00,00,F7,
11577742,0300410E,true,Rx,0,8,B8,42,38,2A,87,D3,FC,00,
11578029,0100082C,true,Rx,0,8,0F,C0,8E,3F,65,FA,00,00,
11578308,0110483C,true,Rx,0,8,08,E7,62,00,44,66,FC,52,
11579083,0340412E,true,Rx,0,8,7C,80,00,3D,80,00,00,00,
11579364,19000026,true,Rx,0,8,00,FF,01,40,38,11,8C,00,
11585676,01C04026,true,Rx,0,8,80,00,80,00,80,00,80,00,
11585951,02000026,true,Rx,0,8,7F,34,00,DC,4D,00,E0,AC,
11586240,02104136,true,Rx,0,8,BB,00,3F,FF,07,E0,00,00,
11586512,02804026,true,Rx,0,8,37,FF,73,6A,F7,63,0D,FF,
11586802,02C00020,true,Rx,0,8,00,00,00,00,00,02,75,81,
11587092,1B200002,true,Rx,0,8,00,00,00,00,00,00,0F,71,
11587768,00800006,true,Rx,0,8,C1,E6,0E,28,41,E6,AE,8B,
11588048,0090411E,true,Rx,0,8,42,1E,65,6E,03,00,00,00,
11588339,0100082C,true,Rx,0,8,0F,C0,8E,3F,65,FA,00,00,
11588620,0110483C,true,Rx,0,8,08,E7,E2,00,44,66,FC,52,
11588899,0300410E,true,Rx,0,8,B8,42,38,2A,87,D3,FC,00,
11589178,0340412E,true,Rx,0,8,7D,80,00,2D,80,00,00,00,
11589460,03800006,true,Rx,0,8,18,00,9B,CF,58,77,06,A6,
11589758,19E00006,true,Rx,0,8,00,00,18,C0,67,00,40,00,
11593877,19000026,true,Rx,0,8,00,FF,01,40,38,11,84,00,
11597760,0300410E,true,Rx,0,8,38,42,B8,2A,07,D3,6C,00,
11598047,0100082C,true,Rx,0,8,0F,C0,8E,3F,65,FA,00,00,
11598327,0110483C,true,Rx,0,8,08,E7,62,00,44,66,FC,52,
11598608,1B600002,true,Rx,0,8,00,80,00,0C,9D,1B,CC,00,
11599083,0340412E,true,Rx,0,8,7E,80,00,1D,80,00,00,00,
11599642,01C04026,true,Rx,0,8,80,00,80,00,80,00,80,00,
11599926,02000026,true,Rx,0,8,7F,34,00,DC,4D,00,E0,AC,
11600206,02104136,true,Rx,0,8,BB,00,3F,FF,07,E0,00,00,
11600487,02804026,true,Rx,0,8,37,FF,73,C9,F7,63,0D,FD,
11600776,02C00020,true,Rx,0,8,00,00,00,00,00,02,75,81,
11601067,19A00002,true,Rx,0,8,6E,00,00,00,00,00,00,F7,
11607763,00800006,true,Rx,0,8,09,E6,0E,25,41,E6,2E,8C,
11608040,0090411E,true,Rx,0,8,02,12,E5,82,03,00,00,00,
11608330,0100082C,true,Rx,0,8,0F,C0,8E,3F,65,FA,00,00,
11608611,0110483C,true,Rx,0,8,08,E7,62,00,44,66,FC,52,
11608890,0300410E,true,Rx,0,8,B8,3D,38,2A,87,D3,FC,00,
11609180,0340412E,true,Rx,0,8,7F,80,00,0D,80,00,00,00,
11609451,03800006,true,Rx,0,8,18,00,9B,CF,58,77,06,A6,
11609741,19000026,true,Rx,0,8,00,FF,01,40,38,11,8C,00,
11613729,01C04026,true,Rx,0,8,80,00,80,00,80,00,80,00,
11614006,02000026,true,Rx,0,8,7F,34,00,DC,4D,00,E0,AC,
11614285,02104136,true,Rx,0,8,BB,00,3F,FF,07,E0,00,00,
11614566,02804026,true,Rx,0,8,37,FF,74,28,F7,63,0D,FA,
11614856,02C00020,true,Rx,0,8,00,00,00,00,00,02,75,81,
11617808,0300410E,true,Rx,0,8,38,3D,38,2A,07,D3,6C,00,
11618093,0100082C,true,Rx,0,8,0F,C0,8E,3F,65,FA,00,00,
11618374,0110483C,true,Rx,0,8,08,E7,62,00,44,66,FC,52,
11619107,0340412E,true,Rx,0,8,70,80,00,FD,80,00,00,00,
11623870,19000026,true,Rx,0,8,00,FF,01,40,38,11,84,00,
11627660,01C04026,true,Rx,0,8,80,00,80,00,80,00,80,00,
11627936,00800006,true,Rx,0,8,49,E5,0E,22,41,E5,AE,8D,
11628216,0090411E,true,Rx,0,8,42,21,E5,B8,03,00,00,00,
11628506,0100082C,true,Rx,0,8,0F,C0,8E,3F,65,FA,00,00,
11628777,0110483C,true,Rx,0,8,08,E7,62,00,44,66,FC,52,
11629056,02000026,true,Rx,0,8,7F,34,00,DC,4D,00,E0,AC,
11629348,02104136,true,Rx,0,8,BB,00,3F,FF,07,E0,00,00,
11629617,02804026,true,Rx,0,8,37,FF,74,88,F7,63,0D,FD,
11629905,02C00020,true,Rx,0,8,00,00,00,00,00,02,75,81,
11630186,0300410E,true,Rx,0,8,B8,38,B8,2A,87,D3,FC,00,
11630467,0340412E,true,Rx,0,8,71,80,00,ED,80,00,00,00,
11630746,03800006,true,Rx,0,8,18,00,9B,CF,58,77,06,A6,
11631037,19A00002,true,Rx,0,8,12,00,00,00,00,00,00,F7,
11637775,0100082C,true,Rx,0,8,0F,C0,8E,3F,65,FA,00,00,
11638061,0110483C,true,Rx,0,8,08,E7,E2,00,44,66,FC,52,
11638341,0300410E,true,Rx,0,8,B8,34,38,2A,87,D2,FC,00,
11638622,19E00006,true,Rx,0,8,00,00,18,E0,67,00,40,00,
11638901,1B700030,true,Rx,0,8,25,8E,22,00,00,C0,03,00,
11639191,0340412E,true,Rx,0,8,72,80,00,DD,80,00,00,00,
11639472,19000026,true,Rx,0,8,00,FF,01,40,38,11,84,00,
11641706,01C04026,true,Rx,0,8,80,00,80,00,80,00,80,00,
11641992,02000026,true,Rx,0,8,7F,34,00,DC,4D,00,E0,AC,
11642271,02104136,true,Rx,0,8,BB,00,3F,FF,07,E0,00,00,
11642553,02804026,true,Rx,0,8,37,FF,74,E7,F7,63,0D,FF,
11642843,02C00020,true,Rx,0,8,00,00,00,00,00,02,75,81,
11647806,00800006,true,Rx,0,8,89,E5,0E,1F,41,E5,2E,8E,
11648091,0090411E,true,Rx,0,8,82,10,E5,C9,03,00,00,00,
11648383,0100082C,true,Rx,0,8,0F,C0,8E,3F,65,FA,00,00,
11648653,0110483C,true,Rx,0,8,08,E7,62,00,44,66,FC,52,
11648933,0300410E,true,Rx,0,8,38,34,B8,2A,07,D2,6C,00,
11649223,0340412E,true,Rx,0,8,73,80,00,CD,80,00,00,00,
11649494,03800006,true,Rx,0,8,58,00,9B,CF,58,77,06,A6,
11653883,19000026,true,Rx,0,8,00,FF,01,40,38,11,8C,00,
11655704,01C04026,true,Rx,0,8,80,00,80,00,80,00,80,00,
11655980,02000026,true,Rx,0,8,7F,34,00,DC,4D,00,E0,AC,
11656260,02104136,true,Rx,0,8,BB,00,3F,FF,07,E0,00,00,
11656541,02804026,true,Rx,0,8,37,FF,75,46,F7,63,0D,FD,
11656830,02C00020,true,Rx,0,8,00,00,00,00,00,02,75,81,
11657121,19A00002,true,Rx,0,8,02,00,00,00,00,00,00,F7,
11657845,0300410E,true,Rx,0,8,B8,34,38,2A,87,D2,FC,00,
11658131,0100082C,true,Rx,0,8,0F,C0,8E,3F,75,FA,00,00,
11658411,0110483C,true,Rx,0,8,08,E7,62,00,44,66,FC,52,
11659103,0340412E,true,Rx,0,8,74,80,00,BD,80,00,00,00,
11667763,0100082C,true,Rx,0,8,0F,C0,8E,3F,65,FA,00,00,
11668049,00800006,true,Rx,0,8,C1,E5,0E,1C,41,E5,2E,8D,
11668329,0090411E,true,Rx,0,8,02,10,65,C9,03,00,00,00,
11668610,0110483C,true,Rx,0,8,08,E7,62,00,44,66,FC,52,
11668889,0300410E,true,Rx,0,8,B8,2F,38,2A,87,D2,FC,00,
11669169,0340412E,true,Rx,0,8,75,80,00,AD,80,00,00,00,
11669440,03800006,true,Rx,0,8,18,00,9B,CF,58,77,06,A6,
11669730,01C04026,true,Rx,0,8,80,00,80,00,80,00,80,00,
11670009,02000026,true,Rx,0,8,7F,34,00,DC,4D,00,E0,AC,
11670298,02104136,true,Rx,0,8,BB,00,3F,FF,07,E0,00,00,
11670579,02804026,true,Rx,0,8,37,FF,75,A5,F7,63,0D,FD,
11670870,02C00020,true,Rx,0,8,00,00,00,00,00,02,75,81,
11671149,19000026,true,Rx,0,8,00,FF,01,40,38,11,84,00,
11671846,1B200002,true,Rx,0,8,00,00,00,00,00,00,0F,71,
11677801,0100082C,true,Rx,0,8,0F,C0,8E,3F,65,FA,00,00,
11678076,0110483C,true,Rx,0,8,08,E7,62,00,44,66,FC,52,
11678357,0300410E,true,Rx,0,8,38,2F,B8,2A,07,D2,6C,00,
11679058,0340412E,true,Rx,0,8,76,80,00,9D,80,00,00,00,
11683698,01C04026,true,Rx,0,8,80,00,80,00,80,00,80,00,
11683974,02000026,true,Rx,0,8,7F,34,00,DC,4D,00,E0,AC,
11684254,02104136,true,Rx,0,8,BB,00,3F,FF,07,E0,00,00,
11684534,02804026,true,Rx,0,8,37,FF,76,05,F7,63,0D,FA,
11684825,02C00020,true,Rx,0,8,00,00,00,00,00,02,75,81,
11685114,19000026,true,Rx,0,8,00,FF,01,40,38,11,8C,00,
11685406,19A00002,true,Rx,0,8,12,00,00,00,00,00,00,F7,
11687878,00800006,true,Rx,0,8,09,E5,0E,1A,41,E5,AE,8E,
11688153,0090411E,true,Rx,0,8,42,0B,E5,D1,03,00,00,00,
11688446,0100082C,true,Rx,0,8,0F,C0,8E,3F,65,FA,00,00,
11688725,0110483C,true,Rx,0,8,08,E7,E2,00,44,66,FC,52,
11689004,0300410E,true,Rx,0,8,B8,2A,38,2B,87,D2,FC,00,
11689285,0340412E,true,Rx,0,8,77,80,00,8D,80,00,00,00,
11689565,03800006,true,Rx,0,8,18,00,9B,CF,58,77,06,A6,
11689855,19E00006,true,Rx,0,8,00,00,18,C0,67,00,40,00,
11697658,01C04026,true,Rx,0,8,80,00,80,00,80,00,80,00,
11697944,0100082C,true,Rx,0,8,0F,C0,8E,3F,65,FA,00,00,
11698223,0110483C,true,Rx,0,8,08,E7,62,00,44,66,FC,52,
11698495,02000026,true,Rx,0,8,7F,34,00,DC,4D,00,E0,AC,
11698784,02104136,true,Rx,0,8,BB,00,3F,FF,07,E0,00,00,
11699063,02804026,true,Rx,0,8,37,FF,76,64,F7,63,0D,FA,
11699345,02C00020,true,Rx,0,8,00,00,00,00,00,02,75,81,
11699635,0300410E,true,Rx,0,8,38,2A,38,2B,07,D2,6C,00,
11699912,0340412E,true,Rx,0,8,78,80,00,7D,80,00,00,00,
11700203,19000026,true,Rx,0,8,00,FF,01,40,38,11,84,00,
11707800,0100082C,true,Rx,0,8,0F,C0,8E,3F,65,FA,00,00,
11708076,00800006,true,Rx,0,8,49,E5,0E,18,41,E5,2E,8E,
11708347,0090411E,true,Rx,0,8,02,14,E5,E6,03,00,00,00,
11708627,0110483C,true,Rx,0,8,08,E7,62,00,44,66,FC,52,
11708907,0300410E,true,Rx,0,8,B8,27,B8,2B,87,D2,FC,00,
11709197,0340412E,true,Rx,0,8,79,80,00,6D,80,00,00,00,
11709468,03800006,true,Rx,0,8,18,00,9B,CF,58,77,06,A6,
11711702,01C04026,true,Rx,0,8,80,00,80,00,80,00,80,00,
11711987,02000026,true,Rx,0,8,7F,34,00,DC,4D,00,E0,AC,
11712268,02104136,true,Rx,0,8,BB,00,3F,FF,07,E0,00,00,
11712548,02804026,true,Rx,0,8,37,FF,76,C3,F7,63,0D,FD,
11712838,02C00020,true,Rx,0,8,00,00,00,00,00,02,75,81,
11713118,19A00002,true,Rx,0,8,6E,00,00,00,00,00,00,F7,
11713399,1BA0493C,true,Rx,0,8,01,03,02,09,01,03,04,02,
11713678,1BE0493C,true,Rx,0,8,01,10,2A,6D,D6,A6,02,04,
11713967,19000026,true,Rx,0,8,00,FF,01,40,38,11,8C,00,
11717890,0300410E,true,Rx,0,8,B8,23,38,2B,87,D2,FC,00,
11718186,0100082C,true,Rx,0,8,0F,C0,8E,3F,65,FA,00,00,
11718458,0110483C,true,Rx,0,8,08,E7,62,00,44,66,FC,52,
11719066,0340412E,true,Rx,0,8,7A,80,00,5D,80,00,00,00,
11725675,01C04026,true,Rx,0,8,80,00,80,00,80,00,80,00,
11725950,02000026,true,Rx,0,8,7F,34,00,DC,4D,00,E0,AC,
11726241,02104136,true,Rx,0,8,BB,00,3F,FF,07,E0,00,00,
11726521,02804026,true,Rx,0,8,37,FF,77,23,F7,63,0D,FF,
11726811,02C00020,true,Rx,0,8,00,00,00,00,00,02,75,81,
11727908,00800006,true,Rx,0,8,81,E5,0E,15,41,E5,AE,8E,
11728187,0090411E,true,Rx,0,8,42,14,65,E6,03,00,00,00,
11728479,0100082C,true,Rx,0,8,0F,C0,8E,3F,65,FA,00,00,
11728758,0110483C,true,Rx,0,8,08,E7,62,00,44,66,FC,52,
11729037,0300410E,true,Rx,0,8,38,23,38,2C,07,D2,6C,00,
11729319,0340412E,true,Rx,0,8,7B,80,00,4D,80,00,00,00,
11729598,03800006,true,Rx,0,8,18,00,9B,CF,58,77,06,A6,
11729876,19000026,true,Rx,0,8,00,FF,01,40,38,11,84,00,
11737780,0100082C,true,Rx,0,8,0F,C0,8E,3F,65,FA,00,00,
11738066,0110483C,true,Rx,0,8,08,E7,E2,00,44,66,FC,52,
11738348,0300410E,true,Rx,0,8,B8,22,B8,2C,87,D2,FC,00,
11738627,19E00006,true,Rx,0,8,00,00,18,E0,67,00,40,00,
11739071,0340412E,true,Rx,0,8,7C,80,00,3D,80,00,00,00,
11739691,01C04026,true,Rx,0,8,80,00,80,00,80,00,80,00,
11739966,02000026,true,Rx,0,8,7F,34,00,DC,4D,00,E0,AC,
11740256,02104136,true,Rx,0,8,BB,00,3F,FF,07,E0,00,00,
11740527,02804026,true,Rx,0,8,37,FF,77,6B,F7,63,0D,FD,
11740818,02C00020,true,Rx,0,8,00,00,00,00,00,02,75,81,
11741108,19A00002,true,Rx,0,8,12,00,00,00,00,00,00,F7,
11743887,19000026,true,Rx,0,8,00,FF,01,40,38,11,8C,00,
11747904,0100082C,true,Rx,0,8,0F,C0,8E,3F,75,FA,00,00,
11748179,00800006,true,Rx,0,8,C9,E4,0E,13,41,E4,2E,8E,
11748461,0090411E,true,Rx,0,8,82,03,E5,E8,04,00,00,00,
11748740,0110483C,true,Rx,0,8,08,E7,62,00,44,66,FC,52,
11749020,0300410E,true,Rx,0,8,B8,20,38,2C,87,D1,FC,00,
11749300,0340412E,true,Rx,0,8,7D,80,00,2D,80,00,00,00,
11749581,03800006,true,Rx,0,8,58,00,9B,CF,58,77,06,A6,
11753701,01C04026,true,Rx,0,8,80,00,80,00,80,00,80,00,
11753976,02000026,true,Rx,0,8,7F,34,00,DC,4D,00,E0,AC,
11754266,02104136,true,Rx,0,8,BB,00,3F,FF,07,E0,00,00,
11754547,02804026,true,Rx,0,8,37,FF,77,97,F7,63,0D,FD,
11754837,02C00020,true,Rx,0,8,00,00,00,00,00,02,75,81,
11756810,1B200002,true,Rx,0,8,00,00,00,00,00,00,0F,71,
11757941,0300410E,true,Rx,0,8,38,20,38,2C,07,D1,6C,00,
11758230,0100082C,true,Rx,0,8,0F,C0,8E,3F,65,FA,00,00,
11758512,0110483C,true,Rx,0,8,08,E7,62,00,44,66,FC,52,
11759007,0340412E,true,Rx,0,8,7E,80,00,1D,80,00,00,00,
11759288,19000026,true,Rx,0,8,00,FF,01,40,38,11,84,00,
11767635,01C04026,true,Rx,0,8,80,00,80,00,80,00,80,00,
11767921,0100082C,true,Rx,0,8,0F,C0,8E,3F,65,FA,00,00,
11768200,00800006,true,Rx,0,8,09,E4,0E,11,41,E4,2E,8E,
11768482,0090411E,true,Rx,0,8,01,F2,E5,DB,04,00,00,00,
11768761,0110483C,true,Rx,0,8,08,E7,62,00,44,66,FC,52,
11769041,02000026,true,Rx,0,8,7F,34,00,DC,4D,00,E0,AC,
11769333,02104136,true,Rx,0,8,BB,00,3F,FF,07,E0,00,00,
11769602,02804026,true,Rx,0,8,37,FF,77,B5,F7,63,0D,FD,
11769891,02C00020,true,Rx,0,8,00,00,00,00,00,02,75,81,
11770170,0300410E,true,Rx,0,8,B8,1C,B8,2C,87,D1,FC,00,
