Time Stamp,ID,Extended,Dir,Bus,LEN,D1,D2,D3,D4,D5,D6,D7,D8
5856116,0100082C,true,Rx,0,8,0F,C0,8E,3F,61,FE,00,63,
5856403,0110483C,true,Rx,0,8,00,C1,00,00,80,66,D8,53,
5856693,1A200020,true,Rx,0,8,2C,00,02,2D,00,00,02,30,
5856973,1AE0092C,true,Rx,0,8,A0,00,22,20,01,A0,00,00,
5857263,1B700030,true,Rx,0,8,2C,8E,24,00,00,00,03,00,
5866061,0100082C,true,Rx,0,8,0F,C0,8E,3F,65,FE,00,63,
5866337,0110483C,true,Rx,0,8,08,E1,20,08,44,66,FC,53,
5876085,0100082C,true,Rx,0,8,0F,C0,8E,3F,65,FE,00,63,
5876363,0110483C,true,Rx,0,8,08,E1,20,00,44,66,FC,53,
5886048,0100082C,true,Rx,0,8,0F,C0,8E,3F,65,FE,00,63,
5886336,0110483C,true,Rx,0,8,08,E1,A0,00,44,66,FC,52,
5896063,0100082C,true,Rx,0,8,0F,C0,8E,3F,65,FE,00,63,
5896339,0110483C,true,Rx,0,8,08,E1,20,00,44,66,FC,53,
5906057,0100082C,true,Rx,0,8,0F,C0,8E,3F,65,FE,00,63,
5906344,0110483C,true,Rx,0,8,08,E1,20,00,44,66,FC,52,
5916094,0100082C,true,Rx,0,8,0F,C0,8E,3F,65,FE,00,63,
5916370,0110483C,true,Rx,0,8,08,E1,20,00,44,66,FC,52,
5926077,0100082C,true,Rx,0,8,0F,C0,8E,3F,65,FE,00,63,
5926354,0110483C,true,Rx,0,8,08,E1,20,00,44,66,FC,52,
5936060,0100082C,true,Rx,0,8,0F,C0,8E,3F,65,FE,00,63,
5936336,0110483C,true,Rx,0,8,08,E1,A0,00,44,66,FC,52,
5942187,00800006,true,Rx,0,8,60,00,00,00,00,00,00,00,
5942484,0090411E,true,Rx,0,8,00,00,00,00,00,00,00,00,
5942775,0300410E,true,Rx,0,8,00,00,00,00,00,00,00,00,
5943075,03800006,true,Rx,0,8,00,00,00,00,00,00,00,00,
5943366,19E00006,true,Rx,0,8,00,00,00,C0,00,00,00,00,
5943667,1B600002,true,Rx,0,8,00,00,00,00,00,00,00,00,
5944090,0300410E,true,Rx,0,8,00,00,00,00,00,00,00,00,
5946098,00800006,true,Rx,0,8,80,00,00,00,00,00,00,00,
5946385,0090411E,true,Rx,0,8,00,00,00,00,00,00,00,00,
5946676,0100082C,true,Rx,0,8,0F,C0,8E,3F,65,FE,00,63,
5946955,0110483C,true,Rx,0,8,08,E1,20,00,44,66,FC,52,
5947245,0300410E,true,Rx,0,8,00,00,00,00,00,00,00,00,
5947537,03800006,true,Rx,0,8,00,00,00,00,00,00,00,00,
5948093,0300410E,true,Rx,0,8,00,00,00,00,00,00,00,00,
5956059,0100082C,true,Rx,0,8,0F,C0,8E,3F,65,FE,00,63,
5956336,0110483C,true,Rx,0,8,08,E1,20,00,44,66,FC,52,
5958106,00800006,true,Rx,0,8,C9,E0,0D,E0,41,E0,A6,30,
5958386,0090411E,true,Rx,0,8,C2,00,E0,00,00,00,00,00,
5958666,0300410E,true,Rx,0,8,B7,CA,98,33,87,CA,FC,00,
5958957,03800006,true,Rx,0,8,70,00,00,00,00,00,00,00,
5966062,0100082C,true,Rx,0,8,0F,C0,8E,3F,75,FE,00,63,
5966349,0110483C,true,Rx,0,8,08,E1,20,00,44,66,FC,52,
5968109,0300410E,true,Rx,0,8,B7,D4,18,33,87,D5,FC,00,
5968399,19E00006,true,Rx,0,8,00,00,18,E0,66,00,40,00,
5976087,0100082C,true,Rx,0,8,0F,C0,8E,3F,65,FE,00,63,
5976364,0110483C,true,Rx,0,8,08,E1,20,00,44,66,FC,52,
5978117,00800006,true,Rx,0,8,01,E6,0D,E6,41,E6,26,73,
5978406,0090411E,true,Rx,0,8,02,00,60,00,00,00,00,00,
5978696,0300410E,true,Rx,0,8,37,D4,18,33,07,D5,6C,00,
5978987,03800006,true,Rx,0,8,30,00,00,00,00,00,00,00,
5986048,0100082C,true,Rx,0,8,0F,C0,8E,3F,65,FE,00,63,
5986334,0110483C,true,Rx,0,8,08,E1,A0,00,44,66,FC,52,
5988125,0300410E,true,Rx,0,8,B7,DE,98,33,87,DE,FC,00,
5996059,0100082C,true,Rx,0,8,0F,C0,8E,3F,65,FE,00,63,
5996335,0110483C,true,Rx,0,8,08,E1,20,00,44,66,FC,52,
5998136,00800006,true,Rx,0,8,49,EC,0D,EC,41,EC,26,6B,
5998426,0090411E,true,Rx,0,8,02,00,E0,00,00,00,00,00,
5998706,0300410E,true,Rx,0,8,37,DE,18,33,07,DE,6C,00,
5998996,03800006,true,Rx,0,8,30,00,00,00,00,00,00,00,
6006071,0100082C,true,Rx,0,8,0F,C0,8E,3F,65,FE,00,63,
6006358,0110483C,true,Rx,0,8,08,E1,20,00,44,66,FC,52,
6008138,0300410E,true,Rx,0,8,B7,DE,18,F1,87,DE,FC,00,
6016052,0100082C,true,Rx,0,8,0F,C0,8E,3F,65,FE,00,63,
6016328,0110483C,true,Rx,0,8,08,E1,20,00,44,66,FC,52,
6018150,00800006,true,Rx,0,8,89,EC,0D,EC,41,EC,A6,6E,
6018441,0090411E,true,Rx,0,8,42,00,E0,00,00,00,00,00,
6018709,0300410E,true,Rx,0,8,B7,DE,98,F1,87,DE,FC,00,
6019011,03800006,true,Rx,0,8,30,00,00,00,00,00,00,00,
6019300,19E00006,true,Rx,0,8,00,00,18,C0,66,00,40,00,
6026068,0100082C,true,Rx,0,8,0F,C0,8E,3F,65,FE,00,63,
6026355,0110483C,true,Rx,0,8,08,E1,20,00,44,66,FC,52,
6028166,0300410E,true,Rx,0,8,37,DE,18,F1,07,DE,6C,00,
6036058,0100082C,true,Rx,0,8,0F,C0,8E,3F,65,FE,00,63,
6036335,0110483C,true,Rx,0,8,08,E1,A0,00,44,66,FC,52,
6038177,00800006,true,Rx,0,8,C1,EC,0D,EC,41,EC,26,6E,
6038468,0090411E,true,Rx,0,8,02,00,60,00,00,00,00,00,
6038748,0300410E,true,Rx,0,8,B7,DE,18,F1,87,DE,FC,00,
6039048,03800006,true,Rx,0,8,30,00,00,00,00,00,00,00,
6046062,0100082C,true,Rx,0,8,0F,C0,8E,3F,65,FE,00,65,
6046339,0110483C,true,Rx,0,8,08,E2,20,00,44,66,FC,52,
6048213,0300410E,true,Rx,0,8,B7,DE,98,F1,87,DE,FC,00,
6056043,0100082C,true,Rx,0,8,0F,C0,8E,3F,75,FE,00,65,
6056330,0110483C,true,Rx,0,8,08,E2,20,00,44,66,FC,52,
6058192,00800006,true,Rx,0,8,09,EC,0D,EC,41,EC,A6,6E,
6058483,0090411E,true,Rx,0,8,C2,00,E0,00,00,00,00,00,
6058764,0300410E,true,Rx,0,8,37,DE,18,F1,07,DE,6C,00,
6059053,03800006,true,Rx,0,8,70,00,00,00,00,00,00,00,
6061139,1BA0493C,true,Rx,0,8,02,01,05,02,03,01,01,02,
6061420,1BE0493C,true,Rx,0,8,02,4A,8C,00,3C,04,19,24,
6066077,0100082C,true,Rx,0,8,0F,C0,8E,3F,65,FE,00,65,
6066353,0110483C,true,Rx,0,8,08,E2,20,00,44,66,FC,52,
6066644,1B700030,true,Rx,0,8,2C,8E,24,00,00,C0,03,00,
6068209,0300410E,true,Rx,0,8,B7,DE,18,F1,87,DE,FC,00,
6068490,19E00006,true,Rx,0,8,00,00,18,E0,67,00,40,00,
6076087,0100082C,true,Rx,0,8,0F,C0,8E,3F,65,FE,00,65,
6076375,0110483C,true,Rx,0,8,08,E2,20,00,44,66,FC,52,
6078216,00800006,true,Rx,0,8,49,EC,0D,EC,41,EC,26,6E,
6078506,0090411E,true,Rx,0,8,02,00,E0,00,00,00,00,00,
6078787,0300410E,true,Rx,0,8,37,DE,98,F1,07,DE,6C,00,
6079087,03800006,true,Rx,0,8,30,00,00,00,00,00,00,00,
6086089,0100082C,true,Rx,0,8,0F,C0,8E,3F,65,FE,00,65,
6086367,0110483C,true,Rx,0,8,08,E2,A0,00,44,66,FC,52,
6088228,0300410E,true,Rx,0,8,B7,DE,18,F1,87,DE,FC,00,
6088519,1B600002,true,Rx,0,8,00,80,00,40,00,1B,4C,00,
6096083,0100082C,true,Rx,0,8,0F,C0,8E,3F,65,FE,00,65,
6096371,0110483C,true,Rx,0,8,08,E2,20,00,44,66,FC,52,
6098233,00800006,true,Rx,0,8,81,EC,0D,EC,41,EC,26,6E,
6098524,0090411E,true,Rx,0,8,02,00,60,00,00,00,00,00,
6098804,0300410E,true,Rx,0,8,B7,DE,18,F1,87,DE,FC,00,
6099104,03800006,true,Rx,0,8,30,00,00,00,00,00,00,00,
6106056,0100082C,true,Rx,0,8,0F,C0,8E,3F,65,FE,00,65,
6106334,0110483C,true,Rx,0,8,08,E2,20,00,44,66,FC,52,
6108247,0300410E,true,Rx,0,8,37,DE,98,F1,07,DE,6C,00,
6116058,0100082C,true,Rx,0,8,0F,C0,8E,3F,65,FE,00,65,
6116335,0110483C,true,Rx,0,8,08,E2,20,00,44,66,FC,52,
6118258,00800006,true,Rx,0,8,C9,EC,0D,EC,41,EC,A6,6E,
6118539,0090411E,true,Rx,0,8,42,00,E0,00,00,00,00,00,
6118819,0300410E,true,Rx,0,8,B7,DE,18,F1,87,DE,FC,00,
6119119,03800006,true,Rx,0,8,30,00,00,00,00,00,00,00,
6119401,19E00006,true,Rx,0,8,00,00,18,C0,67,00,40,00,
6126084,0100082C,true,Rx,0,8,0F,C0,8E,3F,65,FE,00,65,
6126363,0110483C,true,Rx,0,8,08,E2,20,00,44,66,FC,52,
6128328,0300410E,true,Rx,0,8,B7,DE,18,F1,87,DE,FC,00,
6136044,0100082C,true,Rx,0,8,0F,C0,8E,3F,65,FE,00,65,
6136322,0110483C,true,Rx,0,8,08,E2,A0,00,44,66,FC,52,
6138275,00800006,true,Rx,0,8,09,EC,0D,EC,41,EC,26,6E,
6138566,0090411E,true,Rx,0,8,02,00,E0,00,00,00,00,00,
6138846,0300410E,true,Rx,0,8,37,DE,98,F1,07,DE,6C,00,
6139146,03800006,true,Rx,0,8,30,00,00,00,00,00,00,00,
6146057,0100082C,true,Rx,0,8,0F,C0,8E,3F,75,FE,00,65,
6146344,0110483C,true,Rx,0,8,08,E2,20,00,44,66,FC,52,
6148288,0300410E,true,Rx,0,8,B7,DE,18,F1,87,DE,FC,00,
6156058,0100082C,true,Rx,0,8,0F,C0,8E,3F,65,FE,00,65,
6156347,0110483C,true,Rx,0,8,08,E2,20,00,44,66,FC,52,
6158300,00800006,true,Rx,0,8,41,EC,0D,EC,41,EC,A6,6E,
6158592,0090411E,true,Rx,0,8,C2,00,60,00,00,00,00,00,
6158872,0300410E,true,Rx,0,8,37,DE,18,F1,07,DE,6C,00,
6159161,03800006,true,Rx,0,8,70,00,00,00,00,00,00,00,
6166062,0100082C,true,Rx,0,8,0F,C0,8E,3F,65,FE,00,65,
6166339,0110483C,true,Rx,0,8,08,E2,20,00,44,66,FC,52,
6168303,0300410E,true,Rx,0,8,B7,DE,98,F1,87,DE,FC,00,
6168585,19E00006,true,Rx,0,8,00,00,18,E0,67,00,40,00,
6171139,1A200020,true,Rx,0,8,4E,00,02,2D,00,00,02,30,
6176083,0100082C,true,Rx,0,8,0F,C0,8E,3F,65,FE,00,65,
6176371,0110483C,true,Rx,0,8,08,E2,20,00,44,66,FC,52,
6178317,00800006,true,Rx,0,8,89,EC,0D,EC,41,EC,26,6E,
6178598,0090411E,true,Rx,0,8,02,00,E0,00,00,00,00,00,
6178877,0300410E,true,Rx,0,8,B7,DE,18,F1,87,DE,FC,00,
6179177,03800006,true,Rx,0,8,30,00,00,00,00,00,00,00,
6186077,0100082C,true,Rx,0,8,0F,C0,8E,3F,65,FE,00,65,
6186354,0110483C,true,Rx,0,8,08,E2,A0,00,44,66,FC,52,
6188330,0300410E,true,Rx,0,8,37,DE,18,F1,07,DE,6C,00,
6196077,0100082C,true,Rx,0,8,0F,C0,8E,3F,65,FE,00,65,
6196355,0110483C,true,Rx,0,8,08,E2,20,00,44,66,FC,52,
6198340,00800006,true,Rx,0,8,C9,EC,0D,EC,41,EC,26,6E,
6198621,0090411E,true,Rx,0,8,02,00,E0,00,00,00,00,00,
6198900,0300410E,true,Rx,0,8,B7,DE,98,F1,87,DE,FC,00,
6199200,03800006,true,Rx,0,8,30,00,00,00,00,00,00,00,
6206079,0100082C,true,Rx,0,8,0F,C0,8E,3F,65,FE,00,65,
6206357,0110483C,true,Rx,0,8,08,E2,20,00,44,66,FC,52,
6208404,0300410E,true,Rx,0,8,B7,DE,18,F1,87,DE,FC,00,
6216070,0100082C,true,Rx,0,8,0F,C0,8E,3F,65,FE,00,65,
6216347,0110483C,true,Rx,0,8,08,E2,20,00,44,66,FC,52,
6218364,00800006,true,Rx,0,8,01,EC,0D,EC,41,EC,A6,6E,
6218654,0090411E,true,Rx,0,8,42,00,60,00,00,00,00,00,
6218923,0300410E,true,Rx,0,8,37,DE,18,F1,07,DE,6C,00,
6219224,03800006,true,Rx,0,8,30,00,00,00,00,00,00,00,
6219515,19E00006,true,Rx,0,8,00,00,18,C0,67,00,40,00,
6226077,0100082C,true,Rx,0,8,0F,C0,8E,3F,65,FE,00,65,
6226355,0110483C,true,Rx,0,8,08,E2,20,00,44,66,FC,52,
6228361,0300410E,true,Rx,0,8,B7,DE,98,F1,87,DE,FC,00,
6236056,0100082C,true,Rx,0,8,0F,C0,8E,3F,75,FE,00,65,
6236334,0110483C,true,Rx,0,8,08,E2,A0,00,44,66,FC,52,
6238371,00800006,true,Rx,0,8,49,EC,0D,EC,41,EC,26,6E,
6238662,0090411E,true,Rx,0,8,02,00,E0,00,00,00,00,00,
6238941,0300410E,true,Rx,0,8,37,DE,18,F1,07,DE,6C,00,
6239242,03800006,true,Rx,0,8,30,00,00,00,00,00,00,00,
6246068,0100082C,true,Rx,0,8,0F,C0,8E,3F,65,FE,00,65,
6246347,0110483C,true,Rx,0,8,08,E2,20,00,44,66,FC,52,
6248384,0300410E,true,Rx,0,8,B7,DE,18,F1,87,DE,FC,00,
6256049,0100082C,true,Rx,0,8,0F,C0,8E,3F,65,FE,00,65,
6256337,0110483C,true,Rx,0,8,08,E2,20,00,44,66,FC,52,
6258396,00800006,true,Rx,0,8,89,EC,0D,EC,41,EC,A6,6E,
6258686,0090411E,true,Rx,0,8,C2,00,E0,00,00,00,00,00,
6258955,0300410E,true,Rx,0,8,B7,DE,98,F1,87,DE,FC,00,
6259256,03800006,true,Rx,0,8,70,00,00,00,00,00,00,00,
6259548,1B600002,true,Rx,0,8,00,80,00,40,00,1B,4C,00,
6266058,0100082C,true,Rx,0,8,0F,C0,8E,3F,65,FE,00,65,
6266344,0110483C,true,Rx,0,8,08,E2,20,00,44,66,FC,52,
6268403,0300410E,true,Rx,0,8,37,DE,18,F1,07,DE,6C,00,
6268693,19E00006,true,Rx,0,8,00,00,18,E0,67,00,40,00,
6276136,0100082C,true,Rx,0,8,0F,C0,8E,3F,65,FE,00,65,
6276412,0110483C,true,Rx,0,8,08,E2,20,00,44,66,FC,52,
6276702,1AE0092C,true,Rx,0,8,C0,00,22,E0,41,A0,00,00,
6276982,1B700030,true,Rx,0,8,2C,8E,24,00,00,C0,03,00,
6278428,00800006,true,Rx,0,8,C1,EC,0D,EC,41,EC,26,6E,
6278717,0090411E,true,Rx,0,8,02,00,60,00,00,00,00,00,
6278997,0300410E,true,Rx,0,8,B7,DE,18,F1,87,DE,FC,00,
6279298,03800006,true,Rx,0,8,30,00,00,00,00,00,00,00,
6286053,0100082C,true,Rx,0,8,0F,C0,8E,3F,65,FE,00,65,
6286329,0110483C,true,Rx,0,8,08,E2,A0,00,44,66,FC,52,
6288480,0300410E,true,Rx,0,8,B7,DE,98,F1,87,DE,FC,00,
6296063,0100082C,true,Rx,0,8,0F,C0,8E,3F,65,FE,00,65,
6296340,0110483C,true,Rx,0,8,08,E2,20,00,44,66,FC,52,
6298440,00800006,true,Rx,0,8,09,EC,0D,EC,41,EC,26,6E,
6298729,0090411E,true,Rx,0,8,02,00,E0,00,00,00,00,00,
6298998,0300410E,true,Rx,0,8,37,DE,18,F1,07,DE,6C,00,
6299299,03800006,true,Rx,0,8,30,00,00,00,00,00,00,00,
6306055,0100082C,true,Rx,0,8,0F,C0,8E,3F,65,FE,00,65,
6306332,0110483C,true,Rx,0,8,08,E2,20,00,44,66,FC,52,
6308442,0300410E,true,Rx,0,8,B7,DE,18,F1,87,DE,FC,00,
6311087,1BA0493C,true,Rx,0,8,03,03,02,01,02,02,01,02,
6316062,0100082C,true,Rx,0,8,0F,C0,8E,3F,65,FE,00,65,
6316339,0110483C,true,Rx,0,8,08,E2,20,00,44,66,FC,52,
6318459,00800006,true,Rx,0,8,49,EC,0D,EC,41,EC,A6,6E,
6318739,0090411E,true,Rx,0,8,42,00,E0,00,00,00,00,00,
6319018,0300410E,true,Rx,0,8,37,DE,98,F1,07,DE,6C,00,
6319320,03800006,true,Rx,0,8,30,00,00,00,00,00,00,00,
6319610,19E00006,true,Rx,0,8,00,00,18,C0,67,00,40,00,
6326079,0100082C,true,Rx,0,8,0F,C0,8E,3F,75,FE,00,65,
6326355,0110483C,true,Rx,0,8,08,E2,20,00,44,66,FC,52,
6328466,0300410E,true,Rx,0,8,B7,DE,18,F1,87,DE,FC,00,
6336059,0100082C,true,Rx,0,8,0F,C0,8E,3F,65,FE,00,65,
6336347,0110483C,true,Rx,0,8,08,E2,A0,00,44,66,FC,52,
6338477,00800006,true,Rx,0,8,81,EC,0D,EC,41,EC,26,6E,
6338767,0090411E,true,Rx,0,8,02,00,60,00,00,00,00,00,
6339037,0300410E,true,Rx,0,8,B7,DE,18,F1,87,DE,FC,00,
6339338,03800006,true,Rx,0,8,30,00,00,00,00,00,00,00,
6346074,0100082C,true,Rx,0,8,0F,C0,8E,3F,65,FE,00,65,
6346350,0110483C,true,Rx,0,8,08,E2,20,00,44,66,FC,52,
6348482,0300410E,true,Rx,0,8,37,DE,98,F1,07,DE,6C,00,
6356055,0100082C,true,Rx,0,8,0F,C0,8E,3F,65,FE,00,65,
6356332,0110483C,true,Rx,0,8,08,E2,20,00,44,66,FC,52,
6358493,00800006,true,Rx,0,8,C9,EC,0D,EC,41,EC,A6,6E,
6358783,0090411E,true,Rx,0,8,C2,00,E0,00,00,00,00,00,
6359053,0300410E,true,Rx,0,8,B7,DE,18,F1,87,DE,FC,00,
6359354,03800006,true,Rx,0,8,70,00,00,00,00,00,00,00,
6366089,0100082C,true,Rx,0,8,0F,C0,8E,3F,65,FE,00,65,
6366365,0110483C,true,Rx,0,8,08,E2,20,00,44,66,FC,52,
6368558,0300410E,true,Rx,0,8,B7,DE,18,F1,87,DE,FC,00,
6368847,19E00006,true,Rx,0,8,00,00,18,E0,67,00,40,00,
6376093,0100082C,true,Rx,0,8,0F,C0,8E,3F,65,FE,00,65,
6376369,0110483C,true,Rx,0,8,08,E2,20,00,44,66,FC,52,
6378521,00800006,true,Rx,0,8,09,EC,0D,EC,41,EC,26,6E,
6378801,0090411E,true,Rx,0,8,02,00,E0,00,00,00,00,00,
6379081,0300410E,true,Rx,0,8,37,DE,98,F1,07,DE,6C,00,
6379383,03800006,true,Rx,0,8,30,00,00,00,00,00,00,00,
6386065,0100082C,true,Rx,0,8,0F,C0,8E,3F,65,FE,00,65,
6386342,0110483C,true,Rx,0,8,08,E2,A0,00,44,66,FC,52,
6388524,0300410E,true,Rx,0,8,B7,DE,18,F1,87,DE,FC,00,
6396077,0100082C,true,Rx,0,8,0F,C0,8E,3F,65,FE,00,65,
6396354,0110483C,true,Rx,0,8,08,E2,20,00,44,66,FC,52,
6398538,00800006,true,Rx,0,8,41,EC,0D,EC,41,EC,26,6E,
6398826,0090411E,true,Rx,0,8,02,00,60,00,00,00,00,00,
6399107,0300410E,true,Rx,0,8,37,DE,18,F1,07,DE,6C,00,
6399408,03800006,true,Rx,0,8,30,00,00,00,00,00,00,00,
6406080,0100082C,true,Rx,0,8,0F,C0,8E,3F,65,FE,00,65,
6406367,0110483C,true,Rx,0,8,08,E2,20,00,44,66,FC,52,
6408539,0300410E,true,Rx,0,8,B7,DE,98,F1,87,DE,FC,00,
6416070,0100082C,true,Rx,0,8,0F,C0,8E,3F,65,FE,00,65,
6416347,0110483C,true,Rx,0,8,08,E2,20,00,44,66,FC,52,
6418549,00800006,true,Rx,0,8,89,EC,0D,EC,41,EC,A6,6E,
6418839,0090411E,true,Rx,0,8,42,00,E0,00,00,00,00,00,
6419120,0300410E,true,Rx,0,8,B7,DE,18,F1,87,DE,FC,00,
6419410,03800006,true,Rx,0,8,30,00,00,00,00,00,00,00,
6419701,19E00006,true,Rx,0,8,00,00,18,C0,67,00,40,00,
6426088,0100082C,true,Rx,0,8,0F,C0,8E,3F,65,FE,00,65,
6426364,0110483C,true,Rx,0,8,08,E2,20,00,44,66,FC,52,
6428568,0300410E,true,Rx,0,8,37,DE,18,F1,07,DE,6C,00,
6428858,1B600002,true,Rx,0,8,00,80,00,40,00,1B,4C,00,
6436062,0100082C,true,Rx,0,8,0F,C0,8E,3F,65,FE,00,65,
6436338,0110483C,true,Rx,0,8,08,E2,A0,00,44,66,FC,52,
6438573,00800006,true,Rx,0,8,C9,EC,0D,EC,41,EC,26,6E,
6438864,0090411E,true,Rx,0,8,02,00,E0,00,00,00,00,00,
6439133,0300410E,true,Rx,0,8,B7,DE,98,F1,87,DE,FC,00,
6439434,03800006,true,Rx,0,8,30,00,00,00,00,00,00,00,
6446067,0100082C,true,Rx,0,8,0F,C0,8E,3F,65,FE,00,65,
6446354,0110483C,true,Rx,0,8,08,E2,20,00,44,66,FC,52,
6448640,0300410E,true,Rx,0,8,B7,DE,18,F1,87,DE,FC,00,
6456193,0100082C,true,Rx,0,8,0F,C0,8E,3F,75,FE,00,65,
6456470,0110483C,true,Rx,0,8,08,E2,20,00,44,66,FC,52,
6458601,00800006,true,Rx,0,8,01,EC,0D,EC,41,EC,A6,6E,
6458892,0090411E,true,Rx,0,8,C2,00,60,00,00,00,00,00,
6459171,0300410E,true,Rx,0,8,37,DE,18,F1,07,DE,6C,00,
6459462,03800006,true,Rx,0,8,70,00,00,00,00,00,00,00,
6466072,0100082C,true,Rx,0,8,0F,C0,8E,3F,65,FE,00,65,
6466348,0110483C,true,Rx,0,8,08,E2,20,00,44,66,FC,52,
6468604,0300410E,true,Rx,0,8,B7,DE,98,F1,87,DE,FC,00,
6468884,19E00006,true,Rx,0,8,00,00,18,E0,67,00,40,00,
6476109,0100082C,true,Rx,0,8,0F,C0,8E,3F,65,FE,00,65,
6476385,0110483C,true,Rx,0,8,08,E2,20,00,44,66,FC,52,
6478619,00800006,true,Rx,0,8,49,EC,0D,EC,41,EC,26,6E,
6478900,0090411E,true,Rx,0,8,02,00,E0,00,00,00,00,00,
6479179,0300410E,true,Rx,0,8,37,DE,18,F1,07,DE,6C,00,
6479480,03800006,true,Rx,0,8,30,00,00,00,00,00,00,00,
6486090,0100082C,true,Rx,0,8,0F,C0,8E,3F,65,FE,00,65,
6486367,0110483C,true,Rx,0,8,08,E2,A0,00,44,66,FC,52,
6486647,1A200020,true,Rx,0,8,8E,00,02,2D,00,00,02,30,
6486937,1B700030,true,Rx,0,8,3C,8E,24,00,00,C0,03,00,
6488630,0300410E,true,Rx,0,8,B7,DE,18,F1,87,DE,FC,00,
6496079,0100082C,true,Rx,0,8,0F,C0,8E,3F,65,FE,00,65,
6496356,0110483C,true,Rx,0,8,08,E2,20,00,44,66,FC,52,
6498630,00800006,true,Rx,0,8,89,EC,0D,EC,41,EC,26,6E,
6498921,0090411E,true,Rx,0,8,02,00,E0,00,00,00,00,00,
6499200,0300410E,true,Rx,0,8,B7,DE,98,F1,87,DE,FC,00,
6499491,03800006,true,Rx,0,8,30,00,00,00,00,00,00,00,
6506062,0100082C,true,Rx,0,8,0F,C0,8E,3F,65,FE,00,65,
6506338,0110483C,true,Rx,0,8,08,E2,20,00,44,66,FC,52,
6508644,0300410E,true,Rx,0,8,37,DE,18,F1,07,DE,6C,00,
6516083,0100082C,true,Rx,0,8,0F,C0,8E,3F,65,FE,00,65,
6516360,0110483C,true,Rx,0,8,08,E2,20,00,44,66,FC,52,
6518655,00800006,true,Rx,0,8,C1,EC,0D,EC,41,EC,A6,6E,
6518946,0090411E,true,Rx,0,8,42,00,60,00,00,00,00,00,
6519226,0300410E,true,Rx,0,8,B7,DE,18,F1,87,DE,FC,00,
6519517,03800006,true,Rx,0,8,30,00,00,00,00,00,00,00,
6519807,19E00006,true,Rx,0,8,00,00,18,C0,67,00,40,00,
6526090,0100082C,true,Rx,0,8,0F,C0,8E,3F,65,FE,00,65,
6526368,0110483C,true,Rx,0,8,08,E2,20,00,44,66,FC,52,
6528726,0300410E,true,Rx,0,8,B7,DE,98,F1,87,DE,FC,00,
6536062,0100082C,true,Rx,0,8,0F,C0,8E,3F,65,FE,00,65,
6536338,0110483C,true,Rx,0,8,08,E2,A0,00,44,66,FC,52,
6538676,00800006,true,Rx,0,8,09,EC,0D,EC,41,EC,26,6E,
6538966,0090411E,true,Rx,0,8,02,00,E0,00,00,00,00,00,
6539246,0300410E,true,Rx,0,8,37,DE,18,F1,07,DE,6C,00,
6539538,03800006,true,Rx,0,8,30,00,00,00,00,00,00,00,
6546108,0100082C,true,Rx,0,8,0F,C0,8E,3F,75,FE,00,65,
6546385,0110483C,true,Rx,0,8,08,E2,20,00,44,66,FC,52,
6548679,0300410E,true,Rx,0,8,B7,DE,18,F1,87,DE,FC,00,
6556067,0100082C,true,Rx,0,8,0F,C0,8E,3F,65,FE,00,65,
6556344,0110483C,true,Rx,0,8,08,E2,20,00,44,66,FC,52,
6558692,00800006,true,Rx,0,8,49,EC,0D,EC,41,EC,A6,6E,
6558982,0090411E,true,Rx,0,8,C2,00,E0,00,00,00,00,00,
6559261,0300410E,true,Rx,0,8,37,DE,98,F1,07,DE,6C,00,
6559553,03800006,true,Rx,0,8,70,00,00,00,00,00,00,00,
6561153,1BA0493C,true,Rx,0,8,04,17,10,03,01,02,01,02,
6561445,1BE0493C,true,Rx,0,8,10,00,00,00,00,59,56,31,
6566082,0100082C,true,Rx,0,8,0F,C0,8E,3F,65,FE,00,65,
6566360,0110483C,true,Rx,0,8,08,E2,20,00,44,66,FC,52,
6568707,0300410E,true,Rx,0,8,B7,DE,18,F1,87,DE,FC,00,
6568987,19E00006,true,Rx,0,8,00,00,18,E0,67,00,40,00,
6576108,0100082C,true,Rx,0,8,0F,C0,8E,3F,65,FE,00,65,
6576385,0110483C,true,Rx,0,8,08,E2,20,00,44,66,FC,52,
6578711,00800006,true,Rx,0,8,81,EC,0D,EC,41,EC,26,6E,
6579000,0090411E,true,Rx,0,8,02,00,60,00,00,00,00,00,
6579280,0300410E,true,Rx,0,8,B7,DE,18,F1,87,DE,FC,00,
6579582,03800006,true,Rx,0,8,30,00,00,00,00,00,00,00,
6586058,0100082C,true,Rx,0,8,0F,C0,8E,3F,65,FE,00,65,
6586337,0110483C,true,Rx,0,8,08,E2,A0,00,44,66,FC,52,
6588724,0300410E,true,Rx,0,8,37,DE,98,F1,07,DE,6C,00,
6596072,0100082C,true,Rx,0,8,0F,C0,8E,3F,65,FE,00,65,
6596349,0110483C,true,Rx,0,8,08,E2,20,00,44,66,FC,52,
6598737,00800006,true,Rx,0,8,C9,EC,0D,EC,41,EC,26,6E,
6599016,0090411E,true,Rx,0,8,02,00,E0,00,00,00,00,00,
6599296,0300410E,true,Rx,0,8,B7,DE,18,F1,87,DE,FC,00,
6599598,03800006,true,Rx,0,8,30,00,00,00,00,00,00,00,
6599887,1B600002,true,Rx,0,8,00,80,00,40,00,1B,4C,00,
6606068,0100082C,true,Rx,0,8,0F,C0,8E,3F,65,FE,00,65,
6606345,0110483C,true,Rx,0,8,08,E2,20,00,44,66,FC,52,
6608806,0300410E,true,Rx,0,8,B7,DE,18,F1,87,DE,FC,00,
6616069,0100082C,true,Rx,0,8,0F,C0,8E,3F,65,FE,00,65,
6616357,0110483C,true,Rx,0,8,08,E2,20,00,44,66,FC,52,
6618755,00800006,true,Rx,0,8,09,EC,0D,EC,41,EC,A6,6E,
6619044,0090411E,true,Rx,0,8,42,00,E0,00,00,00,00,00,
6619325,0300410E,true,Rx,0,8,37,DE,98,F1,07,DE,6C,00,
6619616,03800006,true,Rx,0,8,30,00,00,00,00,00,00,00,
6619905,19E00006,true,Rx,0,8,00,00,18,C0,67,00,40,00,
6626086,0100082C,true,Rx,0,8,0F,C0,8E,3F,65,FE,00,65,
6626363,0110483C,true,Rx,0,8,08,E2,20,00,44,66,FC,52,
6628761,0300410E,true,Rx,0,8,B7,DE,18,F1,87,DE,FC,00,
6636108,0100082C,true,Rx,0,8,0F,C0,8E,3F,75,FE,00,65,
6636386,0110483C,true,Rx,0,8,08,E2,A0,00,44,66,FC,52,
6638775,00800006,true,Rx,0,8,41,EC,0D,EC,41,EC,26,6E,
6639064,0090411E,true,Rx,0,8,02,00,60,00,00,00,00,00,
6639347,0300410E,true,Rx,0,8,37,DE,18,F1,07,DE,6C,00,
6639647,03800006,true,Rx,0,8,30,00,00,00,00,00,00,00,
6646093,0100082C,true,Rx,0,8,0F,C0,8E,3F,65,FE,00,65,
6646370,0110483C,true,Rx,0,8,08,E2,20,00,44,66,FC,52,
6648780,0300410E,true,Rx,0,8,B7,DE,98,F1,87,DE,FC,00,
6656062,0100082C,true,Rx,0,8,0F,C0,8E,3F,65,FE,00,65,
6656350,0110483C,true,Rx,0,8,08,E2,20,00,44,66,FC,52,
6658790,00800006,true,Rx,0,8,89,EC,0D,EC,41,EC,A6,6E,
6659080,0090411E,true,Rx,0,8,C2,00,E0,00,00,00,00,00,
6659351,0300410E,true,Rx,0,8,B7,DE,18,F1,87,DE,FC,00,
6659651,03800006,true,Rx,0,8,70,00,00,00,00,00,00,00,
6666077,0100082C,true,Rx,0,8,0F,C0,8E,3F,65,FE,00,65,
6666355,0110483C,true,Rx,0,8,08,E2,20,00,44,66,FC,52,
6668805,0300410E,true,Rx,0,8,37,DE,18,F1,07,DE,6C,00,
6669095,19E00006,true,Rx,0,8,00,00,18,E0,67,00,40,00,
6676103,0100082C,true,Rx,0,8,0F,C0,8E,3F,65,FE,00,65,
6676381,0110483C,true,Rx,0,8,08,E2,20,00,44,66,FC,52,
6678810,00800006,true,Rx,0,8,C9,EC,0D,EC,41,EC,26,6E,
6679100,0090411E,true,Rx,0,8,02,00,E0,00,00,00,00,00,
6679371,0300410E,true,Rx,0,8,B7,DE,98,F1,87,DE,FC,00,
6679671,03800006,true,Rx,0,8,30,00,00,00,00,00,00,00,
6686067,0100082C,true,Rx,0,8,0F,C0,8E,3F,65,FE,00,65,
6686344,0110483C,true,Rx,0,8,08,E2,A0,00,44,66,FC,52,
6688825,0300410E,true,Rx,0,8,37,DE,18,F1,07,DE,6C,00,
6696109,0100082C,true,Rx,0,8,0F,C0,8E,3F,65,FE,00,65,
6696386,0110483C,true,Rx,0,8,08,E2,20,00,44,66,FC,52,
6696676,1AE0092C,true,Rx,0,8,00,00,22,E0,41,A0,00,00,
6696957,1B700030,true,Rx,0,8,2C,8E,24,00,00,C0,03,00,
6698844,00800006,true,Rx,0,8,01,EC,0D,EC,41,EC,26,6E,
6699133,0090411E,true,Rx,0,8,02,00,60,00,00,00,00,00,
6699415,0300410E,true,Rx,0,8,B7,DE,18,F1,87,DE,FC,00,
6699705,03800006,true,Rx,0,8,30,00,00,00,00,00,00,00,
6706068,0100082C,true,Rx,0,8,0F,C0,8E,3F,65,FE,00,65,
6706345,0110483C,true,Rx,0,8,08,E2,20,00,44,66,FC,52,
6708846,0300410E,true,Rx,0,8,B7,DE,98,F1,87,DE,FC,00,
6716079,0100082C,true,Rx,0,8,0F,C0,8E,3F,65,FE,00,65,
6716357,0110483C,true,Rx,0,8,08,E4,20,00,44,66,FC,52,
6718858,00800006,true,Rx,0,8,49,EC,0D,EC,41,EC,A6,6E,
6719137,0090411E,true,Rx,0,8,42,00,E0,00,00,00,00,00,
6719419,0300410E,true,Rx,0,8,37,DE,18,F1,07,DE,6C,00,
6719719,03800006,true,Rx,0,8,30,00,00,00,00,00,00,00,
6719999,19E00006,true,Rx,0,8,00,00,18,C0,67,00,40,00,
6726130,0100082C,true,Rx,0,8,0F,C0,8E,3F,75,FE,00,65,
6726406,0110483C,true,Rx,0,8,08,E4,20,00,44,66,FC,52,
6728857,0300410E,true,Rx,0,8,B7,DE,18,F1,87,DE,FC,00,
6736068,0100082C,true,Rx,0,8,0F,C0,8E,3F,65,FE,00,65,
6736346,0110483C,true,Rx,0,8,08,E4,A0,00,44,66,FC,52,
6738867,00800006,true,Rx,0,8,89,EC,0D,EC,41,EC,26,6E,
6739158,0090411E,true,Rx,0,8,02,00,E0,00,00,00,00,00,
6739439,0300410E,true,Rx,0,8,B7,DE,98,F1,87,DE,FC,00,
6739729,03800006,true,Rx,0,8,30,00,00,00,00,00,00,00,
6746093,0100082C,true,Rx,0,8,0F,C0,8E,3F,65,FE,00,65,
6746369,0110483C,true,Rx,0,8,08,E6,2A,00,44,66,FC,52,
6748880,0300410E,true,Rx,0,8,37,DE,18,F1,07,DE,6C,00,
6756084,0100082C,true,Rx,0,8,0F,C0,8E,3F,65,FE,00,65,
6756360,0110483C,true,Rx,0,8,08,E6,2A,00,44,66,FC,52,
6758893,00800006,true,Rx,0,8,C1,EC,0D,EC,41,EC,A6,6E,
6759183,0090411E,true,Rx,0,8,C2,00,60,00,00,00,00,00,
6759464,0300410E,true,Rx,0,8,B7,DE,18,F1,87,DE,FC,00,
6759754,03800006,true,Rx,0,8,70,00,00,00,00,00,00,00,
6766077,0100082C,true,Rx,0,8,0F,C8,8E,3F,65,FE,00,65,
6766364,0110483C,true,Rx,0,8,08,E6,2A,00,44,66,FC,52,
6768988,0300410E,true,Rx,0,8,37,DE,98,F1,07,DE,6C,00,
6769279,19E00006,true,Rx,0,8,00,00,18,E0,67,00,40,00,
6769559,1B600002,true,Rx,0,8,00,80,00,40,00,1B,4C,00,
6776106,0100082C,true,Rx,0,8,0F,C8,8E,3F,65,FE,00,65,
6776393,0110483C,true,Rx,0,8,08,E6,2A,00,44,66,FC,52,
6778914,00800006,true,Rx,0,8,09,EC,0D,EC,41,EC,26,6E,
6779205,0090411E,true,Rx,0,8,02,00,E0,00,00,00,00,00,
6779486,0300410E,true,Rx,0,8,B7,DE,18,F1,87,DE,FC,00,
6779775,03800006,true,Rx,0,8,30,00,00,00,00,00,00,00,
6786067,0100082C,true,Rx,0,8,0F,C8,8E,3F,65,FE,00,65,
6786354,0110483C,true,Rx,0,8,08,E6,AA,00,44,66,FC,52,
6788926,0300410E,true,Rx,0,8,B7,DE,18,F1,87,DE,FC,00,
6796089,0100082C,true,Rx,0,8,0F,C8,8E,3F,65,FE,00,65,
6796365,0110483C,true,Rx,0,8,08,E6,2A,00,44,66,FC,52,
6798939,00800006,true,Rx,0,8,49,EC,0D,EC,41,EC,26,6E,
6799220,0090411E,true,Rx,0,8,02,00,E0,00,00,00,00,00,
6799501,0300410E,true,Rx,0,8,37,DE,98,F1,07,DE,6C,00,
6799801,03800006,true,Rx,0,8,30,00,00,00,00,00,00,00,
6801144,1A200020,true,Rx,0,8,CE,00,02,2D,00,00,02,30,
6802442,01C04026,true,Rx,0,8,80,00,80,00,80,00,80,00,
6802721,02000026,true,Rx,0,8,7F,34,00,CC,4D,00,E0,AC,
6803001,02104136,true,Rx,0,8,BB,00,3F,FF,07,E0,00,00,
6803291,02804026,true,Rx,0,8,B7,FF,77,FF,F2,00,1E,0A,
6803582,02C00020,true,Rx,0,8,00,00,00,00,00,00,00,00,
6803873,19A00002,true,Rx,0,8,12,00,00,00,00,00,00,07,
6806220,0100082C,true,Rx,0,8,0F,C8,8E,3F,65,FE,00,65,
6806496,0110483C,true,Rx,0,8,08,E6,2A,00,44,66,FC,52,
6808935,0300410E,true,Rx,0,8,B7,DE,18,F1,87,DE,FC,00,
6811107,1BA0493C,true,Rx,0,8,05,03,01,01,01,02,01,03,
6811389,1BE0493C,true,Rx,0,8,01,00,2A,6D,D8,A4,FD,FB,
6816150,0100082C,true,Rx,0,8,0F,C8,8E,3F,65,FE,00,65,
6816426,0110483C,true,Rx,0,8,08,E6,2A,00,44,66,FC,52,
6816717,01C04026,true,Rx,0,8,80,00,80,00,80,00,80,00,
6816996,02000026,true,Rx,0,8,7F,34,00,CC,4D,00,E0,AC,
6817286,02104136,true,Rx,0,8,BB,00,3F,FF,07,E0,00,00,
6817568,02804026,true,Rx,0,8,B7,FF,77,FF,F2,00,1E,0A,
6817857,02C00020,true,Rx,0,8,00,00,00,00,00,00,00,00,
6818978,00800006,true,Rx,0,8,81,EC,0D,EC,41,EC,A6,6E,
6819269,0090411E,true,Rx,0,8,42,00,60,00,00,00,00,00,
6819539,0300410E,true,Rx,0,8,B7,DE,18,F1,87,DE,FC,00,
6819840,03800006,true,Rx,0,8,30,00,00,00,00,00,00,00,
6820130,19E00006,true,Rx,0,8,00,00,18,C0,67,00,40,00,
6826166,0100082C,true,Rx,0,8,0F,C8,8E,3F,65,FE,00,65,
6826452,0110483C,true,Rx,0,8,08,E6,2A,00,44,66,FC,52,
6828963,0300410E,true,Rx,0,8,77,DE,98,F1,07,DE,6C,00,
6830456,01C04026,true,Rx,0,8,80,00,80,00,80,00,80,00,
6830726,02000026,true,Rx,0,8,7F,34,00,CC,4D,00,E0,AC,
6831016,02104136,true,Rx,0,8,BB,00,3F,FF,07,E0,00,00,
6831295,02804026,true,Rx,0,8,B7,FF,77,FF,F2,00,1E,0A,
6831587,02C00020,true,Rx,0,8,00,01,00,00,00,02,75,81,
6831877,19A00002,true,Rx,0,8,6E,00,00,00,00,00,00,F7,
6836255,0100082C,true,Rx,0,8,0F,C8,8E,3F,65,FE,00,65,
6836531,0110483C,true,Rx,0,8,08,E6,AA,00,44,66,FC,52,
6838970,00800006,true,Rx,0,8,C9,EC,0D,EC,41,EC,26,6E,
6839261,0090411E,true,Rx,0,8,02,00,E0,00,00,00,00,00,
6839531,0300410E,true,Rx,0,8,B7,DE,18,F1,87,DE,FC,00,
6839832,03800006,true,Rx,0,8,30,00,00,00,00,00,00,00,
6844447,01C04026,true,Rx,0,8,80,00,80,00,80,00,80,00,
6844732,02000026,true,Rx,0,8,7F,34,00,CC,4D,00,E0,AC,
6845011,02104136,true,Rx,0,8,BB,00,3F,FF,07,E0,00,00,
6845302,02804026,true,Rx,0,8,B7,FF,77,FF,F2,00,1E,0C,
6845593,02C00020,true,Rx,0,8,00,00,00,00,00,02,75,81,
6846233,0100082C,true,Rx,0,8,0F,C8,8E,3F,65,FE,00,65,
6846508,0110483C,true,Rx,0,8,08,E6,6A,00,44,66,FC,52,
6849010,0300410E,true,Rx,0,8,B7,DE,18,F1,87,DE,FC,00,
6856065,0100082C,true,Rx,0,8,0F,C8,8E,3F,65,FE,00,65,
6856342,0110483C,true,Rx,0,8,08,E6,6A,00,44,66,FC,52,
6858442,01C04026,true,Rx,0,8,80,00,80,00,80,00,80,00,
6858721,02000026,true,Rx,0,8,7F,34,00,CC,4D,00,E0,AC,
6859002,00800006,true,Rx,0,8,09,EC,0D,EC,41,EC,A6,6E,
6859291,0090411E,true,Rx,0,8,C2,00,E0,00,00,00,00,00,
6859582,02104136,true,Rx,0,8,BB,00,3F,FF,07,E0,00,00,
6859862,02804026,true,Rx,0,8,B7,FF,77,FF,F2,00,1E,0C,
6860148,02C00020,true,Rx,0,8,00,00,00,00,00,02,75,81,
6860429,0300410E,true,Rx,0,8,37,DE,98,F1,07,DE,6C,00,
6860709,03800006,true,Rx,0,8,74,00,72,7D,75,1D,08,D0,
6860999,19A00002,true,Rx,0,8,12,00,00,00,00,00,00,F7,
6866136,0100082C,true,Rx,0,8,0F,C8,8E,3F,75,FE,00,65,
6866412,0110483C,true,Rx,0,8,08,E6,6A,00,44,66,FC,52,
6868996,0300410E,true,Rx,0,8,B7,DE,18,F1,87,DE,FC,00,
6869286,19E00006,true,Rx,0,8,00,00,18,E0,67,00,40,00,
6872678,01C04026,true,Rx,0,8,80,00,80,00,80,00,80,00,
6872955,02000026,true,Rx,0,8,7F,34,00,CC,4D,00,E0,AC,
6873244,02104136,true,Rx,0,8,BB,00,3F,FF,07,E0,00,00,
6873525,02804026,true,Rx,0,8,37,FF,77,FF,F2,00,0E,0C,
6873816,02C00020,true,Rx,0,8,00,00,00,00,00,02,75,81,
6876261,0100082C,true,Rx,0,8,0F,C8,B9,69,E5,FE,00,65,
6876532,0110483C,true,Rx,0,8,08,E6,6A,00,44,66,FC,52,
6879018,00800006,true,Rx,0,8,41,EC,0D,EC,41,EC,26,6E,
6879314,0090411E,true,Rx,0,8,02,00,60,00,00,00,00,00,
6879584,0300410E,true,Rx,0,8,37,DE,18,F1,07,DE,6C,00,
6879864,03800006,true,Rx,0,8,30,00,72,7D,75,1D,08,D0,
6886076,0100082C,true,Rx,0,8,0F,C0,B9,69,65,FE,00,65,
6886352,0110483C,true,Rx,0,8,08,E6,EA,00,44,66,FC,52,
6886653,01C04026,true,Rx,0,8,80,00,80,00,80,00,80,00,
6886933,02000026,true,Rx,0,8,7F,34,00,DC,4D,00,E0,AC,
6887212,02104136,true,Rx,0,8,BB,00,3F,FF,07,E0,00,00,
6887494,02804026,true,Rx,0,8,37,FF,77,FF,F2,00,0E,0C,
6887794,02C00020,true,Rx,0,8,00,00,00,00,00,02,75,81,
6888073,19A00002,true,Rx,0,8,02,00,00,00,00,00,00,F7,
6889043,0300410E,true,Rx,0,8,B7,DE,98,F1,87,DE,FC,00,
6889447,1B200002,true,Rx,0,8,00,00,00,00,00,00,04,51,
6896126,0100082C,true,Rx,0,8,0F,C0,B9,69,65,FE,00,65,
6896402,0110483C,true,Rx,0,8,08,E6,6A,00,44,66,FC,52,
6899080,00800006,true,Rx,0,8,89,EC,0D,EC,41,EC,3E,6E,
6899371,0090411E,true,Rx,0,8,02,00,E0,00,00,00,00,00,
6899640,0300410E,true,Rx,0,8,37,DE,18,F1,07,DE,6C,00,
6899921,03800006,true,Rx,0,8,30,00,72,7D,75,1D,08,D0,
6900688,01C04026,true,Rx,0,8,80,00,80,00,80,00,80,00,
6900967,02000026,true,Rx,0,8,7F,34,00,DC,4D,00,E0,AC,
6901247,02104136,true,Rx,0,8,BB,00,3F,FF,07,E0,00,00,
6901528,02804026,true,Rx,0,8,37,FF,77,FF,F2,00,0E,0C,
6901818,02C00020,true,Rx,0,8,00,00,00,00,00,02,75,81,
6906235,0100082C,true,Rx,0,8,0F,C0,B9,69,65,FE,00,65,
6906522,0110483C,true,Rx,0,8,08,E6,6A,00,44,66,FC,52,
6906802,1B700030,true,Rx,0,8,2C,8E,24,00,00,C0,03,00,
6909038,0300410E,true,Rx,0,8,B7,DE,18,F1,87,DE,FC,00,
6914654,01C04026,true,Rx,0,8,80,00,80,00,80,00,80,00,
6914930,02000026,true,Rx,0,8,7F,34,00,DC,4D,00,E0,AC,
6915210,02104136,true,Rx,0,8,BB,00,3F,FF,07,E0,00,00,
6915501,02804026,true,Rx,0,8,37,FF,77,FF,F2,00,0E,0C,
6915792,02C00020,true,Rx,0,8,00,00,00,00,00,02,75,81,
6916081,19A00002,true,Rx,0,8,12,00,00,00,00,00,00,F7,
6916362,0100082C,true,Rx,0,8,0F,C0,B9,69,65,FE,00,65,
6916643,0110483C,true,Rx,0,8,08,E6,6A,00,44,66,FC,52,
6919076,00800006,true,Rx,0,8,C9,EC,0E,6C,41,EC,AE,6E,
6919363,0090411E,true,Rx,0,8,42,00,E0,00,00,00,00,00,
6919644,0300410E,true,Rx,0,8,B8,B3,98,F1,87,DE,FC,00,
6919913,03800006,true,Rx,0,8,30,00,72,7D,75,1D,08,D0,
6920202,19E00006,true,Rx,0,8,00,00,18,C0,67,00,40,00,
6926088,0100082C,true,Rx,0,8,0F,C0,B9,69,65,FE,00,65,
6926365,0110483C,true,Rx,0,8,08,E6,6A,00,44,66,FC,52,
6928681,01C04026,true,Rx,0,8,80,00,80,00,80,00,80,00,
6928961,02000026,true,Rx,0,8,7F,34,00,DC,4D,00,E0,AC,
6929241,02104136,true,Rx,0,8,BB,00,3F,FF,07,E0,00,00,
6929532,02804026,true,Rx,0,8,37,FF,77,FF,F2,00,0E,0C,
6929812,02C00020,true,Rx,0,8,00,00,00,00,00,02,75,81,
6930091,0300410E,true,Rx,0,8,B8,B3,18,F1,87,DE,FC,00,
6936078,0100082C,true,Rx,0,8,0F,C0,B9,69,65,FE,00,65,
6936355,0110483C,true,Rx,0,8,08,E6,EA,00,44,66,FC,52,
6939072,00800006,true,Rx,0,8,01,EC,0E,6C,41,EC,2E,6E,
6939363,0090411E,true,Rx,0,8,02,00,60,00,00,00,00,00,
6939644,0300410E,true,Rx,0,8,38,B3,18,F1,07,DE,6C,00,
6939923,03800006,true,Rx,0,8,30,00,72,7D,75,1D,08,D0,
6940205,1B600002,true,Rx,0,8,00,80,00,5C,00,1B,4C,00,
6942667,01C04026,true,Rx,0,8,80,00,80,00,80,00,80,00,
6942946,02000026,true,Rx,0,8,7F,34,00,DC,4D,00,E0,AC,
6943225,02104136,true,Rx,0,8,BB,00,3F,FF,07,E0,00,00,
6943507,02804026,true,Rx,0,8,37,FF,77,FF,F2,00,0E,0C,
6943797,02C00020,true,Rx,0,8,00,00,00,00,00,02,75,81,
6944086,19A00002,true,Rx,0,8,6E,00,00,00,00,00,00,F7,
6946343,0100082C,true,Rx,0,8,0F,C0,B9,69,65,FE,00,65,
6946620,0110483C,true,Rx,0,8,08,E6,6A,00,44,66,FC,52,
6949079,0300410E,true,Rx,0,8,B8,B3,98,F1,87,DE,FC,00,
6956074,0100082C,true,Rx,0,8,0F,C0,B9,69,75,FE,00,65,
6956350,0110483C,true,Rx,0,8,08,E6,6A,00,44,66,FC,52,
6956651,01C04026,true,Rx,0,8,80,00,80,00,80,00,80,00,
6956930,02000026,true,Rx,0,8,7F,34,00,DC,4D,00,E0,AC,
6957210,02104136,true,Rx,0,8,BB,00,3F,FF,07,E0,00,00,
6957502,02804026,true,Rx,0,8,37,FF,77,FF,F2,00,0E,0C,
6957791,02C00020,true,Rx,0,8,00,00,00,00,00,02,75,81,
6959119,00800006,true,Rx,0,8,49,EC,0E,6C,41,EC,AE,6E,
6959399,0090411E,true,Rx,0,8,C2,00,E0,00,00,00,00,00,
6959680,0300410E,true,Rx,0,8,38,B3,18,1C,07,DE,6C,00,
6959959,03800006,true,Rx,0,8,70,00,72,7D,75,1D,08,D0,
6966106,0100082C,true,Rx,0,8,0F,C0,B9,69,65,FE,00,65,
6966383,0110483C,true,Rx,0,8,08,E6,6A,00,44,66,FC,52,
6969101,0300410E,true,Rx,0,8,B8,B3,18,1C,87,DE,FC,00,
6969392,19E00006,true,Rx,0,8,00,00,18,E0,67,00,40,00,
6970680,01C04026,true,Rx,0,8,80,00,80,00,80,00,80,00,
6970959,02000026,true,Rx,0,8,7F,34,00,DC,4D,00,E0,AC,
6971250,02104136,true,Rx,0,8,BB,00,3F,FF,07,E0,00,00,
6971532,02804026,true,Rx,0,8,37,FF,77,FF,F2,00,0E,0C,
6971821,02C00020,true,Rx,0,8,00,00,00,00,00,02,75,81,
6972112,19A00002,true,Rx,0,8,12,00,00,00,00,00,00,F7,
6974844,1B200002,true,Rx,0,8,00,00,00,00,00,00,0F,71,
6976305,0100082C,true,Rx,0,8,0F,C0,B9,69,65,FE,00,65,
6976576,0110483C,true,Rx,0,8,08,E6,6A,00,44,66,FC,52,
6979111,00800006,true,Rx,0,8,89,EC,0E,6C,41,EC,2E,6E,
6979398,0090411E,true,Rx,0,8,02,00,E0,00,00,00,00,00,
6979679,0300410E,true,Rx,0,8,B8,B3,98,1C,87,DE,FC,00,
6979958,03800006,true,Rx,0,8,38,00,72,7D,75,1D,08,D0,
6984677,01C04026,true,Rx,0,8,80,00,80,00,80,00,80,00,
6984964,02000026,true,Rx,0,8,7F,34,00,DC,4D,00,E0,AC,
6985243,02104136,true,Rx,0,8,BB,00,3F,FF,07,E0,00,00,
6985524,02804026,true,Rx,0,8,37,FF,77,F6,F2,00,0E,0C,
6985815,02C00020,true,Rx,0,8,00,00,00,00,00,02,75,81,
6986207,0100082C,true,Rx,0,8,0F,C0,B9,69,65,FE,00,65,
6986489,0110483C,true,Rx,0,8,08,E6,EA,00,44,66,FC,52,
6989147,0300410E,true,Rx,0,8,38,B3,18,1C,07,DE,6C,00,
6996181,0100082C,true,Rx,0,8,0F,C0,B9,69,65,FE,00,65,
6996458,0110483C,true,Rx,0,8,08,E9,6A,00,44,66,FC,52,
6998681,01C04026,true,Rx,0,8,80,00,80,00,80,00,80,00,
6998962,02000026,true,Rx,0,8,7F,34,00,DC,4D,00,E0,AC,
6999251,00800006,true,Rx,0,8,C1,EC,0E,6C,41,EC,2E,6E,
6999533,0090411E,true,Rx,0,8,02,00,60,00,00,00,00,00,
6999823,02104136,true,Rx,0,8,BB,00,3F,FF,07,E0,00,00,
7000102,02804026,true,Rx,0,8,37,FF,77,CD,F6,86,0E,07,
7000400,02C00020,true,Rx,0,8,00,00,00,00,00,02,75,81,
7000669,0300410E,true,Rx,0,8,B8,B3,18,1C,87,DE,FC,00,
7000949,03800006,true,Rx,0,8,38,00,72,7D,75,1D,08,D0,
7001239,19A00002,true,Rx,0,8,02,00,00,00,00,00,00,F7,
7006170,0100082C,true,Rx,0,8,0F,C0,B9,69,65,FE,00,65,
7006448,0110483C,true,Rx,0,8,08,E9,6A,00,44,66,FC,52,
7009155,0300410E,true,Rx,0,8,B8,B3,98,1C,87,DE,FC,00,
7012701,01C04026,true,Rx,0,8,80,00,80,00,80,00,80,00,
7012987,02000026,true,Rx,0,8,7F,34,00,DC,4D,00,E0,AC,
7013266,02104136,true,Rx,0,8,BB,00,3F,FF,07,E0,00,00,
7013548,02804026,true,Rx,0,8,37,FF,77,90,F6,ED,0E,01,
7013837,02C00020,true,Rx,0,8,00,00,00,00,00,02,75,81,
7016221,0100082C,true,Rx,0,8,0F,C0,B9,69,65,FE,00,65,
7016492,0110483C,true,Rx,0,8,08,E9,6A,00,44,66,FC,52,
7019152,00800006,true,Rx,0,8,09,EC,0E,6C,41,EC,AE,6E,
7019439,0090411E,true,Rx,0,8,42,00,E0,00,00,00,00,00,
7019720,0300410E,true,Rx,0,8,38,B3,18,1C,07,DE,6C,00,
7019999,03800006,true,Rx,0,8,38,00,72,7D,75,1D,08,D0,
7020290,19E00006,true,Rx,0,8,00,00,18,C0,67,00,40,00,
7026134,0100082C,true,Rx,0,8,0F,C0,B9,69,65,FE,00,65,
7026411,0110483C,true,Rx,0,8,08,E9,6A,00,44,66,FC,52,
7026701,01C04026,true,Rx,0,8,80,00,80,00,80,00,80,00,
7026980,02000026,true,Rx,0,8,7F,34,00,DC,4D,00,E0,AC,
7027271,02104136,true,Rx,0,8,BB,00,3F,FF,07,E0,00,00,
7027542,02804026,true,Rx,0,8,37,FF,77,47,F7,3C,0D,FF,
7027831,02C00020,true,Rx,0,8,00,00,00,00,00,02,75,81,
7028122,19A00002,true,Rx,0,8,12,00,00,00,00,00,00,F7,
7029183,0300410E,true,Rx,0,8,B8,B3,18,1C,87,DE,FC,00,
7036087,0100082C,true,Rx,0,8,0F,C0,B9,69,65,FE,00,65,
7036375,0110483C,true,Rx,0,8,08,E9,EA,00,44,66,FC,52,
7039174,00800006,true,Rx,0,8,49,EC,0E,6C,41,EC,2E,6E,
7039456,0090411E,true,Rx,0,8,02,00,E0,00,00,00,00,00,
7039735,0300410E,true,Rx,0,8,38,B3,98,1C,07,DE,6C,00,
7040015,03800006,true,Rx,0,8,38,00,72,7D,75,1D,08,D0,
7040740,01C04026,true,Rx,0,8,80,00,80,00,80,00,80,00,
7041021,02000026,true,Rx,0,8,7F,34,00,DC,4D,00,E0,AC,
7041300,02104136,true,Rx,0,8,BB,00,3F,FF,07,E0,00,00,
7041581,02804026,true,Rx,0,8,37,FF,77,09,F7,30,0D,FF,
7041871,02C00020,true,Rx,0,8,00,00,00,00,00,02,75,81,
7046258,0100082C,true,Rx,0,8,0F,C0,B9,69,75,FE,00,65,
7046535,0110483C,true,Rx,0,8,08,E9,6A,00,44,66,FC,52,
7049181,0300410E,true,Rx,0,8,B8,B3,18,1C,87,DE,FC,00,
7054705,01C04026,true,Rx,0,8,80,00,80,00,80,00,80,00,
7054982,02000026,true,Rx,0,8,7F,34,00,DC,4D,00,E0,AC,
7055271,02104136,true,Rx,0,8,BB,00,3F,FF,07,E0,00,00,
7055552,02804026,true,Rx,0,8,37,FF,77,04,F6,EA,0D,FA,
7055843,02C00020,true,Rx,0,8,00,00,00,00,00,02,75,81,
7056122,19A00002,true,Rx,0,8,6E,00,00,00,00,00,00,F7,
7056415,0100082C,true,Rx,0,8,0F,C0,B9,69,65,FE,00,65,
7056684,0110483C,true,Rx,0,8,08,E9,6A,00,44,66,FC,52,
7059221,00800006,true,Rx,0,8,81,EC,0E,6C,41,EC,AE,6E,
7059509,0090411E,true,Rx,0,8,C2,00,60,00,00,00,00,00,
7059788,0300410E,true,Rx,0,8,B8,B3,18,1C,87,DE,FC,00,
7060068,03800006,true,Rx,0,8,78,00,72,7D,75,1D,08,D0,
7060360,1B200002,true,Rx,0,8,00,00,00,00,00,00,0F,71,
7061310,1BA0493C,true,Rx,0,8,06,02,01,07,04,01,02,01,
7061591,1BE0493C,true,Rx,0,8,02,4A,8C,00,23,04,19,24,
7066108,0100082C,true,Rx,0,8,0F,C0,B9,69,65,FE,00,65,
7066386,0110483C,true,Rx,0,8,08,E9,6A,00,44,66,FC,52,
7068722,01C04026,true,Rx,0,8,80,00,80,00,80,00,80,00,
7069001,02000026,true,Rx,0,8,7F,34,00,DC,4D,00,E0,AC,
7069291,02104136,true,Rx,0,8,BB,00,3F,FF,07,E0,00,00,
7069562,02804026,true,Rx,0,8,37,FF,77,24,F6,B3,0D,EF,
7069852,02C00020,true,Rx,0,8,00,00,00,00,00,02,75,81,
7070131,0300410E,true,Rx,0,8,38,B3,98,1C,07,DE,6C,00,
7070410,19E00006,true,Rx,0,8,00,00,18,E0,67,00,40,00,
7076177,0100082C,true,Rx,0,8,0F,C0,B9,69,65,FE,00,65,
7076455,0110483C,true,Rx,0,8,08,E9,6A,00,44,66,FC,52,
7079213,00800006,true,Rx,0,8,C9,EC,0E,6C,41,EC,2E,6E,
7079494,0090411E,true,Rx,0,8,02,00,E0,00,00,00,00,00,
7079774,0300410E,true,Rx,0,8,B8,B3,18,1C,87,DE,FC,00,
7080053,03800006,true,Rx,0,8,38,00,72,7D,75,1D,08,D0,
7082740,01C04026,true,Rx,0,8,80,00,80,00,80,00,80,00,
7083025,02000026,true,Rx,0,8,7F,34,00,DC,4D,00,E0,AC,
7083306,02104136,true,Rx,0,8,BB,00,3F,FF,07,E0,00,00,
7083587,02804026,true,Rx,0,8,37,FF,77,5B,F6,89,0D,E1,
7083876,02C00020,true,Rx,0,8,00,00,00,00,00,02,75,81,
7084167,19A00002,true,Rx,0,8,12,00,00,00,00,00,00,F7,
7086286,0100082C,true,Rx,0,8,0F,C0,B9,69,65,FE,00,66,
7086556,0110483C,true,Rx,0,8,08,E9,EA,00,44,66,FC,52,
7089277,0300410E,true,Rx,0,8,B8,B3,18,1C,87,DE,FC,00,
7096104,0100082C,true,Rx,0,8,0F,C0,B9,69,65,FE,00,66,
7096381,0110483C,true,Rx,0,8,08,E9,6A,00,44,66,FC,52,
7096722,01C04026,true,Rx,0,8,80,00,80,00,80,00,80,00,
7097002,02000026,true,Rx,0,8,7F,34,00,DC,4D,00,E0,AC,
7097282,02104136,true,Rx,0,8,BB,00,3F,FF,07,E0,00,00,
7097563,02804026,true,Rx,0,8,37,FF,77,6B,F6,F0,0D,D6,
7097853,02C00020,true,Rx,0,8,00,00,00,00,00,02,75,81,
7099262,00800006,true,Rx,0,8,09,EC,0E,6C,41,EC,2E,6E,
7099544,0090411E,true,Rx,0,8,02,00,E0,00,00,00,00,00,
7099823,0300410E,true,Rx,0,8,38,B3,98,1C,07,DE,6C,00,
7100103,03800006,true,Rx,0,8,38,00,72,7D,75,1D,08,D0,
7106096,0100082C,true,Rx,0,8,0F,C0,B9,69,65,FE,00,66,
7106373,0110483C,true,Rx,0,8,08,E9,6A,00,44,66,FC,52,
7109244,0300410E,true,Rx,0,8,B8,B3,18,1C,87,DE,FC,00,
7109526,1B600002,true,Rx,0,8,00,80,00,4C,00,1B,4C,00,
7110730,01C04026,true,Rx,0,8,80,00,80,00,80,00,80,00,
7111001,02000026,true,Rx,0,8,7F,34,00,DC,4D,00,E0,AC,
7111290,02104136,true,Rx,0,8,BB,00,3F,FF,07,E0,00,00,
7111560,02804026,true,Rx,0,8,37,FF,77,52,F7,3E,0D,D3,
7111851,02C00020,true,Rx,0,8,00,00,00,00,00,02,75,81,
7112141,19A00002,true,Rx,0,8,02,00,00,00,00,00,00,F7,
7116305,0100082C,true,Rx,0,8,0F,C0,B9,69,65,FE,00,66,
7116592,0110483C,true,Rx,0,8,08,E9,6A,00,44,66,FC,52,
7116871,1A200020,true,Rx,0,8,0E,00,02,2D,00,00,02,30,
7117162,1AE0092C,true,Rx,0,8,40,00,22,E0,41,A0,00,00,
7117443,1B700030,true,Rx,0,8,3C,8E,24,00,00,C0,03,00,
7119269,00800006,true,Rx,0,8,41,EC,0E,6C,41,EC,AE,6E,
7119551,0090411E,true,Rx,0,8,42,00,60,00,00,00,00,00,
7119830,0300410E,true,Rx,0,8,38,B3,18,1C,07,DE,6C,00,
7120111,03800006,true,Rx,0,8,38,00,72,7D,75,1D,08,D0,
7120404,19E00006,true,Rx,0,8,00,00,18,C0,67,00,40,00,
7124690,01C04026,true,Rx,0,8,80,00,80,00,80,00,80,00,
7124965,02000026,true,Rx,0,8,7F,34,00,DC,4D,00,E0,AC,
7125244,02104136,true,Rx,0,8,BB,00,3F,FF,07,E0,00,00,
7125526,02804026,true,Rx,0,8,37,FF,77,1F,F7,63,0D,DB,
7125816,02C00020,true,Rx,0,8,00,00,00,00,00,02,75,81,
7126271,0100082C,true,Rx,0,8,0F,C0,B9,69,65,FE,00,66,
7126542,0110483C,true,Rx,0,8,08,E9,6A,00,44,66,FC,52,
7129283,0300410E,true,Rx,0,8,B8,B3,A8,1C,87,DE,FC,00,
7136078,0100082C,true,Rx,0,8,0F,C0,B9,69,75,FE,00,66,
7136355,0110483C,true,Rx,0,8,08,E9,EA,00,44,66,FC,52,
7138692,01C04026,true,Rx,0,8,80,00,80,00,80,00,80,00,
7138972,02000026,true,Rx,0,8,7F,34,00,DC,4D,00,E0,AC,
7139261,02104136,true,Rx,0,8,BB,00,3F,FF,07,E0,00,00,
7139543,00800006,true,Rx,0,8,89,EC,0E,6B,41,EC,2E,6E,
7139832,0090411E,true,Rx,0,8,02,00,E0,00,00,00,00,00,
7140103,02804026,true,Rx,0,8,37,FF,76,EF,F7,60,0D,E6,
7140390,02C00020,true,Rx,0,8,00,00,00,00,00,02,75,81,
7140669,0300410E,true,Rx,0,8,B8,B3,28,1C,87,DE,FC,00,
7140950,03800006,true,Rx,0,8,38,00,72,7D,75,1D,08,D0,
7141239,19A00002,true,Rx,0,8,12,00,00,00,00,00,00,F7,
7144855,1B200002,true,Rx,0,8,00,00,00,00,00,00,0F,71,
7146170,0100082C,true,Rx,0,8,0F,C0,B9,69,65,FE,00,66,
7146452,0110483C,true,Rx,0,8,08,E9,6A,00,44,66,FC,52,
7149277,0300410E,true,Rx,0,8,38,B3,28,1C,07,DE,6C,00,
7152736,01C04026,true,Rx,0,8,80,00,80,00,80,00,80,00,
7153011,02000026,true,Rx,0,8,7F,34,00,DC,4D,00,E0,AC,
7153302,02104136,true,Rx,0,8,BB,00,3F,FF,07,E0,00,00,
7153572,02804026,true,Rx,0,8,37,FF,76,F4,F7,0F,0D,F2,
7153862,02C00020,true,Rx,0,8,00,00,00,00,00,02,75,81,
7156195,0100082C,true,Rx,0,8,0F,C0,B9,69,65,FE,00,66,
7156476,0110483C,true,Rx,0,8,08,E9,6A,00,44,66,FC,52,
7159291,00800006,true,Rx,0,8,C9,EC,0E,6B,41,EC,AE,6E,
7159578,0090411E,true,Rx,0,8,C2,00,E0,00,00,00,00,00,
7159847,0300410E,true,Rx,0,8,B8,B3,A8,1C,87,DE,FC,00,
7160128,03800006,true,Rx,0,8,78,00,72,7D,75,1D,08,D0,
7166090,0100082C,true,Rx,0,8,0F,C0,B9,69,65,FE,00,66,
7166368,0110483C,true,Rx,0,8,08,E9,6A,00,44,66,FC,52,
7166709,01C04026,true,Rx,0,8,80,00,80,00,80,00,80,00,
7166989,02000026,true,Rx,0,8,7F,34,00,DC,4D,00,E0,AC,
7167269,02104136,true,Rx,0,8,BB,00,3F,FF,07,E0,00,00,
7167549,02804026,true,Rx,0,8,37,FF,77,1A,F6,CE,0D,FD,
7167840,02C00020,true,Rx,0,8,00,00,00,00,00,02,75,81,
7168147,19A00002,true,Rx,0,8,6E,00,00,00,00,00,00,F7,
7169345,0300410E,true,Rx,0,8,B8,B3,28,1C,87,DE,FC,00,
7169624,19E00006,true,Rx,0,8,00,00,18,E0,67,00,40,00,
7176162,0100082C,true,Rx,0,8,0F,C0,B9,69,65,FF,00,66,
7176438,0110483C,true,Rx,0,8,08,E9,6A,00,44,66,FC,52,
7179322,00800006,true,Rx,0,8,01,EC,0E,6B,41,EC,2E,6E,
7179611,0090411E,true,Rx,0,8,02,00,60,00,00,00,00,00,
7179890,0300410E,true,Rx,0,8,38,B3,28,1C,07,DE,6C,00,
7180161,03800006,true,Rx,0,8,38,00,72,7D,75,1D,08,D0,
7180721,01C04026,true,Rx,0,8,80,00,80,00,80,00,80,00,
7181001,02000026,true,Rx,0,8,7F,34,00,DC,4D,00,E0,AC,
7181291,02104136,true,Rx,0,8,BB,00,3F,FF,07,E0,00,00,
7181573,02804026,true,Rx,0,8,37,FF,77,55,F6,9F,0E,01,
7181862,02C00020,true,Rx,0,8,00,00,00,00,00,02,75,81,
7186207,0100082C,true,Rx,0,8,0F,C0,B9,69,65,FF,00,66,
7186484,0110483C,true,Rx,0,8,08,E9,EA,00,44,66,FC,52,
7189317,0300410E,true,Rx,0,8,B8,AE,A8,1C,87,DE,FC,00,
7194697,01C04026,true,Rx,0,8,80,00,80,00,80,00,80,00,
7194983,02000026,true,Rx,0,8,7F,34,00,DC,4D,00,E0,AC,
7195262,02104136,true,Rx,0,8,BB,00,3F,FF,07,E0,00,00,
7195544,02804026,true,Rx,0,8,37,FF,77,89,F6,C0,0E,04,
7195833,02C00020,true,Rx,0,8,00,00,00,00,00,02,75,81,
7196124,19A00002,true,Rx,0,8,12,00,00,00,00,00,00,F7,
7196404,0100082C,true,Rx,0,8,0F,C0,B9,69,65,FF,00,66,
7196684,0110483C,true,Rx,0,8,08,E9,6A,00,44,66,FC,52,
7199357,00800006,true,Rx,0,8,49,EC,0E,68,41,EC,2E,6E,
7199643,0090411E,true,Rx,0,8,02,00,E0,00,00,00,00,00,
7199922,0300410E,true,Rx,0,8,38,AE,28,1C,07,DE,6C,00,
7200202,03800006,true,Rx,0,8,38,00,72,7D,75,1D,08,D0,
7206082,0100082C,true,Rx,0,8,0F,C0,B9,69,65,FF,00,66,
7206360,0110483C,true,Rx,0,8,08,E9,6A,00,44,66,FC,52,
7207298,0340412E,true,Rx,0,8,00,00,00,00,00,00,00,00,
7207589,19000026,true,Rx,0,8,00,00,00,00,00,00,00,00,
7208776,01C04026,true,Rx,0,8,80,00,80,00,80,00,80,00,
7209055,02000026,true,Rx,0,8,7F,34,00,DC,4D,00,E0,AC,
7209337,02104136,true,Rx,0,8,BB,00,3F,FF,07,E0,00,00,
7209616,02804026,true,Rx,0,8,37,FF,77,88,F7,1A,0E,01,
7209906,02C00020,true,Rx,0,8,00,00,00,00,00,02,75,81,
7210191,0300410E,true,Rx,0,8,B8,AE,28,1D,87,DE,FC,00,
7216094,0100082C,true,Rx,0,8,0F,C0,B9,69,65,FF,00,66,
7216370,0110483C,true,Rx,0,8,08,E9,6A,00,44,66,FC,52,
7217309,0340412E,true,Rx,0,8,00,00,00,00,00,00,00,00,
7219350,00800006,true,Rx,0,8,89,EC,0E,68,41,EC,AE,6E,
7219640,0090411E,true,Rx,0,8,42,00,E0,00,00,00,00,00,
7219920,0300410E,true,Rx,0,8,B8,AE,A8,1D,87,DE,FC,00,
7220190,03800006,true,Rx,0,8,38,00,72,7D,75,1D,08,D0,
7220480,19E00006,true,Rx,0,8,00,00,18,C0,67,00,40,00,
7222294,19000026,true,Rx,0,8,00,00,00,00,00,00,04,00,
7222749,01C04026,true,Rx,0,8,80,00,80,00,80,00,80,00,
7223029,02000026,true,Rx,0,8,7F,34,00,DC,4D,00,E0,AC,
7223308,02104136,true,Rx,0,8,BB,00,3F,FF,07,E0,00,00,
7223589,02804026,true,Rx,0,8,37,FF,77,64,F7,60,0D,FF,
7223880,02C00020,true,Rx,0,8,00,00,00,00,00,02,75,81,
7224169,19A00002,true,Rx,0,8,02,00,00,00,00,00,00,F7,
7226346,0100082C,true,Rx,0,8,0F,C0,B9,69,75,FF,00,66,
7226622,0110483C,true,Rx,0,8,08,E9,6A,00,44,66,FC,52,
7227325,0340412E,true,Rx,0,8,00,00,00,00,00,00,00,00,
7229366,0300410E,true,Rx,0,8,38,AE,28,1D,07,DE,6C,00,
7229881,1B200002,true,Rx,0,8,00,00,00,00,00,00,0F,71,
7236096,0100082C,true,Rx,0,8,0F,C0,B9,69,65,FF,00,66,
7236372,0110483C,true,Rx,0,8,08,E9,EA,00,44,66,FC,52,
7236683,01C04026,true,Rx,0,8,80,00,80,00,80,00,80,00,
7236963,02000026,true,Rx,0,8,7F,34,00,DC,4D,00,E0,AC,
7237243,02104136,true,Rx,0,8,BB,00,3F,FF,07,E0,00,00,
7237523,02804026,true,Rx,0,8,37,FF,77,2B,F7,63,0D,FF,
7237814,02C00020,true,Rx,0,8,00,00,00,00,00,02,75,81,
7238103,0340412E,true,Rx,0,8,70,80,00,FD,80,00,00,00,
7238395,19000026,true,Rx,0,8,00,00,00,00,38,13,04,00,
7239406,00800006,true,Rx,0,8,C1,EC,0E,68,41,EC,2E,6E,
7239706,0090411E,true,Rx,0,8,02,00,60,00,00,00,00,00,
7239976,0300410E,true,Rx,0,8,B8,AE,28,1D,87,DE,FC,00,
7240258,03800006,true,Rx,0,8,38,00,72,7D,75,1D,08,D0,
7246120,0100082C,true,Rx,0,8,0F,C0,B9,69,65,FF,00,66,
7246396,0110483C,true,Rx,0,8,08,E9,6A,00,44,66,FC,52,
7247397,0340412E,true,Rx,0,8,71,80,00,ED,80,00,00,00,
7249478,0300410E,true,Rx,0,8,B8,93,A8,1D,87,CE,FC,00,
7250723,01C04026,true,Rx,0,8,80,00,80,00,80,00,80,00,
7251002,02000026,true,Rx,0,8,7F,34,00,DC,4D,00,E0,AC,
7251292,02104136,true,Rx,0,8,BB,00,3F,FF,07,E0,00,00,
7251563,02804026,true,Rx,0,8,37,FF,76,E4,F7,63,0D,FF,
7251853,02C00020,true,Rx,0,8,00,00,00,00,00,02,75,81,
7252142,19A00002,true,Rx,0,8,12,00,00,00,00,00,00,F7,
7252433,19000026,true,Rx,0,8,00,00,01,40,38,11,84,00,
7256327,0100082C,true,Rx,0,8,0F,C0,B9,69,65,FF,00,66,
7256602,0110483C,true,Rx,0,8,08,E9,6A,00,44,66,FC,52,
7257419,0340412E,true,Rx,0,8,72,80,00,DD,80,00,00,00,
7259398,00800006,true,Rx,0,8,09,E2,0E,59,41,E2,AE,63,
7259677,0090411E,true,Rx,0,8,C2,00,E0,FA,00,00,00,00,
7259958,0300410E,true,Rx,0,8,38,93,28,2F,07,CE,6C,00,
7260237,03800006,true,Rx,0,8,78,00,72,7D,75,1D,08,D0,
7264727,01C04026,true,Rx,0,8,80,00,80,00,80,00,80,00,
7265013,02000026,true,Rx,0,8,7F,34,00,DC,4D,00,E0,AC,
7265293,02104136,true,Rx,0,8,BB,00,3F,FF,07,E0,00,00,
7265574,02804026,true,Rx,0,8,37,FF,76,94,F7,63,0D,FF,
7265863,02C00020,true,Rx,0,8,00,00,00,00,00,02,75,81,
7266236,0100082C,true,Rx,0,8,0F,C0,B9,69,65,FF,00,66,
7266517,0110483C,true,Rx,0,8,08,E9,6A,00,44,66,FC,52,
7267473,0340412E,true,Rx,0,8,73,80,00,CD,80,00,00,00,
7267764,19000026,true,Rx,0,8,00,00,01,40,38,11,84,00,
7269434,0300410E,true,Rx,0,8,B8,93,28,2F,87,CE,FC,00,
7269724,19E00006,true,Rx,0,8,00,00,18,E0,67,00,40,00,
7276131,0100082C,true,Rx,0,8,0F,C0,B9,69,65,FF,00,66,
7276408,0110483C,true,Rx,0,8,08,E9,6A,00,44,66,FC,52,
7277481,0340412E,true,Rx,0,8,74,80,00,BD,80,00,00,00,
7278718,01C04026,true,Rx,0,8,80,00,80,00,80,00,80,00,
7278997,02000026,true,Rx,0,8,7F,34,00,DC,4D,00,E0,AC,
7279277,02104136,true,Rx,0,8,BB,00,3F,FF,07,E0,00,00,
7279558,00800006,true,Rx,0,8,49,E2,0E,59,41,E2,2E,63,
7279849,0090411E,true,Rx,0,8,02,00,E0,FA,00,00,00,00,
7280118,02804026,true,Rx,0,8,37,FF,76,3E,F7,63,0D,FD,
7280415,02C00020,true,Rx,0,8,00,00,00,00,00,02,75,81,
7280696,0300410E,true,Rx,0,8,38,93,A8,2F,07,CE,6C,00,
7280975,03800006,true,Rx,0,8,38,00,72,7D,75,1D,08,D0,
7281254,19A00002,true,Rx,0,8,6E,00,00,00,00,00,00,F7,
7281546,1B600002,true,Rx,0,8,00,80,00,0C,00,1B,4C,00,
7282294,19000026,true,Rx,0,8,00,00,01,40,38,11,84,00,
7286333,0100082C,true,Rx,0,8,0F,C0,B9,69,65,FF,00,66,
7286608,0110483C,true,Rx,0,8,08,E9,EA,00,44,66,FC,52,
7287507,0340412E,true,Rx,0,8,75,80,00,AD,80,00,00,00,
7289424,0300410E,true,Rx,0,8,B8,96,28,2F,87,D2,FC,00,
7292731,01C04026,true,Rx,0,8,80,00,80,00,80,00,80,00,
7293007,02000026,true,Rx,0,8,7F,34,00,DC,4D,00,E0,AC,
7293297,02104136,true,Rx,0,8,BB,00,3F,FF,07,E0,00,00,
7293578,02804026,true,Rx,0,8,37,FF,75,E5,F7,63,0D,FA,
7293869,02C00020,true,Rx,0,8,00,00,00,00,00,02,75,81,
7296243,0100082C,true,Rx,0,8,0F,C0,B9,69,65,FF,00,66,
7296513,0110483C,true,Rx,0,8,08,E9,6A,00,44,66,FC,52,
7297482,0340412E,true,Rx,0,8,76,80,00,9D,80,00,00,00,
7297772,19000026,true,Rx,0,8,00,00,01,40,38,11,84,00,
7299441,00800006,true,Rx,0,8,81,E5,0E,5A,41,E5,2E,63,
7299731,0090411E,true,Rx,0,8,02,00,60,FA,00,00,00,00,
7300011,0300410E,true,Rx,0,8,B8,96,28,2F,87,D2,FC,00,
7300291,03800006,true,Rx,0,8,38,00,72,7D,75,1D,08,D0,
7306105,0100082C,true,Rx,0,8,0F,C0,B9,69,65,FF,00,66,
7306382,0110483C,true,Rx,0,8,08,E9,6A,00,44,66,FC,52,
7306714,01C04026,true,Rx,0,8,80,00,80,00,80,00,80,00,
7306993,02000026,true,Rx,0,8,7F,34,00,DC,4D,00,E0,AC,
7307282,02104136,true,Rx,0,8,BB,00,3F,FF,07,E0,00,00,
7307554,02804026,true,Rx,0,8,37,FF,75,89,F7,63,0D,FD,
7307844,02C00020,true,Rx,0,8,00,00,00,00,00,02,75,81,
7308123,0340412E,true,Rx,0,8,77,80,00,8D,80,00,00,00,
7308413,19A00002,true,Rx,0,8,12,00,00,00,00,00,00,F7,
7309466,0300410E,true,Rx,0,8,38,96,A8,2E,07,D2,6C,00,
7311342,1BA0493C,true,Rx,0,8,07,01,03,00,02,01,01,01,
7312318,19000026,true,Rx,0,8,00,00,01,40,38,11,84,00,
7314850,1B200002,true,Rx,0,8,00,00,00,00,00,00,0F,71,
7316181,0100082C,true,Rx,0,8,0F,C0,B9,69,65,FE,00,66,
7316459,0110483C,true,Rx,0,8,08,E9,6A,00,44,66,FC,52,
7317492,0340412E,true,Rx,0,8,78,80,00,7D,80,00,00,00,
7319450,00800006,true,Rx,0,8,C9,E5,0E,5A,41,E5,AE,63,
7319739,0090411E,true,Rx,0,8,42,00,E0,FA,00,00,00,00,
7320009,0300410E,true,Rx,0,8,B8,95,28,2E,87,D2,FC,00,
7320289,03800006,true,Rx,0,8,38,00,72,7D,75,1D,08,D0,
7320571,19E00006,true,Rx,0,8,00,00,18,C0,67,00,40,00,
7320860,01C04026,true,Rx,0,8,80,00,80,00,80,00,80,00,
7321140,02000026,true,Rx,0,8,7F,34,00,DC,4D,00,E0,AC,
7321431,02104136,true,Rx,0,8,BB,00,3F,FF,07,E0,00,00,
7321711,02804026,true,Rx,0,8,37,FF,75,2D,F7,63,0D,FF,
7322000,02C00020,true,Rx,0,8,00,00,00,00,00,02,75,81,
7326300,0100082C,true,Rx,0,8,0F,C0,B9,69,65,FE,00,66,
7326576,0110483C,true,Rx,0,8,08,E9,6A,00,44,66,FC,52,
7326857,1B700030,true,Rx,0,8,2C,8E,24,00,00,C0,03,00,
7327478,0340412E,true,Rx,0,8,79,80,00,6D,80,00,00,00,
7327767,19000026,true,Rx,0,8,00,00,01,40,38,11,84,00,
7329533,0300410E,true,Rx,0,8,B8,95,28,2E,87,D2,FC,00,
7334741,01C04026,true,Rx,0,8,80,00,80,00,80,00,80,00,
7335016,02000026,true,Rx,0,8,7F,34,00,DC,4D,00,E0,AC,
7335307,02104136,true,Rx,0,8,BB,00,3F,FF,07,E0,00,00,
7335577,02804026,true,Rx,0,8,37,FF,74,CF,F7,63,0D,FF,
7335867,02C00020,true,Rx,0,8,00,00,00,00,00,02,75,81,
7336157,19A00002,true,Rx,0,8,02,00,00,00,00,00,00,F7,
7336438,0100082C,true,Rx,0,8,0F,C0,B9,69,65,FE,00,66,
7336718,0110483C,true,Rx,0,8,08,E9,EA,00,44,66,FC,52,
7337502,0340412E,true,Rx,0,8,7A,80,00,5D,80,00,00,00,
7339498,00800006,true,Rx,0,8,09,E5,0E,5A,41,E5,2E,63,
7339789,0090411E,true,Rx,0,8,02,00,E0,FA,00,00,00,00,
7340068,0300410E,true,Rx,0,8,38,95,A8,2E,07,D2,6C,00,
7340349,03800006,true,Rx,0,8,38,00,72,7D,75,1D,08,D0,
7342300,19000026,true,Rx,0,8,00,00,01,40,38,11,84,00,
7346211,0100082C,true,Rx,0,8,0F,C0,B9,69,65,FE,00,66,
7346487,0110483C,true,Rx,0,8,08,E9,6A,00,44,66,FC,52,
7347479,0340412E,true,Rx,0,8,7B,80,00,4D,80,00,00,00,
7348776,01C04026,true,Rx,0,8,80,00,80,00,80,00,80,00,
7349057,02000026,true,Rx,0,8,7F,34,00,DC,4D,00,E0,AC,
7349337,02104136,true,Rx,0,8,BB,00,3F,FF,07,E0,00,00,
7349617,02804026,true,Rx,0,8,37,FF,74,70,F7,63,0D,FD,
7349907,02C00020,true,Rx,0,8,00,00,00,00,00,02,75,81,
7350176,0300410E,true,Rx,0,8,B8,95,28,2E,87,D2,FC,00,
7356184,0100082C,true,Rx,0,8,0F,C0,B9,69,75,FF,00,66,
7356460,0110483C,true,Rx,0,8,08,E9,6A,00,44,66,FC,52,
7357493,0340412E,true,Rx,0,8,7C,80,00,3D,80,00,00,00,
7357783,19000026,true,Rx,0,8,00,00,01,40,38,11,84,00,
7359506,00800006,true,Rx,0,8,41,E5,0E,5A,41,E5,AE,63,
7359787,0090411E,true,Rx,0,8,C2,00,60,FA,00,00,00,00,
7360066,0300410E,true,Rx,0,8,38,95,28,2E,07,D2,6C,00,
7360347,03800006,true,Rx,0,8,58,00,72,7D,75,1D,08,D0,
7362787,01C04026,true,Rx,0,8,80,00,80,00,80,00,80,00,
7363067,02000026,true,Rx,0,8,7F,34,00,DC,4D,00,E0,AC,
7363357,02104136,true,Rx,0,8,BB,00,3F,FF,07,E0,00,00,
7363628,02804026,true,Rx,0,8,37,FF,74,12,F7,63,0D,FA,
7363917,02C00020,true,Rx,0,8,00,00,00,00,00,02,75,81,
7364207,19A00002,true,Rx,0,8,12,00,00,00,00,00,00,F7,
7366277,0100082C,true,Rx,0,8,0F,C0,B9,69,65,FF,00,66,
7366553,0110483C,true,Rx,0,8,08,E9,6A,00,44,66,FC,52,
7367484,0340412E,true,Rx,0,8,7D,80,00,2D,80,00,00,00,
7369502,0300410E,true,Rx,0,8,B8,95,A8,2E,87,D2,FC,00,
7369783,19E00006,true,Rx,0,8,00,00,18,E0,67,00,40,00,
7372306,19000026,true,Rx,0,8,00,00,01,40,38,11,84,00,
7376201,0100082C,true,Rx,0,8,0F,C0,B9,69,65,FF,00,66,
7376477,0110483C,true,Rx,0,8,08,E9,6A,00,44,66,FC,52,
7376768,01C04026,true,Rx,0,8,80,00,80,00,80,00,80,00,
7377047,02000026,true,Rx,0,8,7F,34,00,DC,4D,00,E0,AC,
7377338,02104136,true,Rx,0,8,BB,00,3F,FF,07,E0,00,00,
7377608,02804026,true,Rx,0,8,37,FF,73,B3,F7,63,0D,FA,
7377897,02C00020,true,Rx,0,8,00,00,00,00,00,02,75,81,
7378178,0340412E,true,Rx,0,8,7E,80,00,1D,80,00,00,00,
7379539,00800006,true,Rx,0,8,89,E4,0E,5A,41,E4,2E,63,
7379829,0090411E,true,Rx,0,8,02,03,E1,10,00,00,00,00,
7380109,0300410E,true,Rx,0,8,B8,95,28,2E,87,D0,FC,00,
7380379,03800006,true,Rx,0,8,18,00,72,7D,75,1D,08,D0,
7386095,0100082C,true,Rx,0,8,0F,C0,B9,69,65,FF,00,66,
7386372,0110483C,true,Rx,0,8,08,E9,EA,00,44,66,FC,52,
7387507,0340412E,true,Rx,0,8,7F,80,00,0D,80,00,00,00,
7387787,19000026,true,Rx,0,8,00,00,01,40,38,11,84,00,
7389532,0300410E,true,Rx,0,8,38,95,28,2E,07,D0,6C,00,
7390746,01C04026,true,Rx,0,8,80,00,80,00,80,00,80,00,
7391025,02000026,true,Rx,0,8,7F,34,00,DC,4D,00,E0,AC,
7391306,02104136,true,Rx,0,8,BB,00,3F,FF,07,E0,00,00,
7391586,02804026,true,Rx,0,8,37,FF,73,54,F7,63,0D,FD,
7391876,02C00020,true,Rx,0,8,00,00,00,00,00,02,75,81,
7392156,19A00002,true,Rx,0,8,6E,00,00,00,00,00,00,F7,
7396298,0100082C,true,Rx,0,8,0F,C0,B9,69,65,FF,00,66,
7396575,0110483C,true,Rx,0,8,08,E9,6A,00,44,66,FC,52,
7397504,0340412E,true,Rx,0,8,70,80,00,FD,80,00,00,00,
7399534,00800006,true,Rx,0,8,C9,E4,0E,5A,41,E4,2E,63,
7399825,0090411E,true,Rx,0,8,02,03,E1,10,00,00,00,00,
7400104,0300410E,true,Rx,0,8,B8,95,A8,2E,87,D0,FC,00,
7400385,03800006,true,Rx,0,8,18,00,72,7D,75,1D,08,D0,
7400676,1B200002,true,Rx,0,8,00,00,00,00,00,00,0F,71,
7402305,19000026,true,Rx,0,8,00,FF,01,40,38,11,8C,00,
7404741,01C04026,true,Rx,0,8,80,00,80,00,80,00,80,00,
7405028,02000026,true,Rx,0,8,7F,34,00,DC,4D,00,E0,AC,
7405307,02104136,true,Rx,0,8,BB,00,3F,FF,07,E0,00,00,
7405589,02804026,true,Rx,0,8,37,FF,72,F5,F7,63,0D,FF,
7405879,02C00020,true,Rx,0,8,00,00,00,00,00,02,75,81,
7406313,0100082C,true,Rx,0,8,0F,C0,B9,69,65,FF,00,66,
7406595,0110483C,true,Rx,0,8,08,E9,6A,00,44,66,FC,52,
7407489,0340412E,true,Rx,0,8,71,80,00,ED,80,00,00,00,
7409630,0300410E,true,Rx,0,8,B8,8F,28,2E,87,D0,FC,00,
7416108,0100082C,true,Rx,0,8,0F,C0,B9,69,65,FF,00,66,
7416395,0110483C,true,Rx,0,8,08,E9,6A,00,44,66,FC,52,
7417491,0340412E,true,Rx,0,8,72,80,00,DD,80,00,00,00,
7417770,19000026,true,Rx,0,8,00,FF,01,40,38,11,84,00,
7418730,01C04026,true,Rx,0,8,80,00,80,00,80,00,80,00,
7419011,02000026,true,Rx,0,8,7F,34,00,DC,4D,00,E0,AC,
7419300,02104136,true,Rx,0,8,BB,00,3F,FF,07,E0,00,00,
7419581,00800006,true,Rx,0,8,01,E4,0E,56,41,E4,AE,63,
7419861,0090411E,true,Rx,0,8,42,03,61,10,00,00,00,00,
7420141,02804026,true,Rx,0,8,37,FF,72,95,F7,63,0D,FD,
7420429,02C00020,true,Rx,0,8,00,00,00,00,00,02,75,81,
7420719,0300410E,true,Rx,0,8,38,8F,28,2E,07,D0,6C,00,
7420998,03800006,true,Rx,0,8,18,00,72,7D,75,1D,08,D0,
7421289,19A00002,true,Rx,0,8,12,00,00,00,00,00,00,F7,
7421569,19E00006,true,Rx,0,8,00,00,18,C0,67,00,40,00,
7426203,0100082C,true,Rx,0,8,0F,C0,B9,69,65,FF,00,66,
7426479,0110483C,true,Rx,0,8,08,E9,6A,00,44,66,FC,52,
7427481,0340412E,true,Rx,0,8,73,80,00,CD,80,00,00,00,
7429563,0300410E,true,Rx,0,8,B8,8E,A8,2E,87,D0,FC,00,
7431189,1A200020,true,Rx,0,8,4E,00,02,2D,00,3C,02,30,
7432300,19000026,true,Rx,0,8,00,FF,01,40,38,11,84,00,
7432756,01C04026,true,Rx,0,8,80,00,80,00,80,00,80,00,
7433035,02000026,true,Rx,0,8,7F,34,00,DC,4D,00,E0,AC,
7433315,02104136,true,Rx,0,8,BB,00,3F,FF,07,E0,00,00,
7433596,02804026,true,Rx,0,8,37,FF,72,36,F7,63,0D,FD,
7433886,02C00020,true,Rx,0,8,00,00,00,00,00,02,75,81,
7436305,0100082C,true,Rx,0,8,0F,C0,B9,69,65,FF,00,66,
7436583,0110483C,true,Rx,0,8,08,E9,EA,00,44,66,FC,52,
7437491,0340412E,true,Rx,0,8,74,80,00,BD,80,00,00,00,
7439573,00800006,true,Rx,0,8,49,E4,0E,55,41,E4,2E,63,
7439862,0090411E,true,Rx,0,8,02,03,E1,10,00,00,00,00,
7440142,0300410E,true,Rx,0,8,38,8E,28,2E,07,D0,6C,00,
7440424,03800006,true,Rx,0,8,18,00,72,7D,75,1D,08,D0,
7446159,0100082C,true,Rx,0,8,0F,C0,B9,69,75,FF,00,66,
7446436,0110483C,true,Rx,0,8,08,E9,6A,00,44,66,FC,52,
7446727,01C04026,true,Rx,0,8,80,00,80,00,80,00,80,00,
7447006,02000026,true,Rx,0,8,7F,34,00,DC,4D,00,E0,AC,
7447287,02104136,true,Rx,0,8,BB,00,3F,FF,07,E0,00,00,
7447558,02804026,true,Rx,0,8,37,FF,71,D7,F7,63,0D,FD,
7447858,02C00020,true,Rx,0,8,00,00,00,00,00,02,75,81,
7448138,0340412E,true,Rx,0,8,75,80,00,AD,80,00,00,00,
7448417,19000026,true,Rx,0,8,00,FF,01,40,38,11,84,00,
7448707,19A00002,true,Rx,0,8,02,00,00,00,00,00,00,F7,
7449616,0300410E,true,Rx,0,8,B8,8E,28,2E,87,D0,FC,00,
7449906,1B600002,true,Rx,0,8,00,80,00,0C,00,1B,4C,00,
7456104,0100082C,true,Rx,0,8,0F,C0,B9,69,65,FF,00,66,
7456391,0110483C,true,Rx,0,8,08,E9,6A,00,44,66,FC,52,
7457496,0340412E,true,Rx,0,8,76,80,00,9D,80,00,00,00,
7459588,00800006,true,Rx,0,8,89,E4,0E,55,41,E4,AE,63,
7459877,0090411E,true,Rx,0,8,C2,03,E1,10,00,00,00,00,
7460166,0300410E,true,Rx,0,8,B8,8E,A8,2F,87,D0,FC,00,
7460437,03800006,true,Rx,0,8,58,00,72,7D,75,1D,08,D0,
7460737,01C04026,true,Rx,0,8,80,00,80,00,80,00,80,00,
7461017,02000026,true,Rx,0,8,7F,34,00,DC,4D,00,E0,AC,
7461307,02104136,true,Rx,0,8,BB,00,3F,FF,07,E0,00,00,
7461578,02804026,true,Rx,0,8,37,FF,71,78,F7,63,0D,FF,
7461869,02C00020,true,Rx,0,8,00,00,00,00,00,02,75,81,
7462301,19000026,true,Rx,0,8,00,FF,01,40,38,11,84,00,
7466297,0100082C,true,Rx,0,8,0F,C0,B9,69,65,FF,00,66,
7466575,0110483C,true,Rx,0,8,08,E9,6A,00,44,66,FC,52,
7467483,0340412E,true,Rx,0,8,77,80,00,8D,80,00,00,00,
7469606,0300410E,true,Rx,0,8,38,8E,28,2F,07,D0,6C,00,
7469885,19E00006,true,Rx,0,8,00,00,18,E0,67,00,40,00,
7474721,01C04026,true,Rx,0,8,80,00,80,00,80,00,80,00,
7474997,02000026,true,Rx,0,8,7F,34,00,DC,4D,00,E0,AC,
7475277,02104136,true,Rx,0,8,BB,00,3F,FF,07,E0,00,00,
7475558,02804026,true,Rx,0,8,37,FF,71,18,F7,63,0D,FD,
7475849,02C00020,true,Rx,0,8,00,00,00,00,00,02,75,81,
7476138,19A00002,true,Rx,0,8,12,00,00,00,00,00,00,F7,
7476419,0100082C,true,Rx,0,8,0F,C0,B9,69,65,FF,00,66,
7476699,0110483C,true,Rx,0,8,08,E9,6A,00,44,66,FC,52,
7477503,0340412E,true,Rx,0,8,78,80,00,7D,80,00,00,00,
7477793,19000026,true,Rx,0,8,00,FF,01,40,38,11,84,00,
7479648,00800006,true,Rx,0,8,C1,E3,0E,55,41,E3,2E,63,
7479928,0090411E,true,Rx,0,8,02,03,61,10,00,00,00,00,
7480217,0300410E,true,Rx,0,8,B8,8E,28,2F,87,CF,FC,00,
7480499,03800006,true,Rx,0,8,18,00,72,7D,75,1D,08,D0,
7484894,1B200002,true,Rx,0,8,00,00,00,00,00,00,0F,71,
7486117,0100082C,true,Rx,0,8,0F,C0,B9,69,65,FF,00,66,
7486398,0110483C,true,Rx,0,8,08,E9,EA,00,44,66,FC,52,
7487491,0340412E,true,Rx,0,8,79,80,00,6D,80,00,00,00,
7488750,01C04026,true,Rx,0,8,80,00,80,00,80,00,80,00,
7489027,02000026,true,Rx,0,8,7F,34,00,DC,4D,00,E0,AC,
7489318,02104136,true,Rx,0,8,BB,00,3F,FF,07,E0,00,00,
7489599,02804026,true,Rx,0,8,37,FF,70,B9,F7,63,0D,FD,
7489888,02C00020,true,Rx,0,8,00,00,00,00,00,02,75,81,
7490168,0300410E,true,Rx,0,8,B8,89,A8,2F,87,CF,FC,00,
7492307,19000026,true,Rx,0,8,00,FF,01,40,38,11,8C,00,
7496176,0100082C,true,Rx,0,8,0F,C0,B9,69,65,FF,00,66,
7496454,0110483C,true,Rx,0,8,08,E9,6A,00,44,66,FC,52,
7497486,0340412E,true,Rx,0,8,7A,80,00,5D,80,00,00,00,
7499631,00800006,true,Rx,0,8,09,E3,0E,53,41,E3,2E,63,
7499921,0090411E,true,Rx,0,8,02,04,E1,28,00,00,00,00,
7500190,0300410E,true,Rx,0,8,38,89,28,2F,07,CF,6C,00,
7500471,03800006,true,Rx,0,8,18,00,72,7D,75,1D,08,D0,
7502746,01C04026,true,Rx,0,8,80,00,80,00,80,00,80,00,
7503025,02000026,true,Rx,0,8,7F,34,00,DC,4D,00,E0,AC,
7503317,02104136,true,Rx,0,8,BB,00,3F,FF,07,E0,00,00,
7503586,02804026,true,Rx,0,8,37,FF,70,5A,F7,63,0D,FA,
7503876,02C00020,true,Rx,0,8,00,00,00,00,00,02,75,81,
7504167,19A00002,true,Rx,0,8,6E,00,00,00,00,00,00,F7,
7506287,0100082C,true,Rx,0,8,0F,C0,B9,69,65,FF,00,66,
7506564,0110483C,true,Rx,0,8,08,E9,6A,00,44,66,FC,52,
7507483,0340412E,true,Rx,0,8,7B,80,00,4D,80,00,00,00,
7507773,19000026,true,Rx,0,8,00,FF,01,40,38,11,84,00,
7509651,0300410E,true,Rx,0,8,B8,89,28,2F,87,CF,FC,00,
7516079,0100082C,true,Rx,0,8,0F,C0,B9,69,65,FF,00,66,
7516355,0110483C,true,Rx,0,8,08,E9,6A,00,44,66,FC,52,
7516718,01C04026,true,Rx,0,8,80,00,80,00,80,00,80,00,
7516997,02000026,true,Rx,0,8,7F,34,00,DC,4D,00,E0,AC,
7517278,02104136,true,Rx,0,8,BB,00,3F,FF,07,E0,00,00,
7517558,02804026,true,Rx,0,8,37,FF,70,00,F7,63,0D,FD,
7517848,02C00020,true,Rx,0,8,00,00,00,00,00,02,75,81,
7518147,0340412E,true,Rx,0,8,7C,80,00,3D,80,00,00,00,
7519675,00800006,true,Rx,0,8,49,E3,0E,53,41,E3,AE,63,
7519954,0090411E,true,Rx,0,8,42,04,E1,28,00,00,00,00,
7520235,0300410E,true,Rx,0,8,38,89,A8,2F,07,CF,6C,00,
7520515,03800006,true,Rx,0,8,18,00,72,7D,75,1D,08,D0,
7520805,19E00006,true,Rx,0,8,00,00,18,C0,67,00,40,00,
7522300,19000026,true,Rx,0,8,00,FF,01,40,38,11,84,00,
7526255,0100082C,true,Rx,0,8,0F,C0,B9,69,65,FF,00,66,
7526533,0110483C,true,Rx,0,8,08,E9,6A,00,44,66,FC,52,
7527503,0340412E,true,Rx,0,8,7D,80,00,2D,80,00,00,00,
7529667,0300410E,true,Rx,0,8,B8,89,28,2F,87,CF,FC,00,
7530767,01C04026,true,Rx,0,8,80,00,80,00,80,00,80,00,
7531037,02000026,true,Rx,0,8,7F,34,00,DC,4D,00,E0,AC,
7531328,02104136,true,Rx,0,8,BB,00,3F,FF,07,E0,00,00,
7531607,02804026,true,Rx,0,8,37,FF,70,00,F7,63,0D,FF,
7531898,02C00020,true,Rx,0,8,00,00,00,00,00,02,75,81,
7532187,19A00002,true,Rx,0,8,12,00,00,00,00,00,00,F7,
7536383,0100082C,true,Rx,0,8,0F,C0,B9,69,75,FF,00,66,
7536658,0110483C,true,Rx,0,8,08,E9,EA,00,44,66,FC,52,
7536948,1AE0092C,true,Rx,0,8,80,00,22,E0,41,A0,00,00,
7537228,1B700030,true,Rx,0,8,2C,8E,24,00,00,C0,03,00,
7537519,0340412E,true,Rx,0,8,7E,80,00,1D,80,00,00,00,
7537798,19000026,true,Rx,0,8,00,FF,01,40,38,11,84,00,
7539681,00800006,true,Rx,0,8,81,E3,0E,52,41,E3,2E,63,
7539970,0090411E,true,Rx,0,8,02,04,61,28,00,00,00,00,
7540251,0300410E,true,Rx,0,8,B8,89,28,2F,87,CF,FC,00,
7540532,03800006,true,Rx,0,8,18,00,72,7D,75,1D,08,D0,
7544724,01C04026,true,Rx,0,8,80,00,80,00,80,00,80,00,
7545000,02000026,true,Rx,0,8,7F,34,00,DC,4D,00,E0,AC,
7545289,02104136,true,Rx,0,8,BB,00,3F,FF,07,E0,00,00,
7545571,02804026,true,Rx,0,8,37,FF,70,00,F7,63,0D,FF,
7545861,02C00020,true,Rx,0,8,00,00,00,00,00,02,75,81,
7546243,0100082C,true,Rx,0,8,0F,C0,B9,69,65,FF,00,66,
7546525,0110483C,true,Rx,0,8,08,E9,6A,00,44,66,FC,52,
7547491,0340412E,true,Rx,0,8,7F,80,00,0D,80,00,00,00,
7549704,0300410E,true,Rx,0,8,38,89,A8,2F,07,CF,6C,00,
7552297,19000026,true,Rx,0,8,00,FF,01,40,38,11,8C,00,
7556178,0100082C,true,Rx,0,8,0F,C0,B9,69,65,FF,00,66,
7556455,0110483C,true,Rx,0,8,08,E9,6A,00,44,66,FC,52,
7557487,0340412E,true,Rx,0,8,70,80,00,FD,80,00,00,00,
7558724,01C04026,true,Rx,0,8,80,00,80,00,80,00,80,00,
7559003,02000026,true,Rx,0,8,7F,34,00,DC,4D,00,E0,AC,
7559293,02104136,true,Rx,0,8,BB,00,3F,FF,07,E0,00,00,
7559564,02804026,true,Rx,0,8,37,FF,70,00,F7,63,0D,FD,
7559843,00800006,true,Rx,0,8,C9,E3,0E,52,41,E3,AE,63,
7560123,0090411E,true,Rx,0,8,C2,04,E1,28,00,00,00,00,
7560421,02C00020,true,Rx,0,8,00,00,00,00,00,02,75,81,
7560701,0300410E,true,Rx,0,8,B8,89,28,2F,87,CF,FC,00,
7560971,03800006,true,Rx,0,8,58,00,72,7D,75,1D,08,D0,
7561261,19A00002,true,Rx,0,8,02,00,00,00,00,00,00,F7,
7561542,1BA0493C,true,Rx,0,8,08,02,01,12,01,01,01,02,
7566134,0100082C,true,Rx,0,8,0F,C0,B9,69,65,FF,00,66,
7566411,0110483C,true,Rx,0,8,08,E9,6A,00,44,66,FC,52,
7567515,0340412E,true,Rx,0,8,71,80,00,ED,80,00,00,00,
7567794,19000026,true,Rx,0,8,00,FF,01,40,38,11,84,00,
7569775,0300410E,true,Rx,0,8,B8,89,28,2F,87,CE,FC,00,
7570054,19E00006,true,Rx,0,8,00,00,18,E0,67,00,40,00,
7570355,1B200002,true,Rx,0,8,00,00,00,00,00,00,0F,71,
7572753,01C04026,true,Rx,0,8,80,00,80,00,80,00,80,00,
7573032,02000026,true,Rx,0,8,7F,34,00,DC,4D,00,E0,AC,
7573312,02104136,true,Rx,0,8,BB,00,3F,FF,07,E0,00,00,
7573593,02804026,true,Rx,0,8,37,FF,70,00,F7,63,0D,FA,
7573883,02C00020,true,Rx,0,8,00,00,00,00,00,02,75,81,
7576270,0100082C,true,Rx,0,8,0F,C0,B9,69,65,FF,00,66,
7576548,0110483C,true,Rx,0,8,08,E9,6A,00,44,66,FC,52,
7577497,0340412E,true,Rx,0,8,72,80,00,DD,80,00,00,00,
7579713,00800006,true,Rx,0,8,09,E3,0E,52,41,E3,2E,63,
7580003,0090411E,true,Rx,0,8,02,03,E1,3A,00,00,00,00,
7580283,0300410E,true,Rx,0,8,38,89,A8,2F,07,CE,6C,00,
7580554,03800006,true,Rx,0,8,18,00,72,7D,75,1D,08,D0,
7582306,19000026,true,Rx,0,8,00,FF,01,40,38,11,8C,00,
7586191,0100082C,true,Rx,0,8,0F,C0,B9,69,65,FF,00,66,
7586468,0110483C,true,Rx,0,8,08,E9,EA,00,44,66,FC,52,
7586758,01C04026,true,Rx,0,8,80,00,80,00,80,00,80,00,
7587038,02000026,true,Rx,0,8,7F,34,00,DC,4D,00,E0,AC,
7587329,02104136,true,Rx,0,8,BB,00,3F,FF,07,E0,00,00,
7587598,02804026,true,Rx,0,8,37,FF,70,00,F7,63,0D,FA,
7587889,02C00020,true,Rx,0,8,00,00,00,00,00,02,75,81,
7588179,0340412E,true,Rx,0,8,73,80,00,CD,80,00,00,00,
7588468,19A00002,true,Rx,0,8,12,00,00,00,00,00,00,F7,
7589758,0300410E,true,Rx,0,8,B8,85,28,2F,87,CE,FC,00,
7596118,0100082C,true,Rx,0,8,0F,C0,B9,69,65,FF,00,66,
7596396,0110483C,true,Rx,0,8,08,E9,6A,00,44,66,FC,52,
7597499,0340412E,true,Rx,0,8,74,80,00,BD,80,00,00,00,
7597790,19000026,true,Rx,0,8,00,FF,01,40,38,11,84,00,
7599739,00800006,true,Rx,0,8,41,E3,0E,50,41,E3,2E,63,
7600029,0090411E,true,Rx,0,8,02,03,61,3A,00,00,00,00,
7600307,0300410E,true,Rx,0,8,38,85,28,2F,07,CE,6C,00,
7600589,03800006,true,Rx,0,8,18,00,72,7D,75,1D,08,D0,
7600879,01C04026,true,Rx,0,8,80,00,80,00,80,00,80,00,
7601148,02000026,true,Rx,0,8,7F,34,00,DC,4D,00,E0,AC,
7601439,02104136,true,Rx,0,8,BB,00,3F,FF,07,E0,00,00,
7601720,02804026,true,Rx,0,8,37,FF,70,00,F7,63,0D,FD,
7602009,02C00020,true,Rx,0,8,00,00,00,00,00,02,75,81,
7606266,0100082C,true,Rx,0,8,0F,C0,B9,69,65,FF,00,66,
7606543,0110483C,true,Rx,0,8,08,E9,6A,00,44,66,FC,52,
7607482,0340412E,true,Rx,0,8,75,80,00,AD,80,00,00,00,
7609739,0300410E,true,Rx,0,8,B8,85,A8,2F,87,CE,FC,00,
7612311,19000026,true,Rx,0,8,00,FF,01,40,38,11,84,00,
7614736,01C04026,true,Rx,0,8,80,00,80,00,80,00,80,00,
7615022,02000026,true,Rx,0,8,7F,34,00,DC,4D,00,E0,AC,
7615301,02104136,true,Rx,0,8,BB,00,3F,FF,07,E0,00,00,
7615583,02804026,true,Rx,0,8,37,FF,70,00,F7,63,0D,FD,
7615872,02C00020,true,Rx,0,8,00,00,00,00,00,02,75,81,
7616162,19A00002,true,Rx,0,8,6E,00,00,00,00,00,00,F7,
7616445,0100082C,true,Rx,0,8,0F,C0,B9,69,65,FF,00,66,
7616724,0110483C,true,Rx,0,8,08,E9,6A,00,44,66,FC,52,
7617508,0340412E,true,Rx,0,8,76,80,00,9D,80,00,00,00,
7619772,00800006,true,Rx,0,8,89,E3,0E,4F,41,E3,AE,63,
7620063,0090411E,true,Rx,0,8,42,03,E1,3A,00,00,00,00,
7620343,0300410E,true,Rx,0,8,B8,84,28,2F,87,CE,FC,00,
7620623,03800006,true,Rx,0,8,18,00,72,7D,75,1D,08,D0,
7620905,19E00006,true,Rx,0,8,00,00,18,C0,67,00,40,00,
7621195,1B600002,true,Rx,0,8,00,80,00,0C,00,1B,4C,00,
7626285,0100082C,true,Rx,0,8,0F,C0,B9,69,75,FF,00,66,
7626561,0110483C,true,Rx,0,8,08,E9,6A,00,44,66,FC,52,
7627490,0340412E,true,Rx,0,8,77,80,00,8D,80,00,00,00,
7627771,19000026,true,Rx,0,8,00,FF,01,40,38,11,8C,00,
7628752,01C04026,true,Rx,0,8,80,00,80,00,80,00,80,00,
7629031,02000026,true,Rx,0,8,7F,34,00,DC,4D,00,E0,AC,
7629312,02104136,true,Rx,0,8,BB,00,3F,FF,07,E0,00,00,
7629592,02804026,true,Rx,0,8,37,FF,70,00,F7,63,0D,FD,
7629882,02C00020,true,Rx,0,8,00,00,00,00,00,02,75,81,
7630162,0300410E,true,Rx,0,8,38,84,28,2F,07,CE,6C,00,
7636095,0100082C,true,Rx,0,8,0F,C0,B9,69,65,FF,00,66,
7636373,0110483C,true,Rx,0,8,08,E9,EA,00,44,66,FC,52,
7637518,0340412E,true,Rx,0,8,78,80,00,7D,80,00,00,00,
7639774,00800006,true,Rx,0,8,C9,E0,0E,4D,41,E0,2E,63,
7640054,0090411E,true,Rx,0,8,02,24,E1,D4,00,00,00,00,
7640343,0300410E,true,Rx,0,8,B8,80,A8,2F,87,CB,FC,00,
7640622,03800006,true,Rx,0,8,18,00,72,7D,75,1D,08,D0,
7642302,19000026,true,Rx,0,8,00,FF,01,40,38,11,84,00,
7642779,01C04026,true,Rx,0,8,80,00,80,00,80,00,80,00,
7643048,02000026,true,Rx,0,8,7F,34,00,DC,4D,00,E0,AC,
7643340,02104136,true,Rx,0,8,BB,00,3F,FF,07,E0,00,00,
7643619,02804026,true,Rx,0,8,37,FF,70,00,F7,63,0D,FF,
7643910,02C00020,true,Rx,0,8,00,00,00,00,00,02,75,81,
7644196,19A00002,true,Rx,0,8,12,00,00,00,00,00,00,F7,
7646369,0100082C,true,Rx,0,8,0F,C0,B9,69,65,FF,00,66,
7646648,0110483C,true,Rx,0,8,08,E9,6A,00,44,66,FC,52,
7647517,0340412E,true,Rx,0,8,79,80,00,6D,80,00,00,00,
7649787,0300410E,true,Rx,0,8,38,80,28,2F,07,CB,6C,00,
7654849,1B200002,true,Rx,0,8,00,00,00,00,00,00,0F,71,
7656145,0100082C,true,Rx,0,8,0F,C0,B9,69,65,FF,00,66,
7656426,0110483C,true,Rx,0,8,08,E9,6A,00,44,66,FC,52,
7656716,01C04026,true,Rx,0,8,80,00,80,00,80,00,80,00,
7656986,02000026,true,Rx,0,8,7F,34,00,DC,4D,00,E0,AC,
7657276,02104136,true,Rx,0,8,BB,00,3F,FF,07,E0,00,00,
7657556,02804026,true,Rx,0,8,37,FF,70,00,F7,63,0D,FD,
7657847,02C00020,true,Rx,0,8,00,00,00,00,00,02,75,81,
7658127,0340412E,true,Rx,0,8,7A,80,00,5D,80,00,00,00,
7658417,19000026,true,Rx,0,8,00,FF,01,40,38,11,8C,00,
7659837,00800006,true,Rx,0,8,01,E0,0E,4C,41,E0,AE,63,
7660117,0090411E,true,Rx,0,8,C2,24,61,D4,00,00,00,00,
7660398,0300410E,true,Rx,0,8,B8,7F,28,32,87,CB,FC,00,
7660667,03800006,true,Rx,0,8,58,00,72,7D,75,1D,08,D0,
7666119,0100082C,true,Rx,0,8,0F,C0,B9,69,65,FF,00,66,
7666398,0110483C,true,Rx,0,8,08,E9,6A,00,44,66,FC,52,
7667502,0340412E,true,Rx,0,8,7B,80,00,4D,80,00,00,00,
7669799,0300410E,true,Rx,0,8,B8,7F,A8,32,87,CB,FC,00,
7670090,19E00006,true,Rx,0,8,00,00,18,E0,67,00,40,00,
7670740,01C04026,true,Rx,0,8,80,00,80,00,80,00,80,00,
7671019,02000026,true,Rx,0,8,7F,34,00,DC,4D,00,E0,AC,
7671298,02104136,true,Rx,0,8,BB,00,3F,FF,07,E0,00,00,
7671580,02804026,true,Rx,0,8,37,FF,70,00,F7,63,0D,FA,
7671870,02C00020,true,Rx,0,8,00,00,00,00,00,02,75,81,
7672159,19A00002,true,Rx,0,8,02,00,00,00,00,00,00,F7,
7672448,19000026,true,Rx,0,8,00,FF,01,40,38,11,84,00,
7676352,0100082C,true,Rx,0,8,0F,C0,B9,69,65,FF,00,66,
7676627,0110483C,true,Rx,0,8,08,E9,6A,00,44,66,FC,52,
7677505,0340412E,true,Rx,0,8,7C,80,00,3D,80,00,00,00,
7679813,00800006,true,Rx,0,8,49,E0,0E,4C,41,E0,2E,63,
7680093,0090411E,true,Rx,0,8,02,24,E1,D4,00,00,00,00,
7680374,0300410E,true,Rx,0,8,38,7F,28,32,07,CB,6C,00,
7680653,03800006,true,Rx,0,8,18,00,72,7D,75,1D,08,D0,
7684704,01C04026,true,Rx,0,8,80,00,80,00,80,00,80,00,
7684980,02000026,true,Rx,0,8,7F,34,00,DC,4D,00,E0,AC,
7685269,02104136,true,Rx,0,8,BB,00,3F,FF,07,E0,00,00,
7685551,02804026,true,Rx,0,8,37,FF,70,00,F7,63,0D,F7,
7685841,02C00020,true,Rx,0,8,00,00,00,00,00,02,75,81,
7686224,0100082C,true,Rx,0,8,0F,C0,B9,69,65,FF,00,66,
7686504,0110483C,true,Rx,0,8,08,E9,EA,00,44,66,FC,52,
7687492,0340412E,true,Rx,0,8,7D,80,00,2D,80,00,00,00,
7687772,19000026,true,Rx,0,8,00,FF,01,40,38,11,84,00,
7689852,0300410E,true,Rx,0,8,B8,77,28,32,87,CA,FC,00,
7696104,0100082C,true,Rx,0,8,0F,C0,B9,69,65,FF,00,66,
7696380,0110483C,true,Rx,0,8,08,E9,6A,00,44,66,FC,52,
7697494,0340412E,true,Rx,0,8,7E,80,00,1D,80,00,00,00,
7698721,01C04026,true,Rx,0,8,80,00,80,00,80,00,80,00,
7698990,02000026,true,Rx,0,8,7F,34,00,DC,4D,00,E0,AC,
7699280,02104136,true,Rx,0,8,BB,00,3F,FF,07,E0,00,00,
7699561,02804026,true,Rx,0,8,37,FF,70,1B,F7,63,0D,FD,
7699850,02C00020,true,Rx,0,8,00,00,00,00,00,02,75,81,
7700131,00800006,true,Rx,0,8,89,EA,0E,52,41,EA,2E,73,
7700408,0090411E,true,Rx,0,8,02,4C,E2,A1,00,00,00,00,
7700689,0300410E,true,Rx,0,8,B8,88,B8,32,87,DA,FC,00,
7700968,03800006,true,Rx,0,8,18,00,72,7D,75,1D,08,D0,
7701257,19A00002,true,Rx,0,8,12,00,00,00,00,00,00,F7,
7702303,19000026,true,Rx,0,8,00,FF,01,40,38,11,8C,00,
7706279,0100082C,true,Rx,0,8,0F,C0,B9,69,65,FF,00,66,
7706565,0110483C,true,Rx,0,8,08,E9,6A,00,44,66,FC,52,
7707515,0340412E,true,Rx,0,8,7F,80,00,0D,80,00,00,00,
7709843,0300410E,true,Rx,0,8,38,88,38,22,07,DA,6C,00,
7712740,01C04026,true,Rx,0,8,80,00,80,00,80,00,80,00,
7713016,02000026,true,Rx,0,8,7F,34,00,DC,4D,00,E0,AC,
7713306,02104136,true,Rx,0,8,BB,00,3F,FF,07,E0,00,00,
7713586,02804026,true,Rx,0,8,37,FF,70,76,F7,63,0D,FF,
7713877,02C00020,true,Rx,0,8,00,00,00,00,00,02,75,81,
7716261,0100082C,true,Rx,0,8,0F,C0,B9,69,65,FF,00,66,
7716542,0110483C,true,Rx,0,8,08,E9,6A,00,44,66,FC,52,
7717510,0340412E,true,Rx,0,8,70,80,00,FD,80,00,00,00,
7717790,19000026,true,Rx,0,8,00,FF,01,40,38,11,84,00,
7719861,00800006,true,Rx,0,8,C1,E9,0E,4D,41,E9,AE,79,
7720141,0090411E,true,Rx,0,8,42,4C,62,A1,00,00,00,00,
7720411,0300410E,true,Rx,0,8,B8,80,38,22,87,D9,FC,00,
7720692,03800006,true,Rx,0,8,18,00,72,7D,75,1D,08,D0,
7720984,19E00006,true,Rx,0,8,00,00,18,C0,67,00,40,00,
7726172,0100082C,true,Rx,0,8,0F,C0,B9,69,65,FF,00,66,
7726459,0110483C,true,Rx,0,8,08,E9,6A,00,44,66,FC,52,
7726748,01C04026,true,Rx,0,8,80,00,80,00,80,00,80,00,
7727018,02000026,true,Rx,0,8,7F,34,00,DC,4D,00,E0,AC,
7727308,02104136,true,Rx,0,8,BB,00,3F,FF,07,E0,00,00,
7727579,02804026,true,Rx,0,8,37,FF,70,D3,F7,63,0D,FF,
7727869,02C00020,true,Rx,0,8,00,00,00,00,00,02,75,81,
7728158,0340412E,true,Rx,0,8,71,80,00,ED,80,00,00,00,
7728438,19A00002,true,Rx,0,8,6E,00,00,00,00,00,00,F7,
7729893,0300410E,true,Rx,0,8,38,80,B8,22,07,D9,6C,00,
7732317,19000026,true,Rx,0,8,00,FF,01,40,38,11,8C,00,
7737183,0100082C,true,Rx,0,8,0F,C0,B9,69,65,FF,00,66,
7737459,0110483C,true,Rx,0,8,08,E7,EA,00,44,66,FC,52,
7737740,0340412E,true,Rx,0,8,72,80,00,DD,80,00,00,00,
7739873,1B200002,true,Rx,0,8,00,00,00,00,00,00,0F,71,
7740142,00800006,true,Rx,0,8,09,E9,0E,4D,41,E9,2E,79,
7740433,0090411E,true,Rx,0,8,02,4C,E3,3A,00,00,00,00,
7740713,0300410E,true,Rx,0,8,B8,80,38,22,87,D9,FC,00,
7741003,01C04026,true,Rx,0,8,80,00,80,00,80,00,80,00,
7741276,02000026,true,Rx,0,8,7F,34,00,DC,4D,00,E0,AC,
7741559,02104136,true,Rx,0,8,BB,00,3F,FF,07,E0,00,00,
7741838,02804026,true,Rx,0,8,37,FF,71,31,F7,63,0D,FD,
7742128,02C00020,true,Rx,0,8,00,00,00,00,00,02,75,81,
7742409,03800006,true,Rx,0,8,18,00,72,7D,75,1D,08,D0,
7746327,0100082C,true,Rx,0,8,0F,C0,B9,69,65,FF,00,66,
7746612,0110483C,true,Rx,0,8,08,E7,62,00,44,66,FC,52,
7746893,1A200020,true,Rx,0,8,8E,00,02,2D,00,28,02,30,
7747172,1B700030,true,Rx,0,8,3C,8E,24,00,00,C0,03,00,
7747514,0340412E,true,Rx,0,8,73,80,00,CD,80,00,00,00,
7747795,19000026,true,Rx,0,8,00,FF,01,40,38,11,84,00,
7749893,0300410E,true,Rx,0,8,B8,7D,38,22,87,D8,FC,00,
7754716,01C04026,true,Rx,0,8,80,00,80,00,80,00,80,00,
7755002,02000026,true,Rx,0,8,7F,34,00,DC,4D,00,E0,AC,
7755282,02104136,true,Rx,0,8,BB,00,3F,FF,07,E0,00,00,
7755563,02804026,true,Rx,0,8,37,FF,71,8F,F7,63,0D,FA,
7755852,02C00020,true,Rx,0,8,00,00,00,00,00,02,75,81,
7756143,19A00002,true,Rx,0,8,12,00,00,00,00,00,00,F7,
7756424,0100082C,true,Rx,0,8,0F,C0,B9,69,65,FF,00,66,
7756703,0110483C,true,Rx,0,8,08,E7,62,00,44,66,FC,52,
7757520,0340412E,true,Rx,0,8,74,80,00,BD,80,00,00,00,
7759918,00800006,true,Rx,0,8,49,E9,0E,4B,41,E9,AE,7E,
7760198,0090411E,true,Rx,0,8,C2,57,E3,CB,01,00,00,00,
7760478,0300410E,true,Rx,0,8,38,7D,B8,24,07,D8,6C,00,
7760759,03800006,true,Rx,0,8,58,00,72,7D,75,1D,08,D0,
7762308,19000026,true,Rx,0,8,00,FF,01,40,38,11,8C,00,
7766167,0100082C,true,Rx,0,8,0F,C0,B9,69,75,FF,00,66,
7766444,0110483C,true,Rx,0,8,08,E7,62,00,44,66,FC,52,
7767486,0340412E,true,Rx,0,8,75,80,00,AD,80,00,00,00,
7768733,01C04026,true,Rx,0,8,80,00,80,00,80,00,80,00,
7769012,02000026,true,Rx,0,8,7F,34,00,DC,4D,00,E0,AC,
7769292,02104136,true,Rx,0,8,BB,00,3F,FF,07,E0,00,00,
7769573,02804026,true,Rx,0,8,37,FF,71,ED,F7,63,0D,FA,
7769864,02C00020,true,Rx,0,8,00,00,00,00,00,02,75,81,
7770143,0300410E,true,Rx,0,8,B8,7C,38,24,87,D8,FC,00,
7770430,19E00006,true,Rx,0,8,00,00,18,E0,67,00,40,00,
7776188,0100082C,true,Rx,0,8,0F,C0,B9,69,65,FF,00,66,
7776465,0110483C,true,Rx,0,8,08,E7,62,00,44,66,FC,52,
7777519,0340412E,true,Rx,0,8,76,80,00,9D,80,00,00,00,
7777798,19000026,true,Rx,0,8,00,FF,01,40,38,11,84,00,
7779923,00800006,true,Rx,0,8,81,E8,0E,47,41,E8,2E,80,
7780203,0090411E,true,Rx,0,8,02,57,63,CB,01,00,00,00,
7780481,0300410E,true,Rx,0,8,B8,76,38,24,87,D8,FC,00,
7780762,03800006,true,Rx,0,8,18,00,72,7D,75,1D,08,D0,
7782750,01C04026,true,Rx,0,8,80,00,80,00,80,00,80,00,
7783030,02000026,true,Rx,0,8,7F,34,00,DC,4D,00,E0,AC,
7783321,02104136,true,Rx,0,8,BB,00,3F,FF,07,E0,00,00,
7783590,02804026,true,Rx,0,8,37,FF,72,4C,F7,63,0D,FF,
7783881,02C00020,true,Rx,0,8,00,00,00,00,00,02,75,81,
7784170,19A00002,true,Rx,0,8,02,00,00,00,00,00,00,F7,
7786291,0100082C,true,Rx,0,8,0F,C0,B9,69,65,FF,00,66,
7786568,0110483C,true,Rx,0,8,08,E7,E2,00,44,66,FC,52,
7787508,0340412E,true,Rx,0,8,77,80,00,8D,80,00,00,00,
7789919,0300410E,true,Rx,0,8,38,76,B8,24,07,D8,6C,00,
7790208,1B600002,true,Rx,0,8,00,80,00,0C,00,1B,4C,00,
7792311,19000026,true,Rx,0,8,00,FF,01,40,38,11,8C,00,
7796214,0100082C,true,Rx,0,8,0F,C0,B9,69,65,FF,00,66,
7796490,0110483C,true,Rx,0,8,08,E7,62,00,44,66,FC,52,
7796781,01C04026,true,Rx,0,8,80,00,80,00,80,00,80,00,
7797060,02000026,true,Rx,0,8,7F,34,00,DC,4D,00,E0,AC,
7797342,02104136,true,Rx,0,8,BB,00,3F,FF,07,E0,00,00,
7797623,02804026,true,Rx,0,8,37,FF,72,AB,F7,63,0D,FF,
7797912,02C00020,true,Rx,0,8,00,00,00,00,00,02,75,81,
7798191,0340412E,true,Rx,0,8,78,80,00,7D,80,00,00,00,
7799955,00800006,true,Rx,0,8,C9,E8,0E,47,41,E8,2E,80,
7800234,0090411E,true,Rx,0,8,02,22,E3,FD,01,00,00,00,
7800513,0300410E,true,Rx,0,8,B8,76,38,24,87,D8,FC,00,
7800793,03800006,true,Rx,0,8,18,00,72,7D,75,1D,08,D0,
7806193,0100082C,true,Rx,0,8,0F,C0,B9,69,65,FF,00,00,
7806470,0110483C,true,Rx,0,8,08,E7,62,00,44,66,FC,52,
7807513,0340412E,true,Rx,0,8,79,80,00,6D,80,00,00,00,
7807803,19000026,true,Rx,0,8,00,FF,01,40,38,11,84,00,
7809948,0300410E,true,Rx,0,8,38,76,38,26,07,D8,6C,00,
7810740,01C04026,true,Rx,0,8,80,00,80,00,80,00,80,00,
7811019,02000026,true,Rx,0,8,7F,34,00,DC,4D,00,E0,AC,
7811300,02104136,true,Rx,0,8,BB,00,3F,FF,07,E0,00,00,
7811580,02804026,true,Rx,0,8,37,FF,73,0A,F7,63,0D,FA,
7811870,02C00020,true,Rx,0,8,00,00,00,00,00,02,75,81,
7812161,19A00002,true,Rx,0,8,12,00,00,00,00,00,00,F7,
7812437,1BA0493C,true,Rx,0,8,09,00,00,01,01,01,01,01,
7812717,1BE0493C,true,Rx,0,8,01,10,2A,6D,D8,AE,02,04,
7816261,0100082C,true,Rx,0,8,0F,C0,B9,69,65,FF,00,00,
7816538,0110483C,true,Rx,0,8,08,E7,62,00,44,66,FC,52,
7817509,0340412E,true,Rx,0,8,7A,80,00,5D,80,00,00,00,
7819950,00800006,true,Rx,0,8,09,E8,0E,43,41,E8,AE,82,
7820230,0090411E,true,Rx,0,8,42,2E,E4,3F,01,00,00,00,
7820509,0300410E,true,Rx,0,8,B8,6E,B8,26,87,D7,FC,00,
7820789,03800006,true,Rx,0,8,18,00,72,7D,75,1D,08,D0,
7821078,19E00006,true,Rx,0,8,00,00,18,C0,67,00,40,00,
7822318,19000026,true,Rx,0,8,00,FF,01,40,38,11,84,00,
7824766,01C04026,true,Rx,0,8,80,00,80,00,80,00,80,00,
7825041,02000026,true,Rx,0,8,7F,34,00,DC,4D,00,E0,AC,
7825323,02104136,true,Rx,0,8,BB,00,3F,FF,07,E0,00,00,
7825602,02804026,true,Rx,0,8,37,FF,73,6A,F7,63,0D,F7,
7825893,02C00020,true,Rx,0,8,00,00,00,00,00,02,75,81,
7826182,1B200002,true,Rx,0,8,00,00,00,00,00,00,0F,71,
7826473,0100082C,true,Rx,0,8,0F,C0,B9,69,65,FF,00,00,
7826743,0110483C,true,Rx,0,8,08,E7,62,00,44,66,FC,52,
7827517,0340412E,true,Rx,0,8,7B,80,00,4D,80,00,00,00,
7829987,0300410E,true,Rx,0,8,B8,6A,38,26,87,D7,FC,00,
7836103,0100082C,true,Rx,0,8,0F,C0,B9,69,65,FF,00,00,
7836379,0110483C,true,Rx,0,8,08,E7,E2,00,44,66,FC,52,
7837495,0340412E,true,Rx,0,8,7C,80,00,3D,80,00,00,00,
7837784,19000026,true,Rx,0,8,00,FF,01,40,38,11,8C,00,
7838734,01C04026,true,Rx,0,8,80,00,80,00,80,00,80,00,
7839004,02000026,true,Rx,0,8,7F,34,00,DC,4D,00,E0,AC,
7839294,02104136,true,Rx,0,8,BB,00,3F,FF,07,E0,00,00,
7839564,02804026,true,Rx,0,8,37,FF,73,C9,F7,63,0D,FA,
7839855,02C00020,true,Rx,0,8,00,00,00,00,00,02,75,81,
7840144,00800006,true,Rx,0,8,41,E8,0E,40,41,E8,2E,83,
7840431,0090411E,true,Rx,0,8,02,2E,64,3F,01,00,00,00,
7840712,0300410E,true,Rx,0,8,38,6A,38,26,07,D7,6C,00,
7840991,03800006,true,Rx,0,8,18,00,72,7D,75,1D,08,D0,
7841272,19A00002,true,Rx,0,8,6E,00,00,00,00,00,00,F7,
7846171,0100082C,true,Rx,0,8,0F,C0,B9,69,65,FF,00,00,
7846447,0110483C,true,Rx,0,8,08,E7,62,00,44,66,FC,52,
7847522,0340412E,true,Rx,0,8,7D,80,00,2D,80,00,00,00,
7849975,0300410E,true,Rx,0,8,B8,6A,B8,26,87,D7,FC,00,
7852312,19000026,true,Rx,0,8,00,FF,01,40,38,11,84,00,
7852784,01C04026,true,Rx,0,8,80,00,80,00,80,00,80,00,
7853064,02000026,true,Rx,0,8,7F,34,00,DC,4D,00,E0,AC,
7853344,02104136,true,Rx,0,8,BB,00,3F,FF,07,E0,00,00,
7853625,02804026,true,Rx,0,8,37,FF,74,28,F7,63,0D,FF,
7853915,02C00020,true,Rx,0,8,00,00,00,00,00,02,75,81,
7856311,0100082C,true,Rx,0,8,0F,C0,B9,69,75,FF,00,00,
7856588,0110483C,true,Rx,0,8,08,E7,62,00,44,66,FC,52,
7857507,0340412E,true,Rx,0,8,7E,80,00,1D,80,00,00,00,
7859990,00800006,true,Rx,0,8,89,E7,0E,3C,41,E7,AE,85,
7860270,0090411E,true,Rx,0,8,42,29,E4,A1,01,00,00,00,
7860539,0300410E,true,Rx,0,8,B8,63,38,27,87,D6,FC,00,
7860819,03800006,true,Rx,0,8,18,00,72,7D,75,1D,08,D0,
7866156,0100082C,true,Rx,0,8,0F,C0,B9,69,65,FF,00,00,
7866432,0110483C,true,Rx,0,8,08,E7,62,00,44,66,FC,52,
7866754,01C04026,true,Rx,0,8,80,00,80,00,80,00,80,00,
7867033,02000026,true,Rx,0,8,7F,34,00,DC,4D,00,E0,AC,
7867324,02104136,true,Rx,0,8,BB,00,3F,FF,07,E0,00,00,
7867604,02804026,true,Rx,0,8,37,FF,74,88,F7,63,0D,FF,
7867894,02C00020,true,Rx,0,8,00,00,00,00,00,02,75,81,
7868174,0340412E,true,Rx,0,8,7F,80,00,0D,80,00,00,00,
7868463,19000026,true,Rx,0,8,00,FF,01,40,38,11,8C,00,
7868753,19A00002,true,Rx,0,8,12,00,00,00,00,00,00,F7,
7870033,0300410E,true,Rx,0,8,38,63,38,27,07,D6,6C,00,
7870324,19E00006,true,Rx,0,8,00,00,18,E0,67,00,40,00,
7876175,0100082C,true,Rx,0,8,0F,C0,B9,69,65,FF,00,00,
7876451,0110483C,true,Rx,0,8,08,E7,62,00,44,66,FC,52,
7877525,0340412E,true,Rx,0,8,70,80,00,FD,80,00,00,00,
7880008,00800006,true,Rx,0,8,C9,E7,0E,38,41,E7,2E,87,
7880293,0090411E,true,Rx,0,8,82,2D,E4,D9,02,00,00,00,
7880565,0300410E,true,Rx,0,8,B8,5E,B8,27,87,D5,FC,00,
7880854,01C04026,true,Rx,0,8,80,00,80,00,80,00,80,00,
7881133,02000026,true,Rx,0,8,7F,34,00,DC,4D,00,E0,AC,
7881415,02104136,true,Rx,0,8,BB,00,3F,FF,07,E0,00,00,
7881695,02804026,true,Rx,0,8,37,FF,74,E7,F7,63,0D,FD,
7881985,02C00020,true,Rx,0,8,00,00,00,00,00,02,75,81,
7882263,03800006,true,Rx,0,8,58,00,72,7D,75,1D,08,D0,
7882544,19000026,true,Rx,0,8,00,FF,01,40,38,11,84,00,
7886378,0100082C,true,Rx,0,8,0F,C0,B9,69,65,FF,00,00,
7886664,0110483C,true,Rx,0,8,08,E7,E2,00,44,66,FC,52,
7887521,0340412E,true,Rx,0,8,71,80,00,ED,80,00,00,00,
7890024,0300410E,true,Rx,0,8,38,5E,38,27,07,D5,6C,00,
7894755,01C04026,true,Rx,0,8,80,00,80,00,80,00,80,00,
7895032,02000026,true,Rx,0,8,7F,34,00,DC,4D,00,E0,AC,
7895311,02104136,true,Rx,0,8,BB,00,3F,FF,07,E0,00,00,
7895592,02804026,true,Rx,0,8,37,FF,75,46,F7,63,0D,F7,
7895883,02C00020,true,Rx,0,8,00,00,00,00,00,02,75,81,
7896162,19A00002,true,Rx,0,8,02,00,00,00,00,00,00,F7,
7896453,0100082C,true,Rx,0,8,0F,C0,B9,69,65,FF,00,00,
7896733,0110483C,true,Rx,0,8,08,E7,62,00,44,66,FC,52,
7897517,0340412E,true,Rx,0,8,72,80,00,DD,80,00,00,00,
7897807,19000026,true,Rx,0,8,00,FF,01,40,38,11,84,00,
7900064,00800006,true,Rx,0,8,01,E7,0E,38,41,E7,2E,86,
7900345,0090411E,true,Rx,0,8,02,2D,64,D9,02,00,00,00,
7900625,0300410E,true,Rx,0,8,B8,5D,38,27,87,D5,FC,00,
7900905,03800006,true,Rx,0,8,18,00,72,7D,75,1D,08,D0,
7906186,0100082C,true,Rx,0,8,0F,C0,B9,69,65,FF,00,00,
7906472,0110483C,true,Rx,0,8,08,E7,62,00,44,66,FC,52,
7907496,0340412E,true,Rx,0,8,73,80,00,CD,80,00,00,00,
7908773,01C04026,true,Rx,0,8,80,00,80,00,80,00,80,00,
7909054,02000026,true,Rx,0,8,7F,34,00,DC,4D,00,E0,AC,
7909344,02104136,true,Rx,0,8,BB,00,3F,FF,07,E0,00,00,
7909615,02804026,true,Rx,0,8,37,FF,75,A5,F7,63,0D,FD,
7909904,02C00020,true,Rx,0,8,00,00,00,00,00,02,75,81,
7910184,0300410E,true,Rx,0,8,B8,58,B8,28,87,D5,FC,00,
7910914,1B200002,true,Rx,0,8,00,00,00,00,00,00,0F,71,
7912313,19000026,true,Rx,0,8,00,FF,01,40,38,11,8C,00,
7916196,0100082C,true,Rx,0,8,0F,C0,B9,69,65,FF,00,00,
7916472,0110483C,true,Rx,0,8,08,E7,62,00,44,66,FC,52,
7917526,0340412E,true,Rx,0,8,74,80,00,BD,80,00,00,00,
7920049,00800006,true,Rx,0,8,49,E7,0E,35,41,E7,AE,88,
7920325,0090411E,true,Rx,0,8,42,29,E5,0A,02,00,00,00,
7920606,0300410E,true,Rx,0,8,38,58,38,28,07,D5,6C,00,
7920885,03800006,true,Rx,0,8,18,00,72,7D,75,1D,08,D0,
7921176,19E00006,true,Rx,0,8,00,00,18,C0,67,00,40,00,
7922767,01C04026,true,Rx,0,8,80,00,80,00,80,00,80,00,
7923047,02000026,true,Rx,0,8,7F,34,00,DC,4D,00,E0,AC,
7923327,02104136,true,Rx,0,8,BB,00,3F,FF,07,E0,00,00,
7923608,02804026,true,Rx,0,8,37,FF,76,05,F7,63,0D,FF,
7923897,02C00020,true,Rx,0,8,00,00,00,00,00,02,75,81,
7924188,19A00002,true,Rx,0,8,12,00,00,00,00,00,00,F7,
7926308,0100082C,true,Rx,0,8,0F,C0,B9,69,65,FF,00,00,
7926585,0110483C,true,Rx,0,8,08,E7,62,00,44,66,FC,52,
7927514,0340412E,true,Rx,0,8,75,80,00,AD,80,00,00,00,
7927794,19000026,true,Rx,0,8,00,FF,01,40,38,11,84,00,
7930063,0300410E,true,Rx,0,8,B8,52,38,28,87,D4,FC,00,
7936099,0100082C,true,Rx,0,8,0F,C0,B9,69,65,FF,00,00,
7936386,0110483C,true,Rx,0,8,08,E7,E2,00,44,66,FC,52,
7936738,01C04026,true,Rx,0,8,80,00,80,00,80,00,80,00,
7937018,02000026,true,Rx,0,8,7F,34,00,DC,4D,00,E0,AC,
7937309,02104136,true,Rx,0,8,BB,00,3F,FF,07,E0,00,00,
7937579,02804026,true,Rx,0,8,37,FF,76,64,F7,63,0D,FF,
7937868,02C00020,true,Rx,0,8,00,00,00,00,00,02,75,81,
7938168,0340412E,true,Rx,0,8,76,80,00,9D,80,00,00,00,
7940098,00800006,true,Rx,0,8,89,E6,0E,2E,41,E6,2E,8A,
7940378,0090411E,true,Rx,0,8,02,28,E5,38,02,00,00,00,
7940657,0300410E,true,Rx,0,8,B8,4C,B8,28,87,D4,FC,00,
7940937,03800006,true,Rx,0,8,18,00,72,7D,75,1D,08,D0,
7942320,19000026,true,Rx,0,8,00,FF,01,40,38,11,8C,00,
7946264,0100082C,true,Rx,0,8,0F,C0,B9,69,75,FF,00,00,
7946541,0110483C,true,Rx,0,8,08,E7,62,00,44,66,FC,52,
7947522,0340412E,true,Rx,0,8,77,80,00,8D,80,00,00,00,
7950087,0300410E,true,Rx,0,8,38,4C,38,28,07,D4,6C,00,
7950755,01C04026,true,Rx,0,8,80,00,80,00,80,00,80,00,
7951034,02000026,true,Rx,0,8,7F,34,00,DC,4D,00,E0,AC,
7951315,02104136,true,Rx,0,8,BB,00,3F,FF,07,E0,00,00,
7951595,02804026,true,Rx,0,8,37,FF,76,C3,F7,63,0D,FD,
7951886,02C00020,true,Rx,0,8,00,00,00,00,00,02,75,81,
7952166,19A00002,true,Rx,0,8,6E,00,00,00,00,00,00,F7,
7956338,0100082C,true,Rx,0,8,0F,C0,B9,69,65,FF,00,00,
7956615,0110483C,true,Rx,0,8,08,E7,62,00,44,66,FC,52,
7956905,1AE0092C,true,Rx,0,8,C0,00,22,E0,41,A0,00,00,
7957184,1B700030,true,Rx,0,8,2C,8E,24,00,00,C0,03,00,
7957548,0340412E,true,Rx,0,8,78,80,00,7D,80,00,00,00,
7957837,19000026,true,Rx,0,8,00,FF,01,40,38,11,84,00,
7960110,00800006,true,Rx,0,8,C1,E6,0E,2E,41,E6,AE,8A,
7960398,0090411E,true,Rx,0,8,C2,28,65,38,03,00,00,00,
7960667,0300410E,true,Rx,0,8,B8,4C,38,29,87,D4,FC,00,
7960936,03800006,true,Rx,0,8,58,00,72,7D,75,1D,08,D0,
7961227,1B600002,true,Rx,0,8,00,80,00,1C,00,1B,4C,00,
7964747,01C04026,true,Rx,0,8,80,00,80,00,80,00,80,00,
7965023,02000026,true,Rx,0,8,7F,34,00,DC,4D,00,E0,AC,
7965313,02104136,true,Rx,0,8,BB,00,3F,FF,07,E0,00,00,
7965583,02804026,true,Rx,0,8,37,FF,77,23,F7,63,0D,FA,
7965874,02C00020,true,Rx,0,8,00,00,00,00,00,02,75,81,
7966350,0100082C,true,Rx,0,8,0F,C0,B9,69,65,FF,00,00,
7966630,0110483C,true,Rx,0,8,08,E7,62,00,44,66,FC,52,
7967524,0340412E,true,Rx,0,8,79,80,00,6D,80,00,00,00,
7970149,0300410E,true,Rx,0,8,38,4C,B8,29,07,D4,6C,00,
7970431,19E00006,true,Rx,0,8,00,00,18,E0,67,00,40,00,
7972317,19000026,true,Rx,0,8,00,FF,01,40,38,11,8C,00,
7976268,0100082C,true,Rx,0,8,0F,C0,B9,69,65,FF,00,00,
7976546,0110483C,true,Rx,0,8,08,E7,62,00,44,66,FC,52,
7977496,0340412E,true,Rx,0,8,7A,80,00,5D,80,00,00,00,
7978744,01C04026,true,Rx,0,8,80,00,80,00,80,00,80,00,
7979023,02000026,true,Rx,0,8,7F,34,00,DC,4D,00,E0,AC,
7979303,02104136,true,Rx,0,8,BB,00,3F,FF,07,E0,00,00,
7979585,02804026,true,Rx,0,8,37,FF,77,69,F7,63,0D,FD,
7979874,02C00020,true,Rx,0,8,00,00,00,00,00,02,75,81,
7980153,00800006,true,Rx,0,8,09,E6,0E,2A,41,E6,2E,8B,
7980442,0090411E,true,Rx,0,8,02,17,E5,78,03,00,00,00,
7980721,0300410E,true,Rx,0,8,B8,46,38,29,87,D4,FC,00,
7981002,03800006,true,Rx,0,8,18,00,72,7D,75,1D,08,D0,
7981291,19A00002,true,Rx,0,8,12,00,00,00,00,00,00,F7,
7986243,0100082C,true,Rx,0,8,0F,C0,B9,69,65,FF,00,00,
7986521,0110483C,true,Rx,0,8,08,E7,E2,00,44,66,FC,52,
7987522,0340412E,true,Rx,0,8,7B,80,00,4D,80,00,00,00,
7987812,19000026,true,Rx,0,8,00,FF,01,40,38,11,84,00,
7990162,0300410E,true,Rx,0,8,B8,41,38,29,87,D3,FC,00,
7992761,01C04026,true,Rx,0,8,80,00,80,00,80,00,80,00,
7993036,02000026,true,Rx,0,8,7F,34,00,DC,4D,00,E0,AC,
7993328,02104136,true,Rx,0,8,BB,00,3F,FF,07,E0,00,00,
7993607,02804026,true,Rx,0,8,37,FF,77,97,F7,63,0D,FF,
7993897,02C00020,true,Rx,0,8,00,00,00,00,00,02,75,81,
7995859,1B200002,true,Rx,0,8,00,00,00,00,00,00,0F,71,
7996293,0100082C,true,Rx,0,8,0F,C0,B9,69,65,FF,00,00,
7996564,0110483C,true,Rx,0,8,08,E7,62,00,44,66,FC,52,
7997514,0340412E,true,Rx,0,8,7C,80,00,3D,80,00,00,00,
8000129,00800006,true,Rx,0,8,49,E6,0E,27,41,E6,2E,8C,
8000410,0090411E,true,Rx,0,8,02,1A,E5,94,03,00,00,00,
8000690,0300410E,true,Rx,0,8,38,41,B8,29,07,D3,6C,00,
8000970,03800006,true,Rx,0,8,18,00,72,7D,75,1D,08,D0,
8002322,19000026,true,Rx,0,8,00,FF,01,40,38,11,8C,00,
8006192,0100082C,true,Rx,0,8,0F,C0,B9,69,65,FF,00,00,
8006470,0110483C,true,Rx,0,8,08,E7,62,00,44,66,FC,52,
8006760,01C04026,true,Rx,0,8,80,00,80,00,80,00,80,00,
8007039,02000026,true,Rx,0,8,7F,34,00,DC,4D,00,E0,AC,
8007331,02104136,true,Rx,0,8,BB,00,3F,FF,07,E0,00,00,
8007600,02804026,true,Rx,0,8,37,FF,77,B5,F7,63,0D,FF,
8007891,02C00020,true,Rx,0,8,00,00,00,00,00,02,75,81,
8008181,0340412E,true,Rx,0,8,7D,80,00,2D,80,00,00,00,
8008470,19A00002,true,Rx,0,8,02,00,00,00,00,00,00,F7,
8010302,0300410E,true,Rx,0,8,B8,3B,38,2A,87,D3,FC,00,
8016134,0100082C,true,Rx,0,8,0F,C0,B9,69,65,FF,00,00,
8016411,0110483C,true,Rx,0,8,08,E7,62,00,44,66,FC,52,
8017525,0340412E,true,Rx,0,8,7E,80,00,1D,80,00,00,00,
8017805,19000026,true,Rx,0,8,00,FF,01,40,38,11,84,00,
8020312,00800006,true,Rx,0,8,81,E5,0E,23,41,E5,AE,8C,
8020598,0090411E,true,Rx,0,8,42,1A,65,94,03,00,00,00,
8020888,01C04026,true,Rx,0,8,80,00,80,00,80,00,80,00,
8021158,02000026,true,Rx,0,8,7F,34,00,DC,4D,00,E0,AC,
8021449,02104136,true,Rx,0,8,BB,00,3F,FF,07,E0,00,00,
8021719,02804026,true,Rx,0,8,37,FF,77,C8,F7,63,0D,FD,
8022009,02C00020,true,Rx,0,8,00,00,00,00,00,02,75,81,
8022288,0300410E,true,Rx,0,8,B8,3A,38,2A,87,D3,FC,00,
8022569,03800006,true,Rx,0,8,18,00,72,7D,75,1D,08,D0,
8022858,19E00006,true,Rx,0,8,00,00,18,C0,67,00,40,00,
8026363,0100082C,true,Rx,0,8,0F,C0,B9,69,65,FF,00,00,
8026648,0110483C,true,Rx,0,8,08,E7,62,00,44,66,FC,52,
8027527,0340412E,true,Rx,0,8,7F,80,00,0D,80,00,00,00,
8030578,0300410E,true,Rx,0,8,38,3A,B8,2A,07,D3,6C,00,
8032327,19000026,true,Rx,0,8,00,FF,01,40,38,11,84,00,
8034726,01C04026,true,Rx,0,8,80,00,80,00,80,00,80,00,
8035003,02000026,true,Rx,0,8,7F,34,00,DC,4D,00,E0,AC,
8035293,02104136,true,Rx,0,8,BB,00,3F,FF,07,E0,00,00,
8035574,02804026,true,Rx,0,8,37,FF,77,D3,F7,63,0D,FD,
8035864,02C00020,true,Rx,0,8,00,00,00,00,00,02,75,81,
8036154,19A00002,true,Rx,0,8,12,00,00,00,00,00,00,F7,
8036446,0100082C,true,Rx,0,8,0F,C0,B9,69,75,FF,00,00,
8036725,0110483C,true,Rx,0,8,08,E7,E2,00,44,66,FC,52,
8037529,0340412E,true,Rx,0,8,70,80,00,FD,80,00,00,00,
8040536,00800006,true,Rx,0,8,C9,E5,0E,21,41,E5,2E,8D,
8040822,0090411E,true,Rx,0,8,02,18,E5,BE,03,00,00,00,
8041102,0300410E,true,Rx,0,8,B8,36,38,2A,87,D2,FC,00,
8041383,03800006,true,Rx,0,8,18,00,72,7D,75,1D,08,D0,
8046214,0100082C,true,Rx,0,8,0F,C0,B9,69,65,FF,00,00,
8046492,0110483C,true,Rx,0,8,08,E7,62,00,44,66,FC,52,
8047503,0340412E,true,Rx,0,8,71,80,00,ED,80,00,00,00,
8047793,19000026,true,Rx,0,8,00,FF,01,40,38,11,8C,00,
8048764,01C04026,true,Rx,0,8,80,00,80,00,80,00,80,00,
8049043,02000026,true,Rx,0,8,7F,34,00,DC,4D,00,E0,AC,
8049324,02104136,true,Rx,0,8,BB,00,3F,FF,07,E0,00,00,
8049604,02804026,true,Rx,0,8,37,FF,77,D9,F7,63,0D,FD,
8049894,02C00020,true,Rx,0,8,00,00,00,00,00,02,75,81,
8050205,0300410E,true,Rx,0,8,38,36,38,2A,07,D2,6C,00,
8056139,0100082C,true,Rx,0,8,0F,C0,B9,69,65,FF,00,00,
8056427,0110483C,true,Rx,0,8,08,E7,62,00,44,66,FC,52,
8057532,0340412E,true,Rx,0,8,72,80,00,DD,80,00,00,00,
8060191,00800006,true,Rx,0,8,09,E5,0E,1E,41,E5,AE,8D,
8060477,0090411E,true,Rx,0,8,C2,05,E5,C4,03,00,00,00,
8060746,0300410E,true,Rx,0,8,B8,31,B8,2B,87,D2,FC,00,
8061027,03800006,true,Rx,0,8,58,00,72,7D,75,1D,08,D0,
8061306,1A200020,true,Rx,0,8,CF,00,AA,2D,00,33,02,30,
8061586,1BA0493C,true,Rx,0,8,0A,01,01,01,01,02,06,01,
8061877,1BE0493C,true,Rx,0,8,05,00,00,00,00,00,07,8F,
8062339,19000026,true,Rx,0,8,00,FF,01,40,38,11,84,00,
8062784,01C04026,true,Rx,0,8,80,00,80,00,80,00,80,00,
8063063,02000026,true,Rx,0,8,7F,34,00,DC,4D,00,E0,AC,
8063345,02104136,true,Rx,0,8,BB,00,3F,FF,07,E0,00,00,
8063625,02804026,true,Rx,0,8,37,FF,77,DE,F7,63,0D,FF,
8063914,02C00020,true,Rx,0,8,00,00,00,00,00,02,75,81,
8064195,19A00002,true,Rx,0,8,6E,00,00,00,00,00,00,F7,
8066485,0100082C,true,Rx,0,8,0F,C0,B9,69,65,FF,00,00,
8066770,0110483C,true,Rx,0,8,08,E7,62,00,44,66,FC,52,
8067555,0340412E,true,Rx,0,8,73,80,00,CD,80,00,00,00,
8070203,0300410E,true,Rx,0,8,B8,2D,38,2B,87,D2,FC,00,
8070484,19E00006,true,Rx,0,8,00,00,18,E0,67,00,40,00,
8076222,0100082C,true,Rx,0,8,0F,C0,B9,69,65,FF,00,00,
8076499,0110483C,true,Rx,0,8,08,E7,62,00,44,66,FC,52,
8076799,01C04026,true,Rx,0,8,80,00,80,00,80,00,80,00,
8077069,02000026,true,Rx,0,8,7F,34,00,DC,4D,00,E0,AC,
8077360,02104136,true,Rx,0,8,BB,00,3F,FF,07,E0,00,00,
8077640,02804026,true,Rx,0,8,37,FF,77,E2,F7,63,0D,FD,
8077930,02C00020,true,Rx,0,8,00,00,00,00,00,02,75,81,
8078210,0340412E,true,Rx,0,8,74,80,00,BD,80,00,00,00,
8078499,19000026,true,Rx,0,8,00,FF,01,40,38,11,8C,00,
8080242,00800006,true,Rx,0,8,41,E5,0E,1B,41,E5,2E,8E,
8080532,0090411E,true,Rx,0,8,02,05,65,C4,03,00,00,00,
8080811,0300410E,true,Rx,0,8,38,2D,38,2B,07,D2,6C,00,
8081091,03800006,true,Rx,0,8,18,00,72,7D,75,1D,08,D0,
8081383,1B200002,true,Rx,0,8,00,00,00,00,00,00,0F,71,
8086129,0100082C,true,Rx,0,8,0F,C0,B9,69,65,FF,00,00,
8086406,0110483C,true,Rx,0,8,08,E7,E2,00,44,66,FC,52,
8087520,0340412E,true,Rx,0,8,75,80,00,AD,80,00,00,00,
8090220,0300410E,true,Rx,0,8,B8,29,B8,2B,87,D2,FC,00,
8090743,01C04026,true,Rx,0,8,80,00,80,00,80,00,80,00,
8091023,02000026,true,Rx,0,8,7F,34,00,DC,4D,00,E0,AC,
8091313,02104136,true,Rx,0,8,BB,00,3F,FF,07,E0,00,00,
8091583,02804026,true,Rx,0,8,37,FF,77,E4,F7,63,0D,FD,
8091874,02C00020,true,Rx,0,8,00,00,00,00,00,02,75,81,
8092164,19A00002,true,Rx,0,8,12,00,00,00,00,00,00,F7,
8092452,19000026,true,Rx,0,8,00,FF,01,40,38,11,84,00,
8096387,0100082C,true,Rx,0,8,0F,C0,B9,69,65,FF,00,00,
8096662,0110483C,true,Rx,0,8,08,E7,62,00,44,66,FC,52,
8097529,0340412E,true,Rx,0,8,76,80,00,9D,80,00,00,00,
8100228,00800006,true,Rx,0,8,89,E5,0E,19,41,E5,2E,8E,
8100515,0090411E,true,Rx,0,8,02,04,E5,D0,03,00,00,00,
8100794,0300410E,true,Rx,0,8,B8,29,38,2B,87,D2,FC,00,
8101075,03800006,true,Rx,0,8,18,00,72,7D,75,1D,08,D0,
8104758,01C04026,true,Rx,0,8,80,00,80,00,80,00,80,00,
8105033,02000026,true,Rx,0,8,7F,34,00,DC,4D,00,E0,AC,
8105324,02104136,true,Rx,0,8,BB,00,3F,FF,07,E0,00,00,
8105594,02804026,true,Rx,0,8,37,FF,77,E5,F7,63,0D,FA,
8105884,02C00020,true,Rx,0,8,00,00,00,00,00,02,75,81,
8106298,0100082C,true,Rx,0,8,0F,C0,B9,69,65,FF,00,00,
8106578,0110483C,true,Rx,0,8,08,E7,62,00,44,66,FC,52,
8107514,0340412E,true,Rx,0,8,77,80,00,8D,80,00,00,00,
8107795,19000026,true,Rx,0,8,00,FF,01,40,38,11,84,00,
8110277,0300410E,true,Rx,0,8,38,29,38,2B,07,D2,6C,00,
8116135,0100082C,true,Rx,0,8,0F,C0,B9,69,65,FF,00,00,
8116414,0110483C,true,Rx,0,8,08,E7,62,00,44,66,FC,52,
8117507,0340412E,true,Rx,0,8,78,80,00,7D,80,00,00,00,
8118765,01C04026,true,Rx,0,8,80,00,80,00,80,00,80,00,
8119034,02000026,true,Rx,0,8,7F,34,00,DC,4D,00,E0,AC,
8119325,02104136,true,Rx,0,8,BB,00,3F,FF,07,E0,00,00,
8119605,02804026,true,Rx,0,8,37,FF,77,E4,F7,63,0D,FD,
8119895,02C00020,true,Rx,0,8,00,00,00,00,00,02,75,81,
8120175,19A00002,true,Rx,0,8,02,00,00,00,00,00,00,F7,
8120452,00800006,true,Rx,0,8,C9,E5,0E,16,41,E5,AE,8E,
8120731,0090411E,true,Rx,0,8,42,09,E5,DA,03,00,00,00,
8121012,0300410E,true,Rx,0,8,B8,24,B8,2B,87,D2,FC,00,
8121291,03800006,true,Rx,0,8,18,00,72,7D,75,1D,08,D0,
8121583,19E00006,true,Rx,0,8,00,00,18,C0,67,00,40,00,
8122333,19000026,true,Rx,0,8,00,FF,01,40,38,11,8C,00,
8126339,0100082C,true,Rx,0,8,0F,C0,B9,69,75,FF,00,00,
8126624,0110483C,true,Rx,0,8,08,E7,62,00,44,66,FC,52,
8127523,0340412E,true,Rx,0,8,79,80,00,6D,80,00,00,00,
8130263,0300410E,true,Rx,0,8,38,24,38,2B,07,D2,6C,00,
8130550,1B600002,true,Rx,0,8,00,80,00,0C,00,1B,4C,00,
8132773,01C04026,true,Rx,0,8,80,00,80,00,80,00,80,00,
8133052,02000026,true,Rx,0,8,7F,34,00,DC,4D,00,E0,AC,
8133344,02104136,true,Rx,0,8,BB,00,3F,FF,07,E0,00,00,
8133624,02804026,true,Rx,0,8,37,FF,77,E6,F7,63,0D,FD,
8133914,02C00020,true,Rx,0,8,00,00,00,00,00,02,75,81,
8136353,0100082C,true,Rx,0,8,0F,C0,B9,69,65,FF,00,00,
8136639,0110483C,true,Rx,0,8,08,E7,E2,00,44,66,FC,52,
8137537,0340412E,true,Rx,0,8,7A,80,00,5D,80,00,00,00,
8137828,19000026,true,Rx,0,8,00,FF,01,40,38,11,84,00,
8140282,00800006,true,Rx,0,8,01,E4,0E,14,41,E4,2E,8E,
8140568,0090411E,true,Rx,0,8,02,09,65,DA,03,00,00,00,
8140839,0300410E,true,Rx,0,8,B8,21,38,2B,87,D1,FC,00,
8141118,03800006,true,Rx,0,8,18,00,72,7D,75,1D,08,D0,
8146179,0100082C,true,Rx,0,8,0F,C0,B9,69,65,FF,00,00,
8146455,0110483C,true,Rx,0,8,08,E7,62,00,44,66,FC,52,
8146755,01C04026,true,Rx,0,8,80,00,80,00,80,00,80,00,
8147026,02000026,true,Rx,0,8,7F,34,00,DC,4D,00,E0,AC,
8147317,02104136,true,Rx,0,8,BB,00,3F,FF,07,E0,00,00,
8147597,02804026,true,Rx,0,8,37,FF,77,E7,F7,63,0D,FD,
8147888,02C00020,true,Rx,0,8,00,00,00,00,00,02,75,81,
8148167,0340412E,true,Rx,0,8,7B,80,00,4D,80,00,00,00,
8148458,19A00002,true,Rx,0,8,12,00,00,00,00,00,00,F7,
8150310,0300410E,true,Rx,0,8,B8,1E,B8,2B,87,D1,FC,00,
8152329,19000026,true,Rx,0,8,00,FF,01,40,38,11,8C,00,
8156230,0100082C,true,Rx,0,8,0F,C0,B9,69,65,FF,00,00,
8156517,0110483C,true,Rx,0,8,08,E7,62,00,44,66,FC,52,
8157528,0340412E,true,Rx,0,8,7C,80,00,3D,80,00,00,00,
8160289,00800006,true,Rx,0,8,49,E4,0E,12,41,E4,AE,8D,
8160566,0090411E,true,Rx,0,8,C1,F6,E5,D5,04,00,00,00,
8160856,01C04026,true,Rx,0,8,80,00,80,00,80,00,80,00,
8161136,02000026,true,Rx,0,8,7F,34,00,DC,4D,00,E0,AC,
8161427,02104136,true,Rx,0,8,BB,00,3F,FF,07,E0,00,00,
8161707,02804026,true,Rx,0,8,37,FF,77,E7,F7,63,0D,FD,
8161997,02C00020,true,Rx,0,8,00,00,00,00,00,02,75,81,
8162277,0300410E,true,Rx,0,8,38,1E,38,2C,07,D1,6C,00,
8162546,03800006,true,Rx,0,8,58,00,72,7D,75,1D,08,D0,
8165893,1B200002,true,Rx,0,8,00,00,00,00,00,00,0F,71,
8166319,0100082C,true,Rx,0,8,0F,C0,B9,69,65,FF,00,00,
8166596,0110483C,true,Rx,0,8,08,E7,62,00,44,66,FC,52,
8166876,1B700030,true,Rx,0,8,2C,8E,22,00,00,C0,03,00,
8167506,0340412E,true,Rx,0,8,7D,80,00,2D,80,00,00,00,
8167797,19000026,true,Rx,0,8,00,FF,01,40,38,11,84,00,
8170314,0300410E,true,Rx,0,8,B8,1E,38,2C,87,D1,FC,00,
8170601,19E00006,true,Rx,0,8,00,00,18,E0,67,00,40,00,
8174764,01C04026,true,Rx,0,8,80,00,80,00,80,00,80,00,
8175040,02000026,true,Rx,0,8,7F,34,00,DC,4D,00,E0,AC,
8175331,02104136,true,Rx,0,8,BB,00,3F,FF,07,E0,00,00,
