Time Stamp,ID,Extended,Dir,Bus,LEN,D1,D2,D3,D4,D5,D6,D7,D8
36975318,1AE0092C,true,Rx,0,8,A0,00,22,20,01,A0,00,00,
36975604,1B700030,true,Rx,0,8,2C,91,22,00,00,00,03,00,
36985406,0100082C,true,Rx,0,8,0F,C0,BE,FD,62,08,1A,1E,
36985682,0110483C,true,Rx,0,8,08,E0,20,08,44,66,FC,55,
36995370,0100082C,true,Rx,0,8,0F,C0,BE,FD,62,08,1A,1E,
36995656,0110483C,true,Rx,0,8,08,E0,20,00,44,66,FC,55,
37000359,1BA0493C,true,Rx,0,8,05,03,01,01,01,02,01,03,
37000644,1BE0493C,true,Rx,0,8,01,00,2A,88,96,89,FD,FB,
37005377,0100082C,true,Rx,0,8,0F,C0,BE,FD,62,08,1A,1E,
37005665,0110483C,true,Rx,0,8,08,E0,20,00,44,66,FC,54,
37015373,0100082C,true,Rx,0,8,0F,C0,BE,FD,62,08,1A,1E,
37015659,0110483C,true,Rx,0,8,08,E0,A0,00,44,66,FC,54,
37025389,0100082C,true,Rx,0,8,0F,C0,BE,FD,62,08,1A,1E,
37025665,0110483C,true,Rx,0,8,08,E0,20,00,44,66,FC,52,
37035383,0100082C,true,Rx,0,8,0F,C0,BE,FD,62,08,1A,1E,
37035660,0110483C,true,Rx,0,8,08,E0,20,00,44,66,FC,52,
37045376,0100082C,true,Rx,0,8,0F,C0,BE,FD,62,08,1A,1E,
37045653,0110483C,true,Rx,0,8,08,E0,20,00,44,66,FC,52,
37055390,0100082C,true,Rx,0,8,0F,C0,BE,FD,62,08,1A,1E,
37055667,0110483C,true,Rx,0,8,08,E0,20,00,44,66,FC,52,
37061530,00800006,true,Rx,0,8,60,00,00,00,00,00,00,00,
37061817,0090411E,true,Rx,0,8,00,00,00,00,00,00,00,00,
37062118,0300410E,true,Rx,0,8,00,00,00,00,00,00,00,00,
37062407,03800006,true,Rx,0,8,00,00,00,00,00,00,00,00,
37062708,19E00006,true,Rx,0,8,00,00,00,C0,00,00,00,00,
37062999,1B600002,true,Rx,0,8,00,00,00,00,00,00,00,00,
37063382,0300410E,true,Rx,0,8,00,00,00,00,00,00,00,00,
37065379,00800006,true,Rx,0,8,80,00,00,00,00,00,00,00,
37065676,0090411E,true,Rx,0,8,00,00,00,00,00,00,00,00,
37065967,0100082C,true,Rx,0,8,0F,C0,BE,FD,62,08,1A,1E,
37066247,0110483C,true,Rx,0,8,08,E0,A0,00,44,66,FC,52,
37066537,0300410E,true,Rx,0,8,00,00,00,00,00,00,00,00,
37066837,03800006,true,Rx,0,8,00,00,00,00,00,00,00,00,
37067396,0300410E,true,Rx,0,8,00,00,00,00,00,00,00,00,
37069394,00800006,true,Rx,0,8,C0,00,00,00,00,00,00,00,
37069679,0090411E,true,Rx,0,8,00,00,00,00,00,00,00,00,
37069970,0300410E,true,Rx,0,8,00,00,00,00,00,00,00,00,
37070271,03800006,true,Rx,0,8,00,00,00,00,00,00,00,00,
37071396,0300410E,true,Rx,0,8,00,00,00,00,00,00,00,00,
37071689,19E00006,true,Rx,0,8,00,00,00,C0,00,00,00,00,
37073391,00800006,true,Rx,0,8,00,00,00,00,00,00,00,00,
37073689,0090411E,true,Rx,0,8,00,00,00,00,00,00,00,00,
37073981,0300410E,true,Rx,0,8,00,00,00,00,00,00,00,00,
37074281,03800006,true,Rx,0,8,00,00,00,00,00,00,00,00,
37075395,0300410E,true,Rx,0,8,00,00,00,00,00,00,00,00,
37075698,0100082C,true,Rx,0,8,0F,C0,BE,FD,62,08,1A,1E,
37075958,0110483C,true,Rx,0,8,08,E0,20,00,44,66,FC,52,
37077402,00800006,true,Rx,0,8,40,00,00,00,00,00,00,00,
37077692,0090411E,true,Rx,0,8,00,00,00,00,00,00,00,00,
37077986,0300410E,true,Rx,0,8,00,00,00,00,00,00,00,00,
37078276,03800006,true,Rx,0,8,00,00,00,00,00,00,00,00,
37079401,0300410E,true,Rx,0,8,00,00,00,00,00,00,00,00,
37081402,00800006,true,Rx,0,8,80,00,00,00,00,00,00,00,
37081692,0090411E,true,Rx,0,8,00,00,00,00,00,00,00,00,
37081992,0300410E,true,Rx,0,8,00,00,00,00,00,00,00,00,
37082281,03800006,true,Rx,0,8,00,00,00,00,00,00,00,00,
37082582,19E00006,true,Rx,0,8,00,00,00,C0,00,00,00,00,
37083408,0300410E,true,Rx,0,8,00,00,00,00,00,00,00,00,
37085401,00800006,true,Rx,0,8,C0,00,00,00,00,00,00,00,
37085691,0090411E,true,Rx,0,8,00,00,00,00,00,00,00,00,
37085980,0100082C,true,Rx,0,8,0F,C0,BE,FD,62,08,1A,1E,
37086261,0110483C,true,Rx,0,8,08,E0,20,00,44,66,FC,52,
37086561,0300410E,true,Rx,0,8,00,00,00,00,00,00,00,00,
37086850,03800006,true,Rx,0,8,00,00,00,00,00,00,00,00,
37087420,0300410E,true,Rx,0,8,00,00,00,00,00,00,00,00,
37089406,00800006,true,Rx,0,8,00,00,00,00,00,00,00,00,
37089706,0090411E,true,Rx,0,8,00,00,00,00,00,00,00,00,
37089995,0300410E,true,Rx,0,8,00,00,00,00,00,00,00,00,
37090296,03800006,true,Rx,0,8,00,00,00,00,00,00,00,00,
37091410,0300410E,true,Rx,0,8,00,00,00,00,00,00,00,00,
37091701,19E00006,true,Rx,0,8,00,00,00,C0,00,00,00,00,
37093416,00800006,true,Rx,0,8,40,00,00,00,00,00,00,00,
37093705,0090411E,true,Rx,0,8,00,00,00,00,00,00,00,00,
37094006,0300410E,true,Rx,0,8,00,00,00,00,00,00,00,00,
37094295,03800006,true,Rx,0,8,00,00,00,00,00,00,00,00,
37095421,0300410E,true,Rx,0,8,00,00,00,00,00,00,00,00,
37095711,0100082C,true,Rx,0,8,0F,C0,BE,FD,62,08,1A,1E,
37095984,0110483C,true,Rx,0,8,08,E0,20,00,44,66,FC,52,
37096285,1B600002,true,Rx,0,8,00,00,00,00,00,00,00,00,
37097430,00800006,true,Rx,0,8,80,00,00,00,00,00,00,00,
37097720,0090411E,true,Rx,0,8,00,00,00,00,00,00,00,00,
37098015,0300410E,true,Rx,0,8,00,00,00,00,00,00,00,00,
37098304,03800006,true,Rx,0,8,00,00,00,00,00,00,00,00,
37099419,0300410E,true,Rx,0,8,00,00,00,00,00,00,00,00,
37101421,00800006,true,Rx,0,8,C0,00,00,00,00,00,00,00,
37101711,0090411E,true,Rx,0,8,00,00,00,00,00,00,00,00,
37102011,0300410E,true,Rx,0,8,00,00,00,00,00,00,00,00,
37102310,03800006,true,Rx,0,8,00,00,00,00,00,00,00,00,
37102601,19E00006,true,Rx,0,8,00,00,00,C0,00,00,00,00,
37103427,0300410E,true,Rx,0,8,00,00,00,00,00,00,00,00,
37105432,00800006,true,Rx,0,8,00,00,00,00,00,00,00,00,
37105722,0090411E,true,Rx,0,8,00,00,00,00,00,00,00,00,
37106011,0100082C,true,Rx,0,8,0F,C0,BE,FD,62,08,1A,1E,
37106291,0110483C,true,Rx,0,8,08,E0,20,00,44,66,FC,52,
37106580,0300410E,true,Rx,0,8,00,00,00,00,00,00,00,00,
37106882,03800006,true,Rx,0,8,00,00,00,00,00,00,00,00,
37107439,0300410E,true,Rx,0,8,00,00,00,00,00,00,00,00,
37109436,00800006,true,Rx,0,8,40,00,00,00,00,00,00,00,
37109725,0090411E,true,Rx,0,8,00,00,00,00,00,00,00,00,
37110024,0300410E,true,Rx,0,8,00,00,00,00,00,00,00,00,
37110315,03800006,true,Rx,0,8,00,00,00,00,00,00,00,00,
37111429,0300410E,true,Rx,0,8,00,00,00,00,00,00,00,00,
37111730,19E00006,true,Rx,0,8,00,00,00,C0,00,00,00,00,
37113435,00800006,true,Rx,0,8,80,00,00,00,00,00,00,00,
37113724,0090411E,true,Rx,0,8,00,00,00,00,00,00,00,00,
37114024,0300410E,true,Rx,0,8,00,00,00,00,00,00,00,00,
37114314,03800006,true,Rx,0,8,00,00,00,00,00,00,00,00,
37115440,0300410E,true,Rx,0,8,00,00,00,00,00,00,00,00,
37115729,0100082C,true,Rx,0,8,0F,C0,BE,FD,62,08,1A,1E,
37116010,0110483C,true,Rx,0,8,08,E0,A0,00,44,66,FC,52,
37117438,00800006,true,Rx,0,8,C0,00,00,00,00,00,00,00,
37117728,0090411E,true,Rx,0,8,00,00,00,00,00,00,00,00,
37118030,0300410E,true,Rx,0,8,00,00,00,00,00,00,00,00,
37118319,03800006,true,Rx,0,8,00,00,00,00,00,00,00,00,
37119434,0300410E,true,Rx,0,8,00,00,00,00,00,00,00,00,
37121443,00800006,true,Rx,0,8,00,00,00,00,00,00,00,00,
37121734,0090411E,true,Rx,0,8,00,00,00,00,00,00,00,00,
37122035,0300410E,true,Rx,0,8,00,00,00,00,00,00,00,00,
37122327,03800006,true,Rx,0,8,00,00,00,00,00,00,00,00,
37122626,19E00006,true,Rx,0,8,00,00,00,C0,00,00,00,00,
37123442,0300410E,true,Rx,0,8,00,00,00,00,00,00,00,00,
37125444,00800006,true,Rx,0,8,40,00,00,00,00,00,00,00,
37125734,0090411E,true,Rx,0,8,00,00,00,00,00,00,00,00,
37126025,0100082C,true,Rx,0,8,0F,C0,BE,FD,62,08,1A,1E,
37126306,0110483C,true,Rx,0,8,08,E0,20,00,44,66,FC,52,
37126596,0300410E,true,Rx,0,8,00,00,00,00,00,00,00,00,
37126897,03800006,true,Rx,0,8,00,00,00,00,00,00,00,00,
37127455,0300410E,true,Rx,0,8,00,00,00,00,00,00,00,00,
37129458,00800006,true,Rx,0,8,80,00,00,00,00,00,00,00,
37129748,0090411E,true,Rx,0,8,00,00,00,00,00,00,00,00,
37130040,0300410E,true,Rx,0,8,00,00,00,00,00,00,00,00,
37130340,03800006,true,Rx,0,8,00,00,00,00,00,00,00,00,
37130630,1B600002,true,Rx,0,8,00,00,00,00,00,00,00,00,
37131457,0300410E,true,Rx,0,8,00,00,00,00,00,00,00,00,
37131748,19E00006,true,Rx,0,8,00,00,00,C0,00,00,00,00,
37133452,00800006,true,Rx,0,8,C0,00,00,00,00,00,00,00,
37133742,0090411E,true,Rx,0,8,00,00,00,00,00,00,00,00,
37134044,0300410E,true,Rx,0,8,00,00,00,00,00,00,00,00,
37134334,03800006,true,Rx,0,8,00,00,00,00,00,00,00,00,
37135459,0300410E,true,Rx,0,8,00,00,00,00,00,00,00,00,
37135738,0100082C,true,Rx,0,8,0F,C0,BE,FD,62,08,1A,1E,
37136020,0110483C,true,Rx,0,8,08,E0,20,00,44,66,FC,52,
37137466,00800006,true,Rx,0,8,00,00,00,00,00,00,00,00,
37137757,0090411E,true,Rx,0,8,00,00,00,00,00,00,00,00,
37138058,0300410E,true,Rx,0,8,00,00,00,00,00,00,00,00,
37138348,03800006,true,Rx,0,8,00,00,00,00,00,00,00,00,
37139463,0300410E,true,Rx,0,8,00,00,00,00,00,00,00,00,
37141462,00800006,true,Rx,0,8,40,00,00,00,00,00,00,00,
37141752,0090411E,true,Rx,0,8,00,00,00,00,00,00,00,00,
37142053,0300410E,true,Rx,0,8,00,00,00,00,00,00,00,00,
37142344,03800006,true,Rx,0,8,00,00,00,00,00,00,00,00,
37142644,19E00006,true,Rx,0,8,00,00,00,C0,00,00,00,00,
37143470,0300410E,true,Rx,0,8,00,00,00,00,00,00,00,00,
37145472,00800006,true,Rx,0,8,80,00,00,00,00,00,00,00,
37145761,0090411E,true,Rx,0,8,00,00,00,00,00,00,00,00,
37146052,0100082C,true,Rx,0,8,0F,C0,BE,FD,62,08,1A,1E,
37146333,0110483C,true,Rx,0,8,08,E0,20,00,44,66,FC,52,
37146623,0300410E,true,Rx,0,8,00,00,00,00,00,00,00,00,
37146925,03800006,true,Rx,0,8,00,00,00,00,00,00,00,00,
37147482,0300410E,true,Rx,0,8,00,00,00,00,00,00,00,00,
37149475,00800006,true,Rx,0,8,C0,00,00,00,00,00,00,00,
37149764,0090411E,true,Rx,0,8,00,00,00,00,00,00,00,00,
37150057,0300410E,true,Rx,0,8,00,00,00,00,00,00,00,00,
37150357,03800006,true,Rx,0,8,00,00,00,00,00,00,00,00,
37151482,0300410E,true,Rx,0,8,00,00,00,00,00,00,00,00,
37151773,19E00006,true,Rx,0,8,00,00,00,C0,00,00,00,00,
37153475,00800006,true,Rx,0,8,00,00,00,00,00,00,00,00,
37153765,0090411E,true,Rx,0,8,00,00,00,00,00,00,00,00,
37154067,0300410E,true,Rx,0,8,00,00,00,00,00,00,00,00,
37154357,03800006,true,Rx,0,8,00,00,00,00,00,00,00,00,
37155473,0300410E,true,Rx,0,8,00,00,00,00,00,00,00,00,
37155763,0100082C,true,Rx,0,8,0F,C0,BE,FD,66,08,1A,20,
37156043,0110483C,true,Rx,0,8,08,E0,20,00,44,66,FC,52,
37157469,00800006,true,Rx,0,8,40,00,00,00,00,00,00,00,
37157760,0090411E,true,Rx,0,8,00,00,00,00,00,00,00,00,
37158051,0300410E,true,Rx,0,8,00,00,00,00,00,00,00,00,
37158350,03800006,true,Rx,0,8,00,00,00,00,00,00,00,00,
37165391,0100082C,true,Rx,0,8,0F,C0,BE,FD,66,08,1A,20,
37165677,0110483C,true,Rx,0,8,08,E0,A0,00,44,66,FC,52,
37167479,0300410E,true,Rx,0,8,B7,CA,98,33,87,CA,FC,00,
37175373,0100082C,true,Rx,0,8,0F,C0,BE,FD,66,08,1A,20,
37175648,0110483C,true,Rx,0,8,08,E2,20,00,44,66,FC,52,
37177490,00800006,true,Rx,0,8,89,DE,0D,DE,41,DE,A6,6B,
37177771,0090411E,true,Rx,0,8,C2,00,E0,00,00,00,00,00,
37178051,0300410E,true,Rx,0,8,B7,C6,18,33,87,C6,FC,00,
37178351,03800006,true,Rx,0,8,70,00,00,00,00,00,00,00,
37178642,19E00006,true,Rx,0,8,00,00,18,E0,47,00,40,00,
37185391,0100082C,true,Rx,0,8,0F,C0,BE,FD,66,08,1A,20,
37185676,0110483C,true,Rx,0,8,08,E2,20,00,44,66,FC,52,
37185957,1B700030,true,Rx,0,8,20,91,22,00,00,C0,03,00,
37187502,0300410E,true,Rx,0,8,37,C6,18,33,07,C6,6C,00,
37187793,1B600002,true,Rx,0,8,00,80,00,40,00,1A,08,00,
37195379,0100082C,true,Rx,0,8,0F,C0,BE,FD,66,08,1A,20,
37195654,0110483C,true,Rx,0,8,08,E2,20,00,44,66,FC,52,
37197506,00800006,true,Rx,0,8,C9,E4,0D,E4,41,E4,26,6D,
37197797,0090411E,true,Rx,0,8,02,00,E0,00,00,00,00,00,
37198067,0300410E,true,Rx,0,8,B7,D0,98,33,87,D0,FC,00,
37198368,03800006,true,Rx,0,8,30,00,00,00,00,00,00,00,
37205391,0100082C,true,Rx,0,8,0F,C0,BE,FD,66,08,1A,20,
37205666,0110483C,true,Rx,0,8,08,E2,20,00,44,66,FC,52,
37207520,0300410E,true,Rx,0,8,37,D0,18,33,07,D0,6C,00,
37215372,0100082C,true,Rx,0,8,0F,C0,BE,FD,66,08,1A,20,
37215657,0110483C,true,Rx,0,8,08,E2,A0,00,44,66,FC,52,
37217540,00800006,true,Rx,0,8,01,E4,0D,E4,41,E4,A6,6D,
37217820,0090411E,true,Rx,0,8,42,00,60,00,00,00,00,00,
37218102,0300410E,true,Rx,0,8,B7,D0,19,0B,87,D0,FC,00,
37218403,03800006,true,Rx,0,8,30,00,00,00,00,00,00,00,
37225396,0100082C,true,Rx,0,8,0F,C0,BE,FD,66,08,1A,20,
37225682,0110483C,true,Rx,0,8,08,E2,20,00,44,66,FC,52,
37227534,0300410E,true,Rx,0,8,B7,D0,99,0B,87,D0,FC,00,
37227825,19E00006,true,Rx,0,8,00,00,18,C0,47,00,40,00,
37235379,0100082C,true,Rx,0,8,0F,C0,BE,FD,66,08,1A,20,
37235665,0110483C,true,Rx,0,8,08,E2,20,00,44,66,FC,52,
37237549,00800006,true,Rx,0,8,49,E4,0D,E4,41,E4,26,6F,
37237839,0090411E,true,Rx,0,8,02,00,E0,00,00,00,00,00,
37238119,0300410E,true,Rx,0,8,37,D0,19,0B,07,D0,6C,00,
37238410,03800006,true,Rx,0,8,30,00,00,00,00,00,00,00,
37245371,0100082C,true,Rx,0,8,0F,C0,BE,FD,66,08,1A,20,
37245646,0110483C,true,Rx,0,8,08,E2,20,00,44,66,FC,52,
37247562,0300410E,true,Rx,0,8,B7,D0,19,0B,87,D0,FC,00,
37250444,1BA0493C,true,Rx,0,8,06,02,01,07,04,01,02,01,
37250724,1BE0493C,true,Rx,0,8,02,4B,8E,00,3B,00,00,00,
37255446,0100082C,true,Rx,0,8,0F,C0,BE,FD,66,08,1A,20,
37255722,0110483C,true,Rx,0,8,08,E2,20,00,44,66,FC,52,
37257606,00800006,true,Rx,0,8,89,E4,0D,E4,41,E4,26,6F,
37257897,0090411E,true,Rx,0,8,02,00,E0,00,00,00,00,00,
37258166,0300410E,true,Rx,0,8,B7,D0,99,0B,87,D0,FC,00,
37258467,03800006,true,Rx,0,8,30,00,00,00,00,00,00,00,
37265387,0100082C,true,Rx,0,8,0F,C0,BE,FD,66,08,1A,20,
37265662,0110483C,true,Rx,0,8,08,E2,A0,00,44,66,FC,52,
37267577,0300410E,true,Rx,0,8,37,D0,19,0B,07,D0,6C,00,
37275400,0100082C,true,Rx,0,8,0F,C0,BE,FD,66,08,1A,20,
37275685,0110483C,true,Rx,0,8,08,E2,20,00,44,66,FC,52,
37277590,00800006,true,Rx,0,8,C1,E4,0D,E4,41,E4,A6,6F,
37277881,0090411E,true,Rx,0,8,C2,00,60,00,00,00,00,00,
37278160,0300410E,true,Rx,0,8,B7,D0,19,0B,87,D0,FC,00,
37278461,03800006,true,Rx,0,8,70,00,00,00,00,00,00,00,
37278751,19E00006,true,Rx,0,8,00,00,18,E0,47,00,40,00,
37285385,0100082C,true,Rx,0,8,0F,C0,BE,FD,66,08,1A,20,
37285661,0110483C,true,Rx,0,8,08,E2,20,00,44,66,FC,52,
37287607,0300410E,true,Rx,0,8,37,D0,99,0B,07,D0,6C,00,
37290417,1A200020,true,Rx,0,8,4E,00,02,2D,00,00,02,3B,
37295374,0100082C,true,Rx,0,8,0F,C0,BE,FD,66,08,1A,20,
37295649,0110483C,true,Rx,0,8,08,E2,20,00,44,66,FC,52,
37297615,00800006,true,Rx,0,8,09,E4,0D,E4,41,E4,26,6F,
37297896,0090411E,true,Rx,0,8,02,00,E0,00,00,00,00,00,
37298175,0300410E,true,Rx,0,8,B7,D0,19,0B,87,D0,FC,00,
37298476,03800006,true,Rx,0,8,30,00,00,00,00,00,00,00,
37305376,0100082C,true,Rx,0,8,0F,C0,BE,FD,66,08,1A,20,
37305651,0110483C,true,Rx,0,8,08,E2,20,00,44,66,FC,52,
37307617,0300410E,true,Rx,0,8,B7,D0,19,0B,87,D0,FC,00,
37315376,0100082C,true,Rx,0,8,0F,C0,BE,FD,66,08,1A,20,
37315651,0110483C,true,Rx,0,8,08,E2,A0,00,44,66,FC,52,
37317629,00800006,true,Rx,0,8,49,E4,0D,E4,41,E4,A6,6F,
37317909,0090411E,true,Rx,0,8,42,00,E0,00,00,00,00,00,
37318190,0300410E,true,Rx,0,8,37,D0,99,0B,07,D0,6C,00,
37318489,03800006,true,Rx,0,8,30,00,00,00,00,00,00,00,
37325420,0100082C,true,Rx,0,8,0F,C0,BE,FD,66,08,1A,20,
37325706,0110483C,true,Rx,0,8,08,E2,20,00,44,66,FC,52,
37327641,0300410E,true,Rx,0,8,B7,D0,19,0B,87,D0,FC,00,
37327923,19E00006,true,Rx,0,8,00,00,18,C0,47,00,40,00,
37335374,0100082C,true,Rx,0,8,0F,C0,BE,FD,66,08,1A,20,
37335649,0110483C,true,Rx,0,8,08,E2,20,00,44,66,FC,52,
37337708,00800006,true,Rx,0,8,81,E4,0D,E4,41,E4,26,6F,
37337999,0090411E,true,Rx,0,8,02,00,60,00,00,00,00,00,
37338280,0300410E,true,Rx,0,8,B7,D0,19,0B,87,D0,FC,00,
37338579,03800006,true,Rx,0,8,30,00,00,00,00,00,00,00,
37345389,0100082C,true,Rx,0,8,0F,C0,BE,FD,66,08,1A,20,
37345664,0110483C,true,Rx,0,8,08,E2,20,00,44,66,FC,52,
37347661,0300410E,true,Rx,0,8,37,D0,99,0B,07,D0,6C,00,
37355370,0100082C,true,Rx,0,8,0F,C0,BE,FD,66,08,1A,20,
37355655,0110483C,true,Rx,0,8,08,E2,20,00,44,66,FC,52,
37357663,00800006,true,Rx,0,8,C9,E4,0D,E4,41,E4,26,6F,
37357954,0090411E,true,Rx,0,8,02,00,E0,00,00,00,00,00,
37358235,0300410E,true,Rx,0,8,B7,D0,19,0B,87,D0,FC,00,
37358524,03800006,true,Rx,0,8,30,00,00,00,00,00,00,00,
37358814,1B600002,true,Rx,0,8,00,80,00,40,00,1A,4C,00,
37365387,0100082C,true,Rx,0,8,0F,C0,BE,FD,66,08,1A,20,
37365662,0110483C,true,Rx,0,8,08,E2,A0,00,44,66,FC,52,
37367680,0300410E,true,Rx,0,8,37,D0,19,0B,07,D0,6C,00,
37375409,0100082C,true,Rx,0,8,0F,C0,BE,FD,66,08,1A,20,
37375695,0110483C,true,Rx,0,8,08,E2,20,00,44,66,FC,52,
37377692,00800006,true,Rx,0,8,09,E4,0D,E4,41,E4,A6,6F,
37377983,0090411E,true,Rx,0,8,C2,00,E0,00,00,00,00,00,
37378253,0300410E,true,Rx,0,8,B7,D0,99,0B,87,D0,FC,00,
37378553,03800006,true,Rx,0,8,70,00,00,00,00,00,00,00,
37378843,19E00006,true,Rx,0,8,00,00,18,E0,47,00,40,00,
37385384,0100082C,true,Rx,0,8,0F,C0,BE,FD,66,08,1A,20,
37385659,0110483C,true,Rx,0,8,08,E2,20,00,44,66,FC,52,
37387698,0300410E,true,Rx,0,8,B7,D0,19,0B,87,D0,FC,00,
37395396,0100082C,true,Rx,0,8,0F,C0,BE,FD,66,08,1A,20,
37395682,0110483C,true,Rx,0,8,08,E2,20,00,44,66,FC,52,
37395963,1AE0092C,true,Rx,0,8,C0,00,22,E0,41,A0,00,00,
37396253,1B700030,true,Rx,0,8,20,91,22,00,00,C0,03,00,
37397717,00800006,true,Rx,0,8,41,E4,0D,E4,41,E4,26,6F,
37398008,0090411E,true,Rx,0,8,02,00,60,00,00,00,00,00,
37398289,0300410E,true,Rx,0,8,37,D0,19,0B,07,D0,6C,00,
37398589,03800006,true,Rx,0,8,30,00,00,00,00,00,00,00,
37405396,0100082C,true,Rx,0,8,0F,C0,BE,FD,66,08,1A,20,
37405671,0110483C,true,Rx,0,8,08,E2,20,00,44,66,FC,52,
37407710,0300410E,true,Rx,0,8,B7,D0,99,0B,87,D0,FC,00,
37415376,0100082C,true,Rx,0,8,0F,C0,BE,FD,66,08,1A,20,
37415662,0110483C,true,Rx,0,8,08,E2,A0,00,44,66,FC,52,
37417783,00800006,true,Rx,0,8,89,E4,0D,E4,41,E4,A6,6F,
37418075,0090411E,true,Rx,0,8,42,00,E0,00,00,00,00,00,
37418354,0300410E,true,Rx,0,8,B7,D0,19,0B,87,D0,FC,00,
37418654,03800006,true,Rx,0,8,30,00,00,00,00,00,00,00,
37425420,0100082C,true,Rx,0,8,0F,C0,BE,FD,66,08,1A,20,
37425697,0110483C,true,Rx,0,8,08,E2,20,00,44,66,FC,52,
37427744,0300410E,true,Rx,0,8,37,D0,19,0B,07,D0,6C,00,
37428026,19E00006,true,Rx,0,8,00,00,18,C0,47,00,40,00,
37435383,0100082C,true,Rx,0,8,0F,C0,BE,FD,66,08,1A,20,
37435658,0110483C,true,Rx,0,8,08,E2,20,00,44,66,FC,52,
37437748,00800006,true,Rx,0,8,C9,E4,0D,E4,41,E4,26,6F,
37438030,0090411E,true,Rx,0,8,02,00,E0,00,00,00,00,00,
37438309,0300410E,true,Rx,0,8,B7,D0,99,0B,87,D0,FC,00,
37438609,03800006,true,Rx,0,8,30,00,00,00,00,00,00,00,
37445375,0100082C,true,Rx,0,8,0F,C0,BE,FD,66,08,1A,20,
37445650,0110483C,true,Rx,0,8,08,E2,20,00,44,66,FC,52,
37447762,0300410E,true,Rx,0,8,37,D0,19,0B,07,D0,6C,00,
37455378,0100082C,true,Rx,0,8,0F,C0,BE,FD,66,08,1A,20,
37455665,0110483C,true,Rx,0,8,08,E2,20,00,44,66,FC,52,
37457774,00800006,true,Rx,0,8,01,E4,0D,E4,41,E4,26,6F,
37458066,0090411E,true,Rx,0,8,02,00,60,00,00,00,00,00,
37458345,0300410E,true,Rx,0,8,B7,D0,19,0B,87,D0,FC,00,
37458645,03800006,true,Rx,0,8,30,00,00,00,00,00,00,00,
37465381,0100082C,true,Rx,0,8,0F,C0,BE,FD,66,08,1A,20,
37465667,0110483C,true,Rx,0,8,08,E2,A0,00,44,66,FC,52,
37467778,0300410E,true,Rx,0,8,B7,D0,99,0B,87,D0,FC,00,
37475424,0100082C,true,Rx,0,8,0F,C0,BE,FD,66,08,1A,20,
37475700,0110483C,true,Rx,0,8,08,E2,20,00,44,66,FC,52,
37477788,00800006,true,Rx,0,8,49,E4,0D,E4,41,E4,A6,6F,
37478070,0090411E,true,Rx,0,8,C2,00,E0,00,00,00,00,00,
37478360,0300410E,true,Rx,0,8,37,D0,19,0B,07,D0,6C,00,
37478649,03800006,true,Rx,0,8,70,00,00,00,00,00,00,00,
37478941,19E00006,true,Rx,0,8,00,00,18,E0,47,00,40,00,
37485377,0100082C,true,Rx,0,8,0F,C0,BE,FD,66,08,1A,20,
37485654,0110483C,true,Rx,0,8,08,E2,20,00,44,66,FC,52,
37487794,0300410E,true,Rx,0,8,B7,D0,19,0B,87,D0,FC,00,
37495367,0100082C,true,Rx,0,8,0F,C0,BE,FD,66,08,1A,20,
37495654,0110483C,true,Rx,0,8,08,E2,20,00,44,66,FC,52,
37497866,00800006,true,Rx,0,8,89,E4,0D,E4,41,E4,26,6F,
37498157,0090411E,true,Rx,0,8,02,00,E0,00,00,00,00,00,
37498426,0300410E,true,Rx,0,8,B7,D0,99,0B,87,D0,FC,00,
37498727,03800006,true,Rx,0,8,30,00,00,00,00,00,00,00,
37500483,1BA0493C,true,Rx,0,8,07,01,03,00,02,01,01,01,
37505397,0100082C,true,Rx,0,8,0F,C0,BE,FD,66,08,1A,20,
37505674,0110483C,true,Rx,0,8,08,E2,20,00,44,66,FC,52,
37507814,0300410E,true,Rx,0,8,37,D0,19,0B,07,D0,6C,00,
37515380,0100082C,true,Rx,0,8,0F,C0,BE,FD,66,08,1A,20,
37515656,0110483C,true,Rx,0,8,08,E2,A0,00,44,66,FC,52,
37517828,00800006,true,Rx,0,8,C1,E4,0D,E4,41,E4,A6,6F,
37518120,0090411E,true,Rx,0,8,42,00,60,00,00,00,00,00,
37518400,0300410E,true,Rx,0,8,B7,D0,19,0B,87,D0,FC,00,
37518701,03800006,true,Rx,0,8,30,00,00,00,00,00,00,00,
37525404,0100082C,true,Rx,0,8,0F,C0,BE,FD,66,08,1A,20,
37525691,0110483C,true,Rx,0,8,08,E2,20,00,44,66,FC,52,
37527842,0300410E,true,Rx,0,8,37,D0,99,0B,07,D0,6C,00,
37528122,19E00006,true,Rx,0,8,00,00,18,C0,47,00,40,00,
37528412,1B600002,true,Rx,0,8,00,80,00,40,00,1A,4C,00,
37535381,0100082C,true,Rx,0,8,0F,C0,BE,FD,66,08,1A,20,
37535657,0110483C,true,Rx,0,8,08,E2,20,00,44,66,FC,52,
37537850,00800006,true,Rx,0,8,09,E4,0D,E4,41,E4,26,6F,
37538131,0090411E,true,Rx,0,8,02,00,E0,00,00,00,00,00,
37538410,0300410E,true,Rx,0,8,B7,D0,19,0B,87,D0,FC,00,
37538711,03800006,true,Rx,0,8,30,00,00,00,00,00,00,00,
37545394,0100082C,true,Rx,0,8,0F,C0,BE,FD,66,08,1A,20,
37545670,0110483C,true,Rx,0,8,08,E2,20,00,44,66,FC,52,
37547852,0300410E,true,Rx,0,8,B7,D0,19,0B,87,D0,FC,00,
37555384,0100082C,true,Rx,0,8,0F,C0,BE,FD,66,08,1A,20,
37555671,0110483C,true,Rx,0,8,08,E2,20,00,44,66,FC,52,
37557864,00800006,true,Rx,0,8,49,E4,0D,E4,41,E4,26,6F,
37558155,0090411E,true,Rx,0,8,02,00,E0,00,00,00,00,00,
37558434,0300410E,true,Rx,0,8,37,D0,99,0B,07,D0,6C,00,
37558735,03800006,true,Rx,0,8,30,00,00,00,00,00,00,00,
37565378,0100082C,true,Rx,0,8,0F,C0,BE,FD,66,08,1A,20,
37565654,0110483C,true,Rx,0,8,08,E2,A0,00,44,66,FC,52,
37567879,0300410E,true,Rx,0,8,B7,D0,19,0B,87,D0,FC,00,
37575420,0100082C,true,Rx,0,8,0F,C0,BE,FD,66,08,1A,20,
37575697,0110483C,true,Rx,0,8,08,E2,20,00,44,66,FC,52,
37577952,00800006,true,Rx,0,8,81,E4,0D,E4,41,E4,A6,6F,
37578242,0090411E,true,Rx,0,8,C2,00,60,00,00,00,00,00,
37578522,0300410E,true,Rx,0,8,B7,D0,19,0B,87,D0,FC,00,
37578812,03800006,true,Rx,0,8,70,00,00,00,00,00,00,00,
37579103,19E00006,true,Rx,0,8,00,00,18,E0,47,00,40,00,
37585416,0100082C,true,Rx,0,8,0F,C0,BE,FD,66,08,1A,20,
37585693,0110483C,true,Rx,0,8,08,E2,20,00,44,66,FC,52,
37587898,0300410E,true,Rx,0,8,37,D0,99,0B,07,D0,6C,00,
37595398,0100082C,true,Rx,0,8,0F,C0,BE,FD,66,08,1A,20,
37595675,0110483C,true,Rx,0,8,08,E2,20,00,44,66,FC,52,
37597899,00800006,true,Rx,0,8,C9,E4,0D,E4,41,E4,26,6F,
37598189,0090411E,true,Rx,0,8,02,00,E0,00,00,00,00,00,
37598468,0300410E,true,Rx,0,8,B7,D0,19,0B,87,D0,FC,00,
37598769,03800006,true,Rx,0,8,30,00,00,00,00,00,00,00,
37605412,0100082C,true,Rx,0,8,0F,C0,BE,FD,66,08,1A,20,
37605687,0110483C,true,Rx,0,8,08,E2,20,00,44,66,FC,52,
37605968,1A200020,true,Rx,0,8,8E,00,02,2D,00,00,02,3C,
37606259,1B700030,true,Rx,0,8,20,91,22,00,00,C0,03,00,
37607931,0300410E,true,Rx,0,8,37,D0,19,0B,07,D0,6C,00,
37615391,0100082C,true,Rx,0,8,0F,C0,BE,FD,66,08,1A,20,
37615666,0110483C,true,Rx,0,8,08,E2,A0,00,44,66,FC,52,
37617931,00800006,true,Rx,0,8,09,E4,0D,E4,41,E4,A6,6F,
37618211,0090411E,true,Rx,0,8,42,00,E0,00,00,00,00,00,
37618491,0300410E,true,Rx,0,8,B7,D0,99,0B,87,D0,FC,00,
37618791,03800006,true,Rx,0,8,30,00,00,00,00,00,00,00,
37625423,0100082C,true,Rx,0,8,0F,C0,BE,FD,66,08,1A,20,
37625709,0110483C,true,Rx,0,8,08,E2,20,00,44,66,FC,52,
37627933,0300410E,true,Rx,0,8,B7,D0,19,0B,87,D0,FC,00,
37628223,19E00006,true,Rx,0,8,00,00,18,C0,47,00,40,00,
37635386,0100082C,true,Rx,0,8,0F,C0,BE,FD,66,08,1A,20,
37635672,0110483C,true,Rx,0,8,08,E2,20,00,44,66,FC,52,
37637948,00800006,true,Rx,0,8,41,E4,0D,E4,41,E4,26,6F,
37638237,0090411E,true,Rx,0,8,02,00,60,00,00,00,00,00,
37638518,0300410E,true,Rx,0,8,37,D0,19,0B,07,D0,6C,00,
37638817,03800006,true,Rx,0,8,30,00,00,00,00,00,00,00,
37645389,0100082C,true,Rx,0,8,0F,C0,BE,FD,66,08,1A,20,
37645675,0110483C,true,Rx,0,8,08,E2,20,00,44,66,FC,52,
37647951,0300410E,true,Rx,0,8,B7,D0,99,0B,87,D0,FC,00,
37655380,0100082C,true,Rx,0,8,0F,C0,BE,FD,66,08,1A,20,
37655666,0110483C,true,Rx,0,8,08,E2,20,00,44,66,FC,52,
37658024,00800006,true,Rx,0,8,89,E4,0D,E4,41,E4,26,6F,
37658313,0090411E,true,Rx,0,8,02,00,E0,00,00,00,00,00,
37658594,0300410E,true,Rx,0,8,B7,D0,19,0B,87,D0,FC,00,
37658884,03800006,true,Rx,0,8,30,00,00,00,00,00,00,00,
37665382,0100082C,true,Rx,0,8,0F,C0,BE,FD,66,08,1A,20,
37665657,0110483C,true,Rx,0,8,08,E2,A0,00,44,66,FC,52,
37667975,0300410E,true,Rx,0,8,37,D0,19,0B,07,D0,6C,00,
37675425,0100082C,true,Rx,0,8,0F,C0,BE,FD,66,08,1A,20,
37675701,0110483C,true,Rx,0,8,08,E2,20,00,44,66,FC,52,
37677987,00800006,true,Rx,0,8,C9,E4,0D,E4,41,E4,A6,6F,
37678276,0090411E,true,Rx,0,8,C2,00,E0,00,00,00,00,00,
37678546,0300410E,true,Rx,0,8,B7,D0,99,0B,87,D0,FC,00,
37678846,03800006,true,Rx,0,8,70,00,00,00,00,00,00,00,
37679138,19E00006,true,Rx,0,8,00,00,18,E0,47,00,40,00,
37685390,0100082C,true,Rx,0,8,0F,C0,BE,FD,66,08,1A,20,
37685676,0110483C,true,Rx,0,8,08,E2,20,00,44,66,FC,52,
37688003,0300410E,true,Rx,0,8,37,D0,19,0B,07,D0,6C,00,
37695381,0100082C,true,Rx,0,8,0F,C0,BE,FD,66,08,1A,20,
37695666,0110483C,true,Rx,0,8,08,E2,20,00,44,66,FC,52,
37698015,00800006,true,Rx,0,8,01,E4,0D,E4,41,E4,26,6F,
37698305,0090411E,true,Rx,0,8,02,00,60,00,00,00,00,00,
37698585,0300410E,true,Rx,0,8,B7,D0,19,0B,87,D0,FC,00,
37698875,03800006,true,Rx,0,8,30,00,00,00,00,00,00,00,
37699167,1B600002,true,Rx,0,8,00,80,00,40,00,1A,4C,00,
37705421,0100082C,true,Rx,0,8,0F,C0,BE,FD,66,08,1A,20,
37705696,0110483C,true,Rx,0,8,08,E2,20,00,44,66,FC,52,
37708013,0300410E,true,Rx,0,8,B7,D0,99,0B,87,D0,FC,00,
37715380,0100082C,true,Rx,0,8,0F,C0,BE,FD,66,08,1A,20,
37715665,0110483C,true,Rx,0,8,08,E2,A0,00,44,66,FC,52,
37718023,00800006,true,Rx,0,8,49,E4,0D,E4,41,E4,A6,6F,
37718314,0090411E,true,Rx,0,8,42,00,E0,00,00,00,00,00,
37718593,0300410E,true,Rx,0,8,37,D0,19,0B,07,D0,6C,00,
37718894,03800006,true,Rx,0,8,30,00,00,00,00,00,00,00,
37725423,0100082C,true,Rx,0,8,0F,C0,BE,FD,66,08,1A,20,
37725698,0110483C,true,Rx,0,8,08,E2,20,00,44,66,FC,52,
37728036,0300410E,true,Rx,0,8,B7,D0,19,0B,87,D0,FC,00,
37728316,19E00006,true,Rx,0,8,00,00,18,C0,47,00,40,00,
37735386,0100082C,true,Rx,0,8,0F,C0,BE,FD,66,08,1A,20,
37735662,0110483C,true,Rx,0,8,08,E2,20,00,44,66,FC,52,
37738103,00800006,true,Rx,0,8,89,E4,0D,E4,41,E4,26,6F,
37738394,0090411E,true,Rx,0,8,02,00,E0,00,00,00,00,00,
37738673,0300410E,true,Rx,0,8,B7,D0,99,0B,87,D0,FC,00,
37738964,03800006,true,Rx,0,8,30,00,00,00,00,00,00,00,
37745390,0100082C,true,Rx,0,8,0F,C0,BE,FD,66,08,1A,20,
37745676,0110483C,true,Rx,0,8,08,E2,20,00,44,66,FC,52,
37748054,0300410E,true,Rx,0,8,37,D0,19,0B,07,D0,6C,00,
37750432,1BA0493C,true,Rx,0,8,08,02,01,12,01,01,01,02,
37755388,0100082C,true,Rx,0,8,0F,C0,BE,FD,66,08,1A,20,
37755664,0110483C,true,Rx,0,8,08,E2,20,00,44,66,FC,52,
37758063,00800006,true,Rx,0,8,C1,E4,0D,E4,41,E4,26,6F,
37758354,0090411E,true,Rx,0,8,02,00,60,00,00,00,00,00,
37758633,0300410E,true,Rx,0,8,B7,D0,19,0B,87,D0,FC,00,
37758934,03800006,true,Rx,0,8,30,00,00,00,00,00,00,00,
37765391,0100082C,true,Rx,0,8,0F,C0,BE,FD,66,08,1A,20,
37765676,0110483C,true,Rx,0,8,08,E2,A0,00,44,66,FC,52,
37768077,0300410E,true,Rx,0,8,37,D0,99,0B,07,D0,6C,00,
37775413,0100082C,true,Rx,0,8,0F,C0,BE,FD,66,08,1A,20,
37775699,0110483C,true,Rx,0,8,08,E2,20,00,44,66,FC,52,
37778088,00800006,true,Rx,0,8,09,E4,0D,E4,41,E4,A6,6F,
37778378,0090411E,true,Rx,0,8,C2,00,E0,00,00,00,00,00,
37778658,0300410E,true,Rx,0,8,B7,D0,19,0B,87,D0,FC,00,
37778948,03800006,true,Rx,0,8,70,00,00,00,00,00,00,00,
37779239,19E00006,true,Rx,0,8,00,00,18,E0,47,00,40,00,
37785389,0100082C,true,Rx,0,8,0F,C0,BE,FD,66,08,1A,20,
37785674,0110483C,true,Rx,0,8,08,E2,20,00,44,66,FC,52,
37788094,0300410E,true,Rx,0,8,B7,D0,19,0B,87,D0,FC,00,
37795390,0100082C,true,Rx,0,8,0F,C0,BE,FD,66,08,1A,20,
37795675,0110483C,true,Rx,0,8,08,E2,20,00,44,66,FC,52,
37798105,00800006,true,Rx,0,8,49,E4,0D,E4,41,E4,26,6F,
37798396,0090411E,true,Rx,0,8,02,00,E0,00,00,00,00,00,
37798675,0300410E,true,Rx,0,8,37,D0,99,0B,07,D0,6C,00,
37798967,03800006,true,Rx,0,8,30,00,00,00,00,00,00,00,
37805392,0100082C,true,Rx,0,8,0F,C0,BE,FD,66,08,1A,20,
37805677,0110483C,true,Rx,0,8,08,E2,20,00,44,66,FC,52,
37808117,0300410E,true,Rx,0,8,B7,D0,19,0B,87,D0,FC,00,
37815423,0100082C,true,Rx,0,8,0F,C0,BE,FD,66,08,1A,20,
37815698,0110483C,true,Rx,0,8,08,E2,A0,00,44,66,FC,52,
37815980,1AE0092C,true,Rx,0,8,00,00,22,E0,41,A0,00,00,
37816269,1B700030,true,Rx,0,8,30,91,22,00,00,C0,03,00,
37818199,00800006,true,Rx,0,8,81,E4,0D,E4,41,E4,A6,6F,
37818488,0090411E,true,Rx,0,8,42,00,60,00,00,00,00,00,
37818768,0300410E,true,Rx,0,8,B7,D0,19,0B,87,D0,FC,00,
37819060,03800006,true,Rx,0,8,30,00,00,00,00,00,00,00,
37825422,0100082C,true,Rx,0,8,0F,C0,BE,FD,66,08,1A,20,
37825697,0110483C,true,Rx,0,8,08,E2,20,00,44,66,FC,52,
37828139,0300410E,true,Rx,0,8,37,D0,99,0B,07,D0,6C,00,
37828418,19E00006,true,Rx,0,8,00,00,18,C0,47,00,40,00,
37835385,0100082C,true,Rx,0,8,0F,C0,BE,FD,66,08,1A,20,
37835671,0110483C,true,Rx,0,8,08,E2,20,00,44,66,FC,52,
37838145,00800006,true,Rx,0,8,C9,E4,0D,E4,41,E4,26,6F,
37838434,0090411E,true,Rx,0,8,02,00,E0,00,00,00,00,00,
37838703,0300410E,true,Rx,0,8,B7,D0,19,0B,87,D0,FC,00,
37839005,03800006,true,Rx,0,8,30,00,00,00,00,00,00,00,
37845391,0100082C,true,Rx,0,8,0F,C0,BE,FD,66,08,1A,20,
37845666,0110483C,true,Rx,0,8,08,E2,20,00,44,66,FC,52,
37848160,0300410E,true,Rx,0,8,37,D0,19,0B,07,D0,6C,00,
37855394,0100082C,true,Rx,0,8,0F,C0,BE,FD,66,08,1A,20,
37855680,0110483C,true,Rx,0,8,08,E2,20,00,44,66,FC,52,
37858162,00800006,true,Rx,0,8,09,E4,0D,E4,41,E4,26,6F,
37858452,0090411E,true,Rx,0,8,02,00,E0,00,00,00,00,00,
37858731,0300410E,true,Rx,0,8,B7,D0,99,0B,87,D0,FC,00,
37859023,03800006,true,Rx,0,8,30,00,00,00,00,00,00,00,
37865407,0100082C,true,Rx,0,8,0F,C0,BE,FD,66,08,1A,20,
37865692,0110483C,true,Rx,0,8,08,E2,A0,00,44,66,FC,52,
37868175,0300410E,true,Rx,0,8,B7,D0,19,0B,87,D0,FC,00,
37868465,1B600002,true,Rx,0,8,00,80,00,40,00,1A,4C,00,
37875411,0100082C,true,Rx,0,8,0F,C0,BE,FD,66,08,1A,20,
37875697,0110483C,true,Rx,0,8,08,E2,20,00,44,66,FC,52,
37878191,00800006,true,Rx,0,8,41,E4,0D,E4,41,E4,A6,6F,
37878480,0090411E,true,Rx,0,8,C2,00,60,00,00,00,00,00,
37878759,0300410E,true,Rx,0,8,37,D0,19,0B,07,D0,6C,00,
37879052,03800006,true,Rx,0,8,70,00,00,00,00,00,00,00,
37879341,19E00006,true,Rx,0,8,00,00,18,E0,47,00,40,00,
37885408,0100082C,true,Rx,0,8,0F,C0,BE,FD,66,08,1A,20,
37885683,0110483C,true,Rx,0,8,08,E2,20,00,44,66,FC,52,
37888196,0300410E,true,Rx,0,8,B7,D0,99,0B,87,D0,FC,00,
37895389,0100082C,true,Rx,0,8,0F,C0,BE,FD,66,08,1A,20,
37895664,0110483C,true,Rx,0,8,08,E2,20,00,44,66,FC,52,
37898208,00800006,true,Rx,0,8,89,E4,0D,E4,41,E4,26,6F,
37898487,0090411E,true,Rx,0,8,02,00,E0,00,00,00,00,00,
37898778,0300410E,true,Rx,0,8,37,D0,19,0B,07,D0,6C,00,
37899069,03800006,true,Rx,0,8,30,00,00,00,00,00,00,00,
37905391,0100082C,true,Rx,0,8,0F,C0,BE,FD,66,08,1A,20,
37905677,0110483C,true,Rx,0,8,08,E2,20,00,44,66,FC,52,
37908211,0300410E,true,Rx,0,8,B7,D0,19,0B,87,D0,FC,00,
37915392,0100082C,true,Rx,0,8,0F,C0,BE,FD,66,08,1A,20,
37915667,0110483C,true,Rx,0,8,08,E2,A0,00,44,66,FC,52,
37918221,00800006,true,Rx,0,8,C9,E4,0D,E4,41,E4,A6,6F,
37918511,0090411E,true,Rx,0,8,42,00,E0,00,00,00,00,00,
37918781,0300410E,true,Rx,0,8,B7,D0,99,0B,87,D0,FC,00,
37919082,03800006,true,Rx,0,8,30,00,00,00,00,00,00,00,
37920467,1A200020,true,Rx,0,8,CE,00,02,2D,00,00,02,3C,
37925432,0100082C,true,Rx,0,8,0F,C0,BE,FD,66,08,1A,20,
37925708,0110483C,true,Rx,0,8,08,E2,20,00,44,66,FC,52,
37928241,0300410E,true,Rx,0,8,37,D0,19,0B,07,D0,6C,00,
37928520,19E00006,true,Rx,0,8,00,00,18,C0,47,00,40,00,
37935386,0100082C,true,Rx,0,8,0F,C0,BE,FD,66,08,1A,20,
37935672,0110483C,true,Rx,0,8,08,E2,20,00,44,66,FC,52,
37938247,00800006,true,Rx,0,8,01,E4,0D,E4,41,E4,26,6F,
37938536,0090411E,true,Rx,0,8,02,00,60,00,00,00,00,00,
37938817,0300410E,true,Rx,0,8,B7,D0,19,0B,87,D0,FC,00,
37939118,03800006,true,Rx,0,8,30,00,00,00,00,00,00,00,
37945400,0100082C,true,Rx,0,8,0F,C0,BE,FD,66,08,1A,20,
37945677,0110483C,true,Rx,0,8,08,E2,20,00,44,66,FC,52,
37948251,0300410E,true,Rx,0,8,B7,D0,99,0B,87,D0,FC,00,
37955401,0100082C,true,Rx,0,8,0F,C0,BE,FD,66,08,1A,20,
37955688,0110483C,true,Rx,0,8,08,E2,20,00,44,66,FC,52,
37958262,00800006,true,Rx,0,8,49,E4,0D,E4,41,E4,26,6F,
37958552,0090411E,true,Rx,0,8,02,00,E0,00,00,00,00,00,
37958833,0300410E,true,Rx,0,8,37,D0,19,0B,07,D0,6C,00,
37959134,03800006,true,Rx,0,8,30,00,00,00,00,00,00,00,
37965394,0100082C,true,Rx,0,8,0F,C0,BE,FD,66,08,1A,20,
37965670,0110483C,true,Rx,0,8,08,E2,A0,00,44,66,FC,52,
37968275,0300410E,true,Rx,0,8,B7,D0,19,0B,87,D0,FC,00,
37975407,0100082C,true,Rx,0,8,0F,C0,BE,FD,66,08,1A,20,
37975693,0110483C,true,Rx,0,8,08,E2,20,00,44,66,FC,52,
37978329,00800006,true,Rx,0,8,89,E4,0D,E4,41,E4,A6,6F,
37978619,0090411E,true,Rx,0,8,C2,00,E0,00,00,00,00,00,
37978901,0300410E,true,Rx,0,8,B7,D0,99,0B,87,D0,FC,00,
37979190,03800006,true,Rx,0,8,70,00,00,00,00,00,00,00,
37979483,19E00006,true,Rx,0,8,00,00,18,E0,47,00,40,00,
37985406,0100082C,true,Rx,0,8,0F,C0,BE,FD,66,08,1A,20,
37985683,0110483C,true,Rx,0,8,08,E2,20,00,44,66,FC,52,
37988298,0300410E,true,Rx,0,8,37,D0,19,0B,07,D0,6C,00,
37995397,0100082C,true,Rx,0,8,0F,C0,BE,FD,66,08,1A,20,
37995673,0110483C,true,Rx,0,8,08,E2,20,00,44,66,FC,52,
37998309,00800006,true,Rx,0,8,C1,E4,0D,E4,41,E4,26,6F,
37998599,0090411E,true,Rx,0,8,02,00,60,00,00,00,00,00,
37998881,0300410E,true,Rx,0,8,B7,D0,19,0B,87,D0,FC,00,
37999170,03800006,true,Rx,0,8,30,00,00,00,00,00,00,00,
38000473,1BA0493C,true,Rx,0,8,09,00,00,01,01,01,01,01,
38000762,1BE0493C,true,Rx,0,8,01,00,2A,88,99,25,02,04,
38005431,0100082C,true,Rx,0,8,0F,C0,BE,FD,66,08,1A,20,
38005707,0110483C,true,Rx,0,8,08,E2,20,00,44,66,FC,52,
38008314,0300410E,true,Rx,0,8,37,D0,99,0B,07,D0,6C,00,
38015391,0100082C,true,Rx,0,8,0F,C0,BE,FD,66,08,1A,20,
38015668,0110483C,true,Rx,0,8,08,E2,A0,00,44,66,FC,52,
38018324,00800006,true,Rx,0,8,09,E4,0D,E4,41,E4,A6,6F,
38018615,0090411E,true,Rx,0,8,42,00,E0,00,00,00,00,00,
38018895,0300410E,true,Rx,0,8,B7,D0,19,0B,87,D0,FC,00,
38019185,03800006,true,Rx,0,8,30,00,00,00,00,00,00,00,
38025424,0100082C,true,Rx,0,8,0F,C0,BE,FD,66,08,1A,20,
38025701,0110483C,true,Rx,0,8,08,E2,20,00,44,66,FC,52,
38025991,1B700030,true,Rx,0,8,2C,91,22,00,00,C0,03,00,
38028340,0300410E,true,Rx,0,8,B7,D0,19,0B,87,D0,FC,00,
38028621,19E00006,true,Rx,0,8,00,00,18,C0,47,00,40,00,
38035392,0100082C,true,Rx,0,8,0F,C0,BE,FD,66,08,1A,20,
38035669,0110483C,true,Rx,0,8,08,E2,20,00,44,66,FC,52,
38038346,00800006,true,Rx,0,8,49,E4,0D,E4,41,E4,26,6F,
38038626,0090411E,true,Rx,0,8,02,00,E0,00,00,00,00,00,
38038906,0300410E,true,Rx,0,8,37,D0,99,0B,07,D0,6C,00,
38039206,03800006,true,Rx,0,8,30,00,00,00,00,00,00,00,
38039500,1B600002,true,Rx,0,8,00,80,00,40,00,1A,4C,00,
38045412,0100082C,true,Rx,0,8,0F,C0,BE,FD,66,08,1A,20,
38045688,0110483C,true,Rx,0,8,08,E2,20,00,44,66,FC,52,
38048355,0300410E,true,Rx,0,8,B7,D0,19,0B,87,D0,FC,00,
38055391,0100082C,true,Rx,0,8,0F,C0,BE,FD,66,08,1A,20,
38055668,0110483C,true,Rx,0,8,08,E2,20,00,44,66,FC,52,
38058365,00800006,true,Rx,0,8,81,E4,0D,E4,41,E4,26,6F,
38058656,0090411E,true,Rx,0,8,02,00,60,00,00,00,00,00,
38058936,0300410E,true,Rx,0,8,B7,D0,19,0B,87,D0,FC,00,
38059236,03800006,true,Rx,0,8,30,00,00,00,00,00,00,00,
38065404,0100082C,true,Rx,0,8,0F,C0,BE,FD,66,08,1A,20,
38065691,0110483C,true,Rx,0,8,08,E2,A0,00,44,66,FC,52,
38068377,0300410E,true,Rx,0,8,37,D0,99,0B,07,D0,6C,00,
38075405,0100082C,true,Rx,0,8,0F,C0,BE,FD,66,08,1A,20,
38075692,0110483C,true,Rx,0,8,08,E2,20,00,44,66,FC,52,
38078379,00800006,true,Rx,0,8,C9,E4,0D,E4,41,E4,A6,6F,
38078670,0090411E,true,Rx,0,8,C2,00,E0,00,00,00,00,00,
38078950,0300410E,true,Rx,0,8,B7,D0,19,0B,87,D0,FC,00,
38079250,03800006,true,Rx,0,8,70,00,00,00,00,00,00,00,
38079533,19E00006,true,Rx,0,8,00,00,18,E0,47,00,40,00,
38085448,0100082C,true,Rx,0,8,0F,C0,BE,FD,66,08,1A,20,
38085723,0110483C,true,Rx,0,8,08,E2,20,00,44,66,FC,52,
38088400,0300410E,true,Rx,0,8,37,D0,19,0B,07,D0,6C,00,
38095397,0100082C,true,Rx,0,8,0F,C0,BE,FD,66,08,1A,20,
38095672,0110483C,true,Rx,0,8,08,E2,20,00,44,66,FC,52,
38098402,00800006,true,Rx,0,8,09,E4,0D,E4,41,E4,26,6F,
38098692,0090411E,true,Rx,0,8,02,00,E0,00,00,00,00,00,
38098974,0300410E,true,Rx,0,8,B7,D0,99,0B,87,D0,FC,00,
38099265,03800006,true,Rx,0,8,30,00,00,00,00,00,00,00,
38105401,0100082C,true,Rx,0,8,0F,C0,BE,FD,66,08,1A,20,
38105677,0110483C,true,Rx,0,8,08,E2,20,00,44,66,FC,52,
38108416,0300410E,true,Rx,0,8,B7,D0,19,0B,87,D0,FC,00,
38115392,0100082C,true,Rx,0,8,0F,C0,BE,FD,66,08,1A,20,
38115667,0110483C,true,Rx,0,8,08,E2,A0,00,44,66,FC,52,
38118428,00800006,true,Rx,0,8,41,E4,0D,E4,41,E4,A6,6F,
38118707,0090411E,true,Rx,0,8,42,00,60,00,00,00,00,00,
38118998,0300410E,true,Rx,0,8,37,D0,19,0B,07,D0,6C,00,
38119289,03800006,true,Rx,0,8,30,00,00,00,00,00,00,00,
38125415,0100082C,true,Rx,0,8,0F,C0,BE,FD,66,08,1A,20,
38125701,0110483C,true,Rx,0,8,08,E2,20,00,44,66,FC,52,
38128430,0300410E,true,Rx,0,8,B7,D0,99,0B,87,D0,FC,00,
38128720,19E00006,true,Rx,0,8,00,00,18,C0,47,00,40,00,
38135410,0100082C,true,Rx,0,8,0F,C0,BE,FD,66,08,1A,20,
38135696,0110483C,true,Rx,0,8,08,E2,20,00,44,66,FC,52,
38138445,00800006,true,Rx,0,8,89,E4,0D,E4,41,E4,26,6F,
38138735,0090411E,true,Rx,0,8,02,00,E0,00,00,00,00,00,
38139005,0300410E,true,Rx,0,8,B7,D0,19,0B,87,D0,FC,00,
38139306,03800006,true,Rx,0,8,30,00,00,00,00,00,00,00,
38145391,0100082C,true,Rx,0,8,0F,C0,BE,FD,66,08,1A,20,
38145677,0110483C,true,Rx,0,8,08,E2,20,00,44,66,FC,52,
38148458,0300410E,true,Rx,0,8,37,D0,19,0B,07,D0,6C,00,
38155413,0100082C,true,Rx,0,8,0F,C0,BE,FD,66,08,1A,20,
38155688,0110483C,true,Rx,0,8,08,E2,20,00,44,66,FC,52,
38158459,00800006,true,Rx,0,8,C9,E4,0D,E4,41,E4,26,6F,
38158748,0090411E,true,Rx,0,8,02,00,E0,00,00,00,00,00,
38159029,0300410E,true,Rx,0,8,B7,D0,99,0B,87,D0,FC,00,
38159320,03800006,true,Rx,0,8,30,00,00,00,00,00,00,00,
38165396,0100082C,true,Rx,0,8,0F,C0,BE,FD,66,08,1A,20,
38165671,0110483C,true,Rx,0,8,08,E2,A0,00,44,66,FC,52,
38168473,0300410E,true,Rx,0,8,37,D0,19,0B,07,D0,6C,00,
38175417,0100082C,true,Rx,0,8,0F,C0,BE,FD,66,08,1A,20,
38175692,0110483C,true,Rx,0,8,08,E2,20,00,44,66,FC,52,
38178484,00800006,true,Rx,0,8,01,E4,0D,E4,41,E4,A6,6F,
38178774,0090411E,true,Rx,0,8,C2,00,60,00,00,00,00,00,
38179054,0300410E,true,Rx,0,8,B7,D0,19,0B,87,D0,FC,00,
38179356,03800006,true,Rx,0,8,70,00,00,00,00,00,00,00,
38179637,19E00006,true,Rx,0,8,00,00,18,E0,47,00,40,00,
38185469,0100082C,true,Rx,0,8,0F,C0,BE,FD,66,08,1A,20,
38185744,0110483C,true,Rx,0,8,08,E2,20,00,44,66,FC,52,
38188484,0300410E,true,Rx,0,8,B7,D0,99,0B,87,D0,FC,00,
38195397,0100082C,true,Rx,0,8,0F,C0,BE,FD,66,08,1A,20,
38195673,0110483C,true,Rx,0,8,08,E2,20,00,44,66,FC,52,
38198504,00800006,true,Rx,0,8,49,E4,0D,E4,41,E4,26,6F,
38198784,0090411E,true,Rx,0,8,02,00,E0,00,00,00,00,00,
38199076,0300410E,true,Rx,0,8,37,D0,19,0B,07,D0,6C,00,
38199365,03800006,true,Rx,0,8,30,00,00,00,00,00,00,00,
38205400,0100082C,true,Rx,0,8,0F,C0,BE,FD,66,08,1A,20,
38205675,0110483C,true,Rx,0,8,08,E2,20,00,44,66,FC,52,
38208517,0300410E,true,Rx,0,8,B7,D0,19,0B,87,D0,FC,00,
38208796,1B600002,true,Rx,0,8,00,80,00,5C,00,1A,4C,00,
38215394,0100082C,true,Rx,0,8,0F,C0,BE,FD,66,08,1A,20,
38215670,0110483C,true,Rx,0,8,08,E2,A0,00,44,66,FC,52,
38218584,00800006,true,Rx,0,8,89,E4,0D,E4,41,E4,A6,6F,
38218863,0090411E,true,Rx,0,8,42,00,E0,00,00,00,00,00,
38219145,0300410E,true,Rx,0,8,B7,D0,99,0B,87,D0,FC,00,
38219455,03800006,true,Rx,0,8,30,00,00,00,00,00,00,00,
38225431,0100082C,true,Rx,0,8,0F,C0,BE,FD,66,08,1A,20,
38225717,0110483C,true,Rx,0,8,08,E2,20,00,44,66,FC,52,
38228539,0300410E,true,Rx,0,8,37,D0,19,0B,07,D0,6C,00,
38228818,19E00006,true,Rx,0,8,00,00,18,C0,47,00,40,00,
38235436,0100082C,true,Rx,0,8,0F,C0,BE,FD,66,08,1A,20,
38235711,0110483C,true,Rx,0,8,08,E2,20,00,44,66,FC,52,
38236003,1A200020,true,Rx,0,8,0E,00,02,2D,00,00,02,3C,
38236283,1AE0092C,true,Rx,0,8,40,00,22,E0,41,A0,00,00,
38236562,1B700030,true,Rx,0,8,2C,91,22,00,00,C0,03,00,
38238557,00800006,true,Rx,0,8,C1,E4,0D,E4,41,E4,26,6F,
38238847,0090411E,true,Rx,0,8,02,00,60,00,00,00,00,00,
38239129,0300410E,true,Rx,0,8,B7,D0,19,0B,87,D0,FC,00,
38239429,03800006,true,Rx,0,8,30,00,00,00,00,00,00,00,
38245422,0100082C,true,Rx,0,8,0F,C0,BE,FD,66,08,1A,20,
38245697,0110483C,true,Rx,0,8,08,E2,20,00,44,66,FC,52,
38248561,0300410E,true,Rx,0,8,37,D0,99,0B,07,D0,6C,00,
38250454,1BA0493C,true,Rx,0,8,0A,01,01,01,01,02,06,01,
38250745,1BE0493C,true,Rx,0,8,05,00,00,00,00,00,07,8F,
38255446,0100082C,true,Rx,0,8,0F,C0,BE,FD,66,08,1A,20,
38255734,0110483C,true,Rx,0,8,08,E2,20,00,44,66,FC,52,
38258564,00800006,true,Rx,0,8,09,E4,0D,E4,41,E4,26,6F,
38258854,0090411E,true,Rx,0,8,02,00,E0,00,00,00,00,00,
38259136,0300410E,true,Rx,0,8,B7,D0,19,0B,87,D0,FC,00,
38259425,03800006,true,Rx,0,8,30,00,00,00,00,00,00,00,
38265410,0100082C,true,Rx,0,8,0F,C0,BE,FD,66,08,1A,20,
38265695,0110483C,true,Rx,0,8,08,E2,A0,00,44,66,FC,52,
38268568,0300410E,true,Rx,0,8,B7,D0,19,0B,87,D0,FC,00,
38275410,0100082C,true,Rx,0,8,0F,C0,BE,FD,66,08,1A,20,
38275696,0110483C,true,Rx,0,8,08,E2,20,00,44,66,FC,52,
38278578,00800006,true,Rx,0,8,49,E4,0D,E4,41,E4,A6,6F,
38278868,0090411E,true,Rx,0,8,C2,00,E0,00,00,00,00,00,
38279150,0300410E,true,Rx,0,8,37,D0,99,0B,07,D0,6C,00,
38279460,03800006,true,Rx,0,8,70,00,00,00,00,00,00,00,
38279731,19E00006,true,Rx,0,8,00,00,18,E0,47,00,40,00,
38285430,0100082C,true,Rx,0,8,0F,C0,BE,FD,66,08,1A,20,
38285716,0110483C,true,Rx,0,8,08,E2,20,00,44,66,FC,52,
38288588,0300410E,true,Rx,0,8,B7,D0,19,0B,87,D0,FC,00,
38295399,0100082C,true,Rx,0,8,0F,C0,BE,FD,66,08,1A,20,
38295675,0110483C,true,Rx,0,8,08,E4,20,00,44,66,FC,52,
38298661,00800006,true,Rx,0,8,81,E4,0D,E4,41,E4,26,6F,
38298953,0090411E,true,Rx,0,8,02,00,60,00,00,00,00,00,
38299232,0300410E,true,Rx,0,8,B7,D0,19,0B,87,D0,FC,00,
38299532,03800006,true,Rx,0,8,30,00,00,00,00,00,00,00,
38305425,0100082C,true,Rx,0,8,0F,C0,BE,FD,66,08,1A,20,
38305711,0110483C,true,Rx,0,8,08,E4,20,00,44,66,FC,52,
38308615,0300410E,true,Rx,0,8,37,D0,99,0B,07,D0,6C,00,
38315416,0100082C,true,Rx,0,8,0F,C0,BE,FD,66,08,1A,20,
38315691,0110483C,true,Rx,0,8,08,E4,A0,00,44,66,FC,52,
38318615,00800006,true,Rx,0,8,C9,E4,0D,E4,41,E4,A6,6F,
38318907,0090411E,true,Rx,0,8,42,00,E0,00,00,00,00,00,
38319187,0300410E,true,Rx,0,8,B7,D0,19,0B,87,D0,FC,00,
38319487,03800006,true,Rx,0,8,30,00,00,00,00,00,00,00,
38325422,0100082C,true,Rx,0,8,0F,C0,BE,FD,66,08,1A,20,
38325697,0110483C,true,Rx,0,8,08,E4,20,00,44,66,FC,52,
38328632,0300410E,true,Rx,0,8,37,D0,19,0B,07,D0,6C,00,
38328914,19E00006,true,Rx,0,8,00,00,18,C0,47,00,40,00,
38335407,0100082C,true,Rx,0,8,0F,C0,BE,FD,66,08,1A,20,
38335682,0110483C,true,Rx,0,8,08,E4,20,00,44,66,FC,52,
38338648,00800006,true,Rx,0,8,09,E4,0D,E4,41,E4,26,6F,
38338929,0090411E,true,Rx,0,8,02,00,E0,00,00,00,00,00,
38339209,0300410E,true,Rx,0,8,B7,D0,99,0B,87,D0,FC,00,
38339509,03800006,true,Rx,0,8,30,00,00,00,00,00,00,00,
38345422,0100082C,true,Rx,0,8,0F,C0,BE,FD,66,08,1A,20,
38345697,0110483C,true,Rx,0,8,08,E4,20,00,44,66,FC,52,
38348653,0300410E,true,Rx,0,8,B7,D0,19,0B,87,D0,FC,00,
38355404,0100082C,true,Rx,0,8,0F,C0,BE,FD,66,08,1A,20,
38355680,0110483C,true,Rx,0,8,08,E4,20,00,44,66,FC,51,
38358666,00800006,true,Rx,0,8,41,E4,0D,E4,41,E4,26,6F,
38358958,0090411E,true,Rx,0,8,02,00,60,00,00,00,00,00,
38359237,0300410E,true,Rx,0,8,37,D0,19,0B,07,D0,6C,00,
38359538,03800006,true,Rx,0,8,30,00,00,00,00,00,00,00,
38365410,0100082C,true,Rx,0,8,0F,C0,BE,FD,66,08,1A,20,
38365696,0110483C,true,Rx,0,8,08,E4,A0,00,44,66,FC,52,
38368672,0300410E,true,Rx,0,8,B7,D0,99,0B,87,D0,FC,00,
38375421,0100082C,true,Rx,0,8,0F,C0,BE,FD,66,08,1A,20,
38375708,0110483C,true,Rx,0,8,08,E6,2A,00,44,66,FC,52,
38378744,00800006,true,Rx,0,8,89,E4,0D,E4,41,E4,A6,6F,
38379026,0090411E,true,Rx,0,8,C2,00,E0,00,00,00,00,00,
38379306,0300410E,true,Rx,0,8,B7,D0,19,0B,87,D0,FC,00,
38379607,03800006,true,Rx,0,8,70,00,00,00,00,00,00,00,
38379887,19E00006,true,Rx,0,8,00,00,18,E0,47,00,40,00,
38380177,1B600002,true,Rx,0,8,00,80,00,4C,00,1A,4C,00,
38385529,0100082C,true,Rx,0,8,0F,C0,BE,FD,66,08,1A,20,
38385806,0110483C,true,Rx,0,8,08,E6,2A,00,44,66,FC,52,
38388699,0300410E,true,Rx,0,8,37,D0,19,0B,07,D0,6C,00,
38395396,0100082C,true,Rx,0,8,0F,C8,BE,FD,66,08,1A,20,
38395683,0110483C,true,Rx,0,8,08,E6,2A,00,44,66,FC,52,
38398699,00800006,true,Rx,0,8,C9,E4,0D,E4,41,E4,26,6F,
38398991,0090411E,true,Rx,0,8,02,00,E0,00,00,00,00,00,
38399260,0300410E,true,Rx,0,8,B7,D0,99,0B,87,D0,FC,00,
38399561,03800006,true,Rx,0,8,30,00,00,00,00,00,00,00,
38405433,0100082C,true,Rx,0,8,0F,C8,BE,FD,66,08,1A,20,
38405710,0110483C,true,Rx,0,8,08,E6,2A,00,44,66,FC,52,
38408715,0300410E,true,Rx,0,8,37,D0,19,0B,07,D0,6C,00,
38415402,0100082C,true,Rx,0,8,0F,C8,BE,FD,66,08,1A,20,
38415679,0110483C,true,Rx,0,8,08,E9,AA,00,44,66,FC,52,
38418726,00800006,true,Rx,0,8,01,E4,0D,E4,41,E4,A6,6F,
38419017,0090411E,true,Rx,0,8,42,00,60,00,00,00,00,00,
38419296,0300410E,true,Rx,0,8,B7,D0,19,0B,87,D0,FC,00,
38419587,03800006,true,Rx,0,8,30,00,00,00,00,00,00,00,
38425449,0100082C,true,Rx,0,8,0F,C8,BE,FD,66,08,1A,20,
38425735,0110483C,true,Rx,0,8,08,E9,2A,00,44,66,FC,52,
38428732,0300410E,true,Rx,0,8,B7,D0,99,0B,87,D0,FC,00,
38429012,19E00006,true,Rx,0,8,00,00,18,C0,47,00,40,00,
38432811,01C04026,true,Rx,0,8,80,00,80,00,80,00,80,00,
38433087,02000026,true,Rx,0,8,7F,34,00,CC,46,00,E0,AC,
38433378,02104136,true,Rx,0,8,BB,00,3F,FF,07,E0,00,00,
38433657,02804026,true,Rx,0,8,B7,FF,77,FF,F2,00,1E,0A,
38433948,02C00020,true,Rx,0,8,00,00,00,00,00,00,00,00,
38434249,19A00002,true,Rx,0,8,12,00,00,00,00,00,00,07,
38435563,0100082C,true,Rx,0,8,0F,C8,BE,FD,66,08,1A,20,
38435843,0110483C,true,Rx,0,8,08,E9,2A,00,44,66,FC,52,
38438749,00800006,true,Rx,0,8,49,E4,0D,E4,41,E4,26,6F,
38439036,0090411E,true,Rx,0,8,02,00,E0,00,00,00,00,00,
38439315,0300410E,true,Rx,0,8,37,D0,19,0B,07,D0,6C,00,
38439616,03800006,true,Rx,0,8,30,00,00,00,00,00,00,00,
38445425,0100082C,true,Rx,0,8,0F,C8,BE,FD,66,08,1A,20,
38445712,0110483C,true,Rx,0,8,08,E9,2A,00,44,66,FC,52,
38445992,1B700030,true,Rx,0,8,3C,91,22,00,00,C0,03,00,
38446984,01C04026,true,Rx,0,8,80,00,80,00,80,00,80,00,
38447265,02000026,true,Rx,0,8,7F,34,00,CC,46,00,E0,AC,
38447546,02104136,true,Rx,0,8,BB,00,3F,FF,07,E0,00,00,
38447826,02804026,true,Rx,0,8,B7,FF,77,FF,F2,00,1E,0A,
38448128,02C00020,true,Rx,0,8,00,00,00,00,00,00,00,00,
38448778,0300410E,true,Rx,0,8,B7,D0,19,0B,87,D0,FC,00,
38455400,0100082C,true,Rx,0,8,0F,C8,BE,FD,66,08,1A,20,
38455687,0110483C,true,Rx,0,8,08,E9,2A,00,44,66,FC,52,
38458881,00800006,true,Rx,0,8,89,E4,0D,E4,41,E4,26,6F,
38459171,0090411E,true,Rx,0,8,02,00,E0,00,00,00,00,00,
38459460,0300410E,true,Rx,0,8,77,D0,99,0B,07,D0,6C,00,
38459749,03800006,true,Rx,0,8,30,00,00,00,00,00,00,00,
38460895,01C04026,true,Rx,0,8,80,00,80,00,80,00,80,00,
38461176,02000026,true,Rx,0,8,7F,34,00,CC,46,00,E0,AC,
38461455,02104136,true,Rx,0,8,BB,00,3F,FF,07,E0,00,00,
38461740,02804026,true,Rx,0,8,B7,FF,77,FF,F2,00,1E,0A,
38462031,02C00020,true,Rx,0,8,00,01,00,00,00,02,75,81,
38462320,19A00002,true,Rx,0,8,6E,00,00,00,00,00,00,F7,
38465590,0100082C,true,Rx,0,8,0F,C8,BE,FD,66,08,1A,20,
38465865,0110483C,true,Rx,0,8,08,E9,AA,00,44,66,FC,52,
38468769,0300410E,true,Rx,0,8,B7,D0,19,0B,87,D0,FC,00,
38474834,01C04026,true,Rx,0,8,80,00,80,00,80,00,80,00,
38475111,02000026,true,Rx,0,8,7F,34,00,CC,47,00,E0,AC,
38475400,02104136,true,Rx,0,8,BB,00,3F,FF,07,E0,00,00,
38475681,0100082C,true,Rx,0,8,0F,C8,BE,FD,66,08,1A,20,
38475961,0110483C,true,Rx,0,8,08,E9,2A,00,44,66,FC,52,
38476251,02804026,true,Rx,0,8,B7,FF,77,FF,F2,00,1E,0C,
38476542,02C00020,true,Rx,0,8,00,00,00,00,00,02,75,81,
38478808,00800006,true,Rx,0,8,C1,E4,0D,E4,41,E4,A6,6F,
38479105,0090411E,true,Rx,0,8,C2,00,60,00,00,00,00,00,
38479385,0300410E,true,Rx,0,8,B7,D0,19,0B,87,D0,FC,00,
38479675,03800006,true,Rx,0,8,70,00,00,00,00,00,00,00,
38479965,19E00006,true,Rx,0,8,00,00,18,E0,47,00,40,00,
38485455,0100082C,true,Rx,0,8,0F,C8,BE,FD,66,08,1A,20,
38485731,0110483C,true,Rx,0,8,08,E9,2A,00,44,66,FC,52,
38488789,0300410E,true,Rx,0,8,37,D0,99,0B,07,D0,6C,00,
38489080,01C04026,true,Rx,0,8,80,00,80,00,80,00,80,00,
38489359,02000026,true,Rx,0,8,7F,34,00,CC,47,00,E0,AC,
38489650,02104136,true,Rx,0,8,BB,00,3F,FF,07,E0,00,00,
38489930,02804026,true,Rx,0,8,B7,FF,77,FF,F2,00,1E,0C,
38490221,02C00020,true,Rx,0,8,00,00,00,00,00,02,75,81,
38490511,19A00002,true,Rx,0,8,12,00,00,00,00,00,00,F7,
38495503,0100082C,true,Rx,0,8,0F,C8,BE,FD,66,08,1A,20,
38495790,0110483C,true,Rx,0,8,08,E9,2A,00,44,66,FC,52,
38498798,00800006,true,Rx,0,8,09,E4,0D,E4,41,E4,26,6F,
38499089,0090411E,true,Rx,0,8,02,00,E0,00,00,00,00,00,
38499369,0300410E,true,Rx,0,8,B7,D0,19,0B,87,D0,FC,00,
38499659,03800006,true,Rx,0,8,30,00,00,00,00,00,00,00,
38500516,1BA0493C,true,Rx,0,8,0B,01,01,01,02,03,03,01,
38503082,01C04026,true,Rx,0,8,80,00,80,00,80,00,80,00,
38503362,02000026,true,Rx,0,8,7F,34,00,CC,47,00,E0,AC,
38503650,02104136,true,Rx,0,8,BB,00,3F,FF,07,E0,00,00,
38503930,02804026,true,Rx,0,8,37,FF,77,FF,F2,00,0E,0C,
38504221,02C00020,true,Rx,0,8,00,00,00,00,00,02,75,81,
38505604,0100082C,true,Rx,0,8,0F,C8,BE,FD,66,08,1A,20,
38505885,0110483C,true,Rx,0,8,08,E9,2A,00,44,66,FC,52,
38508831,0300410E,true,Rx,0,8,B7,D0,19,0B,87,D0,FC,00,
38515414,0100082C,true,Rx,0,8,0F,C8,BE,FD,66,08,1A,20,
38515691,0110483C,true,Rx,0,8,08,E9,EA,00,44,66,FC,52,
38517054,01C04026,true,Rx,0,8,80,00,80,00,80,00,80,00,
38517333,02000026,true,Rx,0,8,7F,34,00,DC,46,00,E0,AC,
38517612,02104136,true,Rx,0,8,BB,00,3F,FF,07,E0,00,00,
38517904,02804026,true,Rx,0,8,37,FF,77,FF,F2,00,0E,0C,
38518194,02C00020,true,Rx,0,8,00,00,00,00,00,02,75,81,
38518473,19A00002,true,Rx,0,8,02,00,00,00,00,00,00,F7,
38518846,00800006,true,Rx,0,8,49,E4,0D,E4,41,E4,A6,6F,
38519128,0090411E,true,Rx,0,8,42,00,E0,00,00,00,00,00,
38519409,0300410E,true,Rx,0,8,37,D0,99,0B,07,D0,6C,00,
38519697,03800006,true,Rx,0,8,34,00,9C,E3,46,3E,0B,40,
38519988,1B200002,true,Rx,0,8,00,00,00,00,00,00,04,51,
38525450,0100082C,true,Rx,0,8,0F,C8,BE,FD,66,08,1A,20,
38525726,0110483C,true,Rx,0,8,08,E9,6A,00,44,66,FC,52,
38528825,0300410E,true,Rx,0,8,B7,D0,19,0B,87,D0,FC,00,
38529116,19E00006,true,Rx,0,8,00,00,18,C0,47,00,40,00,
38531085,01C04026,true,Rx,0,8,80,00,80,00,80,00,80,00,
38531354,02000026,true,Rx,0,8,7F,34,00,DC,46,00,E0,AC,
38531643,02104136,true,Rx,0,8,BB,00,3F,FF,07,E0,00,00,
38531934,02804026,true,Rx,0,8,37,FF,77,FF,F2,00,0E,0C,
38532223,02C00020,true,Rx,0,8,00,00,00,00,00,02,75,81,
38535533,0100082C,true,Rx,0,8,0F,C8,87,DB,E6,08,1A,20,
38535808,0110483C,true,Rx,0,8,08,E9,6A,00,44,66,FC,52,
38538899,00800006,true,Rx,0,8,81,E4,0D,E4,41,E4,26,6F,
38539188,0090411E,true,Rx,0,8,02,00,60,00,00,00,00,00,
38539469,0300410E,true,Rx,0,8,B7,D0,19,0B,87,D0,FC,00,
38539748,03800006,true,Rx,0,8,30,00,9C,E3,46,3E,0B,40,
38545041,01C04026,true,Rx,0,8,80,00,80,00,80,00,80,00,
38545326,02000026,true,Rx,0,8,7F,34,00,DC,47,00,E0,AC,
38545607,0100082C,true,Rx,0,8,0F,C0,87,DB,66,08,1A,20,
38545887,0110483C,true,Rx,0,8,08,E9,6A,00,44,66,FC,52,
38546177,02104136,true,Rx,0,8,BB,00,3F,FF,07,E0,00,00,
38546457,02804026,true,Rx,0,8,37,FF,77,FF,F2,00,0E,0C,
38546747,02C00020,true,Rx,0,8,00,00,00,00,00,02,75,81,
38547039,19A00002,true,Rx,0,8,12,00,00,00,00,00,00,F7,
38548883,0300410E,true,Rx,0,8,37,D0,A9,0B,07,D0,6C,00,
38549158,1B600002,true,Rx,0,8,00,80,00,4C,00,1A,4C,00,
38550705,1A200020,true,Rx,0,8,4E,00,02,2D,00,00,02,3C,
38555419,0100082C,true,Rx,0,8,0F,C0,87,DB,66,08,1A,20,
38555694,0110483C,true,Rx,0,8,08,E9,6A,00,44,66,FC,52,
38558865,00800006,true,Rx,0,8,C9,E4,0D,E4,41,E4,3E,6F,
38559145,0090411E,true,Rx,0,8,02,00,E0,00,00,00,00,00,
38559436,01C04026,true,Rx,0,8,80,00,80,00,80,00,80,00,
38559716,02000026,true,Rx,0,8,7F,34,00,DC,46,00,E0,AC,
38560006,02104136,true,Rx,0,8,BB,00,3F,FF,07,E0,00,00,
38560287,02804026,true,Rx,0,8,37,FF,77,FF,F2,00,0E,0C,
38560577,02C00020,true,Rx,0,8,00,00,00,00,00,02,75,81,
38560857,0300410E,true,Rx,0,8,B7,D0,29,0B,87,D0,FC,00,
38561138,03800006,true,Rx,0,8,30,00,9C,E3,46,3E,0B,40,
38565537,0100082C,true,Rx,0,8,0F,C0,87,DB,66,08,1A,20,
38565812,0110483C,true,Rx,0,8,08,E9,EA,00,44,66,FC,52,
38568870,0300410E,true,Rx,0,8,37,D0,29,0B,07,D0,6C,00,
38573041,01C04026,true,Rx,0,8,80,00,80,00,80,00,80,00,
38573318,02000026,true,Rx,0,8,7F,34,00,DC,46,00,E0,AC,
38573607,02104136,true,Rx,0,8,BB,00,3F,FF,07,E0,00,00,
38573889,02804026,true,Rx,0,8,37,FF,77,FF,F2,00,0E,0C,
38574179,02C00020,true,Rx,0,8,00,00,00,00,00,02,75,81,
38574468,19A00002,true,Rx,0,8,6E,00,00,00,00,00,00,F7,
38575639,0100082C,true,Rx,0,8,0F,C0,87,DB,66,08,1A,20,
38575909,0110483C,true,Rx,0,8,08,E9,6A,00,44,66,FC,52,
38578897,00800006,true,Rx,0,8,09,E4,0E,6A,41,E4,AE,6F,
38579183,0090411E,true,Rx,0,8,C2,00,E0,00,00,00,00,00,
38579463,0300410E,true,Rx,0,8,B8,B1,A9,0B,87,D0,FC,00,
38579742,03800006,true,Rx,0,8,78,00,9C,E3,46,3E,0B,40,
38580034,19E00006,true,Rx,0,8,00,00,18,E0,47,00,40,00,
38585461,0100082C,true,Rx,0,8,0F,C0,87,DB,66,08,1A,20,
38585737,0110483C,true,Rx,0,8,08,E9,6A,00,44,66,FC,52,
38587048,01C04026,true,Rx,0,8,80,00,80,00,80,00,80,00,
38587328,02000026,true,Rx,0,8,7F,34,00,DC,46,00,E0,AC,
38587617,02104136,true,Rx,0,8,BB,00,3F,FF,07,E0,00,00,
38587899,02804026,true,Rx,0,8,37,FF,77,FF,F2,00,0E,0C,
38588189,02C00020,true,Rx,0,8,00,00,00,00,00,02,75,81,
38588912,0300410E,true,Rx,0,8,B8,B1,29,0B,87,D0,FC,00,
38595410,0100082C,true,Rx,0,8,0F,C0,87,DB,66,08,1A,20,
38595685,0110483C,true,Rx,0,8,08,E9,6A,00,44,66,FC,52,
38598899,00800006,true,Rx,0,8,41,E4,0E,6A,41,E4,2E,6F,
38599189,0090411E,true,Rx,0,8,02,00,60,00,00,00,00,00,
38599477,0300410E,true,Rx,0,8,38,B1,29,0B,07,D0,6C,00,
38599756,03800006,true,Rx,0,8,38,00,9C,E3,46,3E,0B,40,
38601068,01C04026,true,Rx,0,8,80,00,80,00,80,00,80,00,
38601337,02000026,true,Rx,0,8,7F,34,00,DC,47,00,E0,AC,
38601630,02104136,true,Rx,0,8,BB,00,3F,FF,07,E0,00,00,
38601911,02804026,true,Rx,0,8,37,FF,77,FF,F2,00,0E,0C,
38602200,02C00020,true,Rx,0,8,00,00,00,00,00,02,75,81,
38602491,19A00002,true,Rx,0,8,12,00,00,00,00,00,00,F7,
38604938,1B200002,true,Rx,0,8,00,00,00,00,00,00,0F,71,
38605625,0100082C,true,Rx,0,8,0F,C0,87,DB,66,08,1A,20,
38605906,0110483C,true,Rx,0,8,08,E9,6A,00,44,66,FC,52,
38608907,0300410E,true,Rx,0,8,B8,B1,A9,0B,87,D0,FC,00,
38615056,01C04026,true,Rx,0,8,80,00,80,00,80,00,80,00,
38615332,02000026,true,Rx,0,8,7F,34,00,DC,47,00,E0,AC,
38615622,0100082C,true,Rx,0,8,0F,C0,87,DB,66,08,1A,20,
38615902,0110483C,true,Rx,0,8,08,E9,EA,00,44,66,FC,52,
38616183,02104136,true,Rx,0,8,BB,00,3F,FF,07,E0,00,00,
38616473,02804026,true,Rx,0,8,37,FF,77,FF,F2,00,0E,0C,
38616762,02C00020,true,Rx,0,8,00,00,00,00,00,02,75,81,
38618958,00800006,true,Rx,0,8,89,E4,0E,6A,41,E4,AE,6F,
38619245,0090411E,true,Rx,0,8,42,00,E0,00,00,00,00,00,
38619524,0300410E,true,Rx,0,8,B8,B1,28,2A,87,D0,FC,00,
38619803,03800006,true,Rx,0,8,38,00,9C,E3,46,3E,0B,40,
38625466,0100082C,true,Rx,0,8,0F,C0,87,DB,66,08,1A,20,
38625752,0110483C,true,Rx,0,8,08,E9,6A,00,44,66,FC,52,
38628934,0300410E,true,Rx,0,8,38,B1,28,2A,07,D0,6C,00,
38629225,01C04026,true,Rx,0,8,80,00,80,00,80,00,80,00,
38629494,02000026,true,Rx,0,8,7F,34,00,DC,46,00,E0,AC,
38629784,02104136,true,Rx,0,8,BB,00,3F,FF,07,E0,00,00,
38630066,02804026,true,Rx,0,8,37,FF,77,E4,F2,45,0E,0A,
38630355,02C00020,true,Rx,0,8,00,00,00,00,00,02,75,81,
38630645,19A00002,true,Rx,0,8,02,00,00,00,00,00,00,F7,
38630927,19E00006,true,Rx,0,8,00,00,18,C0,47,00,40,00,
38635582,0100082C,true,Rx,0,8,0F,C0,87,DB,66,08,1A,20,
38635857,0110483C,true,Rx,0,8,08,E9,6A,00,44,66,FC,52,
38638937,00800006,true,Rx,0,8,C9,E3,0E,63,41,E3,2E,6F,
38639218,0090411E,true,Rx,0,8,02,00,E0,00,00,00,00,00,
38639497,0300410E,true,Rx,0,8,B8,A5,A8,2A,87,CF,FC,00,
38639787,03800006,true,Rx,0,8,38,00,9C,E3,46,3E,0B,40,
38643105,01C04026,true,Rx,0,8,80,00,80,00,80,00,80,00,
38643384,02000026,true,Rx,0,8,7F,34,00,DC,47,00,E0,AC,
38643672,02104136,true,Rx,0,8,BB,00,3F,FF,07,E0,00,00,
38643953,02804026,true,Rx,0,8,37,FF,77,B0,F6,BE,0E,04,
38644243,02C00020,true,Rx,0,8,00,00,00,00,00,02,75,81,
38645553,0100082C,true,Rx,0,8,0F,C0,87,DB,66,08,1A,20,
38645835,0110483C,true,Rx,0,8,08,E9,6A,00,44,66,FC,52,
38648966,0300410E,true,Rx,0,8,38,A5,28,2A,07,CF,6C,00,
38655456,0100082C,true,Rx,0,8,0F,C0,87,DB,66,08,1A,20,
38655732,0110483C,true,Rx,0,8,08,E9,6A,00,44,66,FC,52,
38656024,1AE0092C,true,Rx,0,8,80,00,22,E0,41,A0,00,00,
38656303,1B700030,true,Rx,0,8,2C,91,22,00,00,C0,03,00,
38657078,01C04026,true,Rx,0,8,80,00,80,00,80,00,80,00,
38657357,02000026,true,Rx,0,8,7F,34,00,DC,47,00,E0,AC,
38657642,02104136,true,Rx,0,8,BB,00,3F,FF,07,E0,00,00,
38657912,02804026,true,Rx,0,8,37,FF,77,6D,F7,17,0D,FF,
38658212,02C00020,true,Rx,0,8,00,00,00,00,00,02,75,81,
38658493,19A00002,true,Rx,0,8,12,00,00,00,00,00,00,F7,
38658999,00800006,true,Rx,0,8,01,E3,0E,63,41,E3,2E,6F,
38659290,0090411E,true,Rx,0,8,02,00,60,00,00,00,00,00,
38659566,0300410E,true,Rx,0,8,B8,A5,28,2A,87,CF,FC,00,
38659845,03800006,true,Rx,0,8,38,00,9C,E3,46,3E,0B,40,
38665442,0100082C,true,Rx,0,8,0F,C0,87,DB,66,08,1A,20,
38665717,0110483C,true,Rx,0,8,08,E9,EA,00,44,66,FC,52,
38669013,0300410E,true,Rx,0,8,B8,A5,A8,2B,87,CF,FC,00,
38671133,01C04026,true,Rx,0,8,80,00,80,00,80,00,80,00,
38671414,02000026,true,Rx,0,8,7F,34,00,DC,46,00,E0,AC,
38671691,02104136,true,Rx,0,8,BB,00,3F,FF,07,E0,00,00,
38671972,02804026,true,Rx,0,8,37,FF,77,1F,F7,5D,0D,FF,
38672263,02C00020,true,Rx,0,8,00,00,00,00,00,02,75,81,
38675592,0100082C,true,Rx,0,8,0F,C0,87,DB,66,08,1A,20,
38675868,0110483C,true,Rx,0,8,08,E9,6A,00,44,66,FC,52,
38678978,00800006,true,Rx,0,8,49,E3,0E,63,41,E3,AE,6F,
38679259,0090411E,true,Rx,0,8,C2,00,E0,00,00,00,00,00,
38679538,0300410E,true,Rx,0,8,38,A5,28,2B,07,CF,6C,00,
38679829,03800006,true,Rx,0,8,78,00,9C,E3,46,3E,0B,40,
38680110,19E00006,true,Rx,0,8,00,00,18,E0,47,00,40,00,
38685094,01C04026,true,Rx,0,8,80,00,80,00,80,00,80,00,
38685370,02000026,true,Rx,0,8,7F,34,00,DC,47,00,E0,AC,
38685660,0100082C,true,Rx,0,8,0F,C0,87,DB,66,08,1A,20,
38685941,0110483C,true,Rx,0,8,08,E9,6A,00,44,66,FC,52,
38686221,02104136,true,Rx,0,8,BB,00,3F,FF,07,E0,00,00,
38686501,02804026,true,Rx,0,8,37,FF,77,01,F7,0C,0D,FD,
38686791,02C00020,true,Rx,0,8,00,00,00,00,00,02,75,81,
38687082,19A00002,true,Rx,0,8,6E,00,00,00,00,00,00,F7,
38689009,0300410E,true,Rx,0,8,B8,A5,28,2B,87,CF,FC,00,
38689935,1B200002,true,Rx,0,8,00,00,00,00,00,00,0F,71,
38695458,0100082C,true,Rx,0,8,0F,C0,87,DB,66,08,1A,20,
38695733,0110483C,true,Rx,0,8,08,E9,6A,00,44,66,FC,52,
38699052,00800006,true,Rx,0,8,89,DC,0E,59,41,DC,2E,65,
38699341,0090411E,true,Rx,0,8,02,00,E0,D3,00,00,00,00,
38699629,01C04026,true,Rx,0,8,80,00,80,00,80,00,80,00,
38699901,02000026,true,Rx,0,8,7F,34,00,DC,47,00,E0,AC,
38700190,02104136,true,Rx,0,8,BB,00,3F,FF,07,E0,00,00,
38700469,02804026,true,Rx,0,8,37,FF,77,10,F6,CC,0D,F2,
38700760,02C00020,true,Rx,0,8,00,00,00,00,00,02,75,81,
38701030,0300410E,true,Rx,0,8,B8,94,A8,2B,87,C4,FC,00,
38701310,03800006,true,Rx,0,8,38,00,9C,E3,46,3E,0B,40,
38705640,0100082C,true,Rx,0,8,0F,C0,87,DB,24,00,1A,20,
38705917,0110483C,true,Rx,0,8,08,E9,6A,00,44,66,FC,52,
38709006,0300410E,true,Rx,0,8,38,94,28,2B,07,C4,6C,00,
38713115,01C04026,true,Rx,0,8,80,00,80,00,80,00,80,00,
38713390,02000026,true,Rx,0,8,7F,34,00,DC,46,00,E0,AC,
38713670,02104136,true,Rx,0,8,BB,00,3F,FF,07,E0,00,00,
38713951,02804026,true,Rx,0,8,37,FF,77,3D,F6,9C,0D,E6,
38714240,02C00020,true,Rx,0,8,00,00,00,00,00,02,75,81,
38714531,19A00002,true,Rx,0,8,12,00,00,00,00,00,00,F7,
38715578,0100082C,true,Rx,0,8,0F,C0,87,DB,24,00,1A,20,
38715857,0110483C,true,Rx,0,8,08,E9,EA,00,44,66,FC,52,
38719033,00800006,true,Rx,0,8,C1,DC,0E,59,41,DC,AE,65,
38719319,0090411E,true,Rx,0,8,42,00,60,D3,00,00,00,00,
38719598,0300410E,true,Rx,0,8,B8,94,28,3C,87,C4,FC,00,
38719880,03800006,true,Rx,0,8,38,00,9C,E3,46,3E,0B,40,
38720170,1B600002,true,Rx,0,8,00,80,00,0C,00,1A,4C,00,
38725555,0100082C,true,Rx,0,8,0F,C0,87,DB,24,00,1A,20,
38725841,0110483C,true,Rx,0,8,08,E9,6A,00,44,66,FC,52,
38727133,01C04026,true,Rx,0,8,80,00,80,00,80,00,80,00,
38727412,02000026,true,Rx,0,8,7F,34,00,DC,47,00,E0,AC,
38727693,02104136,true,Rx,0,8,BB,00,3F,FF,07,E0,00,00,
38727974,02804026,true,Rx,0,8,37,FF,77,69,F6,C0,0D,D6,
38728264,02C00020,true,Rx,0,8,00,00,00,00,00,02,75,81,
38729060,0300410E,true,Rx,0,8,38,94,A8,3C,07,C4,6C,00,
38729339,19E00006,true,Rx,0,8,00,00,18,C0,47,00,40,00,
38735426,0100082C,true,Rx,0,8,0F,C0,87,DB,24,00,1A,20,
38735701,0110483C,true,Rx,0,8,08,E9,6A,00,44,66,FC,52,
38739039,00800006,true,Rx,0,8,09,DF,0E,5A,41,DF,2E,65,
38739328,0090411E,true,Rx,0,8,02,00,E0,D3,00,00,00,00,
38739606,0300410E,true,Rx,0,8,B8,95,28,3C,87,C8,FC,00,
38739888,03800006,true,Rx,0,8,38,00,9C,E3,46,3E,0B,40,
38741135,01C04026,true,Rx,0,8,80,00,80,00,80,00,80,00,
38741416,02000026,true,Rx,0,8,7F,34,00,DC,47,00,E0,AC,
38741697,02104136,true,Rx,0,8,BB,00,3F,FF,07,E0,00,00,
38741978,02804026,true,Rx,0,8,37,FF,77,62,F7,1A,0D,D0,
38742269,02C00020,true,Rx,0,8,00,00,00,00,00,02,75,81,
38742548,19A00002,true,Rx,0,8,02,00,00,00,00,00,00,F7,
38745624,0100082C,true,Rx,0,8,0F,C0,87,DB,75,EC,1A,20,
38745902,0110483C,true,Rx,0,8,08,E9,6A,00,44,66,FC,52,
38749052,0300410E,true,Rx,0,8,B8,95,28,3C,87,C8,FC,00,
38750492,1BA0493C,true,Rx,0,8,0C,03,01,01,02,02,01,09,
38750761,1BE0493C,true,Rx,0,8,11,4D,57,32,31,34,32,37,
38755098,01C04026,true,Rx,0,8,80,00,80,00,80,00,80,00,
38755385,02000026,true,Rx,0,8,7F,34,00,DC,46,00,E0,AC,
38755654,0100082C,true,Rx,0,8,0F,C0,87,DB,65,EC,1A,20,
38755935,0110483C,true,Rx,0,8,08,E9,6A,00,44,66,FC,52,
38756225,02104136,true,Rx,0,8,BB,00,3F,FF,07,E0,00,00,
38756494,02804026,true,Rx,0,8,37,FF,77,3B,F7,5D,0D,D3,
38756785,02C00020,true,Rx,0,8,00,00,00,00,00,02,75,81,
38759082,00800006,true,Rx,0,8,49,DF,0E,5A,41,DF,2E,65,
38759368,0090411E,true,Rx,0,8,02,00,E0,D3,00,00,00,00,
38759647,0300410E,true,Rx,0,8,38,95,A8,3C,07,C8,6C,00,
38759929,03800006,true,Rx,0,8,38,00,9C,E3,46,3E,0B,40,
38765456,0100082C,true,Rx,0,8,0F,C0,87,DB,65,EC,1A,20,
38765731,0110483C,true,Rx,0,8,08,E9,EA,00,44,66,FC,52,
38769069,0300410E,true,Rx,0,8,B8,95,28,3C,87,C8,FC,00,
38769358,01C04026,true,Rx,0,8,80,00,80,00,80,00,80,00,
38769636,02000026,true,Rx,0,8,7F,34,00,DC,47,00,E0,AC,
38769917,02104136,true,Rx,0,8,BB,00,3F,FF,07,E0,00,00,
38770197,02804026,true,Rx,0,8,37,FF,76,FF,F7,63,0D,DE,
38770487,02C00020,true,Rx,0,8,00,00,00,00,00,02,75,81,
38770777,19A00002,true,Rx,0,8,12,00,00,00,00,00,00,F7,
38774944,1B200002,true,Rx,0,8,00,00,00,00,00,00,0F,71,
38775621,0100082C,true,Rx,0,8,0F,C0,87,DB,65,EC,1A,20,
38775894,0110483C,true,Rx,0,8,08,E9,6A,00,44,66,FC,52,
38779140,00800006,true,Rx,0,8,81,DF,0E,5A,41,DF,AE,65,
38779425,0090411E,true,Rx,0,8,C2,00,60,D3,00,00,00,00,
38779706,0300410E,true,Rx,0,8,B8,95,28,3C,87,C8,FC,00,
38779986,03800006,true,Rx,0,8,78,00,9C,E3,46,3E,0B,40,
38780276,19E00006,true,Rx,0,8,00,00,18,E0,47,00,40,00,
38783135,01C04026,true,Rx,0,8,80,00,80,00,80,00,80,00,
38783410,02000026,true,Rx,0,8,7F,34,00,DC,46,00,E0,AC,
38783701,02104136,true,Rx,0,8,BB,00,3F,FF,07,E0,00,00,
38783971,02804026,true,Rx,0,8,37,FF,76,ED,F7,33,0D,E9,
38784261,02C00020,true,Rx,0,8,00,00,00,00,00,02,75,81,
38785677,0100082C,true,Rx,0,8,0F,C0,87,DB,65,EC,1A,20,
38785958,0110483C,true,Rx,0,8,08,E9,6A,00,44,66,FC,52,
38789101,0300410E,true,Rx,0,8,38,95,A8,3C,07,C8,6C,00,
38795417,0100082C,true,Rx,0,8,0F,C0,87,DB,65,EC,1A,20,
38795693,0110483C,true,Rx,0,8,08,E9,6A,00,44,66,FC,52,
38797087,01C04026,true,Rx,0,8,80,00,80,00,80,00,80,00,
38797367,02000026,true,Rx,0,8,7F,34,00,DC,46,00,E0,AC,
38797657,02104136,true,Rx,0,8,BB,00,3F,FF,07,E0,00,00,
38797927,02804026,true,Rx,0,8,37,FF,77,04,F6,ED,0D,F7,
38798218,02C00020,true,Rx,0,8,00,00,00,00,00,02,75,81,
38798508,0340412E,true,Rx,0,8,00,00,00,00,00,00,00,00,
38798807,19000026,true,Rx,0,8,00,00,00,00,00,00,00,00,
38799089,19A00002,true,Rx,0,8,6E,00,00,00,00,00,00,F7,
38799368,00800006,true,Rx,0,8,C9,DF,0E,56,41,DF,2E,65,
38799658,0090411E,true,Rx,0,8,02,1D,E0,D3,00,00,00,00,
38799928,0300410E,true,Rx,0,8,B8,8F,28,3C,87,C8,FC,00,
38800217,03800006,true,Rx,0,8,38,00,9C,E3,46,3E,0B,40,
38805497,0100082C,true,Rx,0,8,0F,C0,87,DB,65,EC,1A,20,
38805772,0110483C,true,Rx,0,8,08,E9,6A,00,44,66,FC,52,
38807894,0340412E,true,Rx,0,8,00,00,00,00,00,00,00,00,
38809163,0300410E,true,Rx,0,8,38,8F,28,3C,07,C8,6C,00,
38811120,01C04026,true,Rx,0,8,80,00,80,00,80,00,80,00,
38811401,02000026,true,Rx,0,8,7F,34,00,DC,47,00,E0,AC,
38811688,02104136,true,Rx,0,8,BB,00,3F,FF,07,E0,00,00,
38811960,02804026,true,Rx,0,8,37,FF,77,35,F6,B5,0D,FF,
38812260,02C00020,true,Rx,0,8,00,00,00,00,00,02,75,81,
38812869,19000026,true,Rx,0,8,00,00,00,00,00,00,04,00,
38815583,0100082C,true,Rx,0,8,0F,C0,87,DB,65,EC,1A,20,
38815859,0110483C,true,Rx,0,8,08,E9,EA,00,44,66,FC,52,
38817970,0340412E,true,Rx,0,8,50,80,00,FD,80,00,00,00,
38819126,00800006,true,Rx,0,8,09,DF,0E,56,41,DF,AE,65,
38819405,0090411E,true,Rx,0,8,42,1D,E0,D3,00,00,00,00,
38819686,0300410E,true,Rx,0,8,B8,8F,A8,3D,87,C8,FC,00,
38819967,03800006,true,Rx,0,8,38,00,9C,E3,46,3E,0B,40,
38825117,01C04026,true,Rx,0,8,80,00,80,00,80,00,80,00,
38825403,02000026,true,Rx,0,8,7F,34,00,DC,46,00,E0,AC,
38825682,0100082C,true,Rx,0,8,0F,C0,87,DB,65,EC,1A,20,
38825964,0110483C,true,Rx,0,8,08,E9,6A,00,44,66,FC,52,
38826253,02104136,true,Rx,0,8,BB,00,3F,FF,07,E0,00,00,
38826523,02804026,true,Rx,0,8,37,FF,77,77,F6,8B,0E,01,
38826813,02C00020,true,Rx,0,8,00,00,00,00,00,02,75,81,
38827104,19A00002,true,Rx,0,8,12,00,00,00,00,00,00,F7,
38827970,0340412E,true,Rx,0,8,71,80,00,ED,80,00,00,00,
38828261,19000026,true,Rx,0,8,00,00,00,00,38,13,04,00,
38829159,0300410E,true,Rx,0,8,B8,8F,28,3D,87,C8,FC,00,
38829449,19E00006,true,Rx,0,8,00,00,18,C0,47,00,40,00,
38835436,0100082C,true,Rx,0,8,0F,C0,87,DB,75,EC,1A,20,
38835721,0110483C,true,Rx,0,8,08,E9,6A,00,44,66,FC,52,
38837966,0340412E,true,Rx,0,8,72,80,00,DD,80,00,00,00,
38839143,00800006,true,Rx,0,8,41,DF,0E,56,41,DF,2E,65,
38839422,0090411E,true,Rx,0,8,02,1D,60,D3,00,00,00,00,
38839713,01C04026,true,Rx,0,8,80,00,80,00,80,00,80,00,
38839994,02000026,true,Rx,0,8,7F,34,00,DC,46,00,E0,AC,
38840274,02104136,true,Rx,0,8,BB,00,3F,FF,07,E0,00,00,
38840554,02804026,true,Rx,0,8,37,FF,77,8E,F6,F0,0E,04,
38840844,02C00020,true,Rx,0,8,00,00,00,00,00,02,75,81,
38841126,0300410E,true,Rx,0,8,38,8F,28,3D,07,C8,6C,00,
38841405,03800006,true,Rx,0,8,38,00,9C,E3,46,3E,0B,40,
38842868,19000026,true,Rx,0,8,00,00,01,40,38,11,84,00,
38845628,0100082C,true,Rx,0,8,0F,C0,87,DB,65,EC,1A,20,
38845905,0110483C,true,Rx,0,8,08,E9,6A,00,44,66,FC,52,
38847994,0340412E,true,Rx,0,8,73,80,00,CD,80,00,00,00,
38849150,0300410E,true,Rx,0,8,B8,8F,A8,3D,87,C8,FC,00,
38853136,01C04026,true,Rx,0,8,80,00,80,00,80,00,80,00,
38853422,02000026,true,Rx,0,8,7F,34,00,DC,46,00,E0,AC,
38853702,02104136,true,Rx,0,8,BB,00,3F,FF,07,E0,00,00,
38853982,02804026,true,Rx,0,8,37,FF,77,7A,F7,3E,0E,01,
38854273,02C00020,true,Rx,0,8,00,00,00,00,00,02,75,81,
38854563,19A00002,true,Rx,0,8,02,00,00,00,00,00,00,F7,
38855579,0100082C,true,Rx,0,8,0F,C0,87,DB,65,EC,1A,20,
38855859,0110483C,true,Rx,0,8,08,E9,6A,00,44,66,FC,52,
38858003,0340412E,true,Rx,0,8,74,80,00,BD,80,00,00,00,
38858293,19000026,true,Rx,0,8,00,00,01,40,38,11,84,00,
38859171,00800006,true,Rx,0,8,89,DF,0E,56,41,DF,2E,65,
38859461,0090411E,true,Rx,0,8,02,1D,E0,D3,00,00,00,00,
38859731,0300410E,true,Rx,0,8,B8,90,28,3D,87,C8,FC,00,
38860022,03800006,true,Rx,0,8,38,00,9C,E3,46,3E,0B,40,
38860313,1B200002,true,Rx,0,8,00,00,00,00,00,00,0F,71,
38865471,0100082C,true,Rx,0,8,0F,C0,87,DB,65,EC,1A,20,
38865748,0110483C,true,Rx,0,8,08,E9,EA,00,44,66,FC,52,
38866028,1A200020,true,Rx,0,8,8E,00,00,00,00,00,02,3C,
38866318,1B700030,true,Rx,0,8,2C,00,22,00,00,C0,00,00,
38867103,01C04026,true,Rx,0,8,80,00,80,00,80,00,80,00,
38867384,02000026,true,Rx,0,8,7F,34,00,DC,47,00,E0,AC,
38867667,02104136,true,Rx,0,8,BB,00,3F,FF,07,E0,00,00,
38867948,02804026,true,Rx,0,8,37,FF,77,4A,F7,63,0D,FF,
38868239,02C00020,true,Rx,0,8,00,00,00,00,00,02,75,81,
38868518,0340412E,true,Rx,0,8,75,80,00,AD,80,00,00,00,
38869211,0300410E,true,Rx,0,8,38,90,28,3D,07,C8,6C,00,
38872885,19000026,true,Rx,0,8,00,00,01,40,38,11,84,00,
38875523,0100082C,true,Rx,0,8,0F,C0,87,DB,65,EC,1A,20,
38875799,0110483C,true,Rx,0,8,08,E9,6A,00,44,66,FC,52,
38878003,0340412E,true,Rx,0,8,76,80,00,9D,80,00,00,00,
38879323,00800006,true,Rx,0,8,C9,DF,0E,56,41,DF,AE,65,
38879602,0090411E,true,Rx,0,8,C2,1D,E0,D3,00,00,00,00,
38879882,0300410E,true,Rx,0,8,B8,90,A8,3D,87,C8,FC,00,
38880161,03800006,true,Rx,0,8,78,00,9C,E3,46,3E,0B,40,
38880452,19E00006,true,Rx,0,8,00,00,18,E0,47,00,40,00,
38881135,01C04026,true,Rx,0,8,80,00,80,00,80,00,80,00,
38881414,02000026,true,Rx,0,8,7F,34,00,DC,47,00,E0,AC,
38881700,02104136,true,Rx,0,8,BB,00,3F,FF,07,E0,00,00,
38881982,02804026,true,Rx,0,8,37,FF,77,09,F7,63,0D,FD,
38882271,02C00020,true,Rx,0,8,00,00,00,00,00,02,75,81,
38882561,19A00002,true,Rx,0,8,12,00,00,00,00,00,00,F7,
38885709,0100082C,true,Rx,0,8,0F,C0,87,DB,65,EC,1A,20,
38885986,0110483C,true,Rx,0,8,08,E9,6A,00,44,66,FC,52,
38888003,0340412E,true,Rx,0,8,77,80,00,8D,80,00,00,00,
38888293,19000026,true,Rx,0,8,00,00,01,40,38,11,84,00,
38889201,0300410E,true,Rx,0,8,38,90,28,3D,07,C8,6C,00,
38889491,1B600002,true,Rx,0,8,00,80,00,0C,00,1A,4C,00,
38895121,01C04026,true,Rx,0,8,80,00,80,00,80,00,80,00,
38895396,02000026,true,Rx,0,8,7F,34,00,DC,46,00,E0,AC,
38895687,0100082C,true,Rx,0,8,0F,C0,87,DB,65,EC,1A,20,
38895957,0110483C,true,Rx,0,8,08,E9,6A,00,44,66,FC,52,
38896246,02104136,true,Rx,0,8,BB,00,3F,FF,07,E0,00,00,
38896527,02804026,true,Rx,0,8,37,FF,76,BC,F7,63,0D,FD,
38896817,02C00020,true,Rx,0,8,00,00,00,00,00,02,75,81,
38898001,0340412E,true,Rx,0,8,78,80,00,7D,80,00,00,00,
38899225,00800006,true,Rx,0,8,01,DC,0E,56,41,DC,2E,65,
38899505,0090411E,true,Rx,0,8,02,1D,60,D3,00,00,00,00,
38899784,0300410E,true,Rx,0,8,B8,90,28,3D,87,C4,FC,00,
38900075,03800006,true,Rx,0,8,38,00,9C,E3,46,3E,0B,40,
38902893,19000026,true,Rx,0,8,00,00,01,40,38,11,84,00,
38905581,0100082C,true,Rx,0,8,0F,C0,87,DB,65,EC,1A,20,
38905857,0110483C,true,Rx,0,8,08,E9,6A,00,44,66,FC,52,
38908001,0340412E,true,Rx,0,8,79,80,00,6D,80,00,00,00,
38909104,01C04026,true,Rx,0,8,80,00,80,00,80,00,80,00,
38909383,02000026,true,Rx,0,8,7F,34,00,DC,46,00,E0,AC,
38909664,02104136,true,Rx,0,8,BB,00,3F,FF,07,E0,00,00,
38909945,02804026,true,Rx,0,8,37,FF,76,69,F7,63,0D,FF,
38910236,02C00020,true,Rx,0,8,00,00,00,00,00,02,75,81,
38910515,0300410E,true,Rx,0,8,B8,8F,A8,3D,87,C4,FC,00,
38910804,19A00002,true,Rx,0,8,6E,00,00,00,00,00,00,F7,
38915562,0100082C,true,Rx,0,8,0F,C0,87,DB,65,EC,1A,20,
38915838,0110483C,true,Rx,0,8,08,E9,EA,00,44,66,FC,52,
38918001,0340412E,true,Rx,0,8,7A,80,00,5D,80,00,00,00,
38918291,19000026,true,Rx,0,8,00,00,01,40,38,11,84,00,
38919221,00800006,true,Rx,0,8,49,DC,0E,56,41,DC,AE,65,
38919501,0090411E,true,Rx,0,8,42,09,E1,09,00,00,00,00,
38919783,0300410E,true,Rx,0,8,38,8F,28,3D,07,C4,6C,00,
38920063,03800006,true,Rx,0,8,38,00,9C,E3,46,3E,0B,40,
38923113,01C04026,true,Rx,0,8,80,00,80,00,80,00,80,00,
38923394,02000026,true,Rx,0,8,7F,34,00,DC,47,00,E0,AC,
38923681,02104136,true,Rx,0,8,BB,00,3F,FF,07,E0,00,00,
38923962,02804026,true,Rx,0,8,37,FF,76,12,F7,63,0D,FF,
38924253,02C00020,true,Rx,0,8,00,00,00,00,00,02,75,81,
38925666,0100082C,true,Rx,0,8,0F,C0,87,DB,65,EC,1A,20,
38925946,0110483C,true,Rx,0,8,08,E9,6A,00,44,66,FC,52,
38928008,0340412E,true,Rx,0,8,7B,80,00,4D,80,00,00,00,
38929236,0300410E,true,Rx,0,8,B8,8F,28,3D,87,C4,FC,00,
38929526,19E00006,true,Rx,0,8,00,00,18,C0,47,00,40,00,
38932895,19000026,true,Rx,0,8,00,00,01,40,38,11,84,00,
38935501,0100082C,true,Rx,0,8,0F,C0,87,DB,65,EC,1A,20,
38935778,0110483C,true,Rx,0,8,08,E9,6A,00,44,66,FC,52,
38937099,01C04026,true,Rx,0,8,80,00,80,00,80,00,80,00,
38937379,02000026,true,Rx,0,8,7F,34,00,DC,47,00,E0,AC,
38937659,02104136,true,Rx,0,8,BB,00,3F,FF,07,E0,00,00,
38937940,02804026,true,Rx,0,8,37,FF,75,B7,F7,63,0D,FD,
38938230,02C00020,true,Rx,0,8,00,00,00,00,00,02,75,81,
38938509,0340412E,true,Rx,0,8,7C,80,00,3D,80,00,00,00,
38938800,19A00002,true,Rx,0,8,12,00,00,00,00,00,00,F7,
38939266,00800006,true,Rx,0,8,89,DC,0E,56,41,DC,2E,65,
38939547,0090411E,true,Rx,0,8,02,09,E1,09,00,00,00,00,
38939825,0300410E,true,Rx,0,8,B8,8F,A8,3D,87,C4,FC,00,
38940105,03800006,true,Rx,0,8,38,00,9C,E3,46,3E,0B,40,
38944977,1B200002,true,Rx,0,8,00,00,00,00,00,00,0F,71,
38945551,0100082C,true,Rx,0,8,0F,C0,87,DB,65,EC,1A,20,
38945821,0110483C,true,Rx,0,8,08,E9,6A,00,44,66,FC,52,
38948008,0340412E,true,Rx,0,8,7D,80,00,2D,80,00,00,00,
38948298,19000026,true,Rx,0,8,00,00,01,40,38,11,84,00,
38949256,0300410E,true,Rx,0,8,38,8F,28,3D,07,C4,6C,00,
38951150,01C04026,true,Rx,0,8,80,00,80,00,80,00,80,00,
38951430,02000026,true,Rx,0,8,7F,34,00,DC,47,00,E0,AC,
38951720,02104136,true,Rx,0,8,BB,00,3F,FF,07,E0,00,00,
38951991,02804026,true,Rx,0,8,37,FF,75,5B,F7,63,0D,FD,
38952280,02C00020,true,Rx,0,8,00,00,00,00,00,02,75,81,
38955569,0100082C,true,Rx,0,8,0F,C0,87,DB,65,EC,1A,20,
38955844,0110483C,true,Rx,0,8,08,E9,6A,00,44,66,FC,52,
38958007,0340412E,true,Rx,0,8,7E,80,00,1D,80,00,00,00,
38959254,00800006,true,Rx,0,8,C1,DC,0E,56,41,DC,2E,65,
38959545,0090411E,true,Rx,0,8,02,09,61,09,00,00,00,00,
38959814,0300410E,true,Rx,0,8,B8,8F,28,3D,87,C4,FC,00,
38960105,03800006,true,Rx,0,8,38,00,9C,E3,46,3E,0B,40,
38962888,19000026,true,Rx,0,8,00,00,01,40,38,11,84,00,
38965132,01C04026,true,Rx,0,8,80,00,80,00,80,00,80,00,
38965411,02000026,true,Rx,0,8,7F,34,00,DC,47,00,E0,AC,
38965700,0100082C,true,Rx,0,8,0F,C0,87,DB,65,EC,1A,20,
38965980,0110483C,true,Rx,0,8,08,E9,EA,00,44,66,FC,52,
38966260,02104136,true,Rx,0,8,BB,00,3F,FF,07,E0,00,00,
38966540,02804026,true,Rx,0,8,37,FF,74,FE,F7,63,0D,FD,
38966830,02C00020,true,Rx,0,8,00,00,00,00,00,02,75,81,
38967112,19A00002,true,Rx,0,8,02,00,00,00,00,00,00,F7,
38968006,0340412E,true,Rx,0,8,7F,80,00,0D,80,00,00,00,
38969305,0300410E,true,Rx,0,8,38,8F,A8,3D,07,C4,6C,00,
38975478,0100082C,true,Rx,0,8,0F,C0,87,DB,75,EC,1A,20,
38975754,0110483C,true,Rx,0,8,08,E9,6A,00,44,66,FC,52,
38978083,0340412E,true,Rx,0,8,70,80,00,FD,80,00,00,00,
38978372,19000026,true,Rx,0,8,00,00,01,40,38,11,84,00,
38979168,01C04026,true,Rx,0,8,80,00,80,00,80,00,80,00,
38979438,00800006,true,Rx,0,8,09,DC,0E,56,41,DC,AE,65,
38979720,0090411E,true,Rx,0,8,C2,09,E1,09,00,00,00,00,
38980000,02000026,true,Rx,0,8,7F,34,00,DC,46,00,E0,AC,
38980291,02104136,true,Rx,0,8,BB,00,3F,FF,07,E0,00,00,
38980560,02804026,true,Rx,0,8,37,FF,74,A0,F7,63,0D,FD,
38980860,02C00020,true,Rx,0,8,00,00,00,00,00,02,75,81,
38981131,0300410E,true,Rx,0,8,B8,8F,28,3D,87,C4,FC,00,
38981421,03800006,true,Rx,0,8,78,00,9C,E3,46,3E,0B,40,
38981700,19E00006,true,Rx,0,8,00,00,18,E0,47,00,40,00,
38985675,0100082C,true,Rx,0,8,0F,C0,87,DB,65,EC,1A,20,
38985952,0110483C,true,Rx,0,8,08,E9,6A,00,44,66,FC,52,
38988073,0340412E,true,Rx,0,8,71,80,00,ED,80,00,00,00,
38989289,0300410E,true,Rx,0,8,B8,8F,28,3D,87,C4,FC,00,
38992892,19000026,true,Rx,0,8,00,FF,01,40,38,11,8C,00,
38993189,01C04026,true,Rx,0,8,80,00,80,00,80,00,80,00,
38993469,02000026,true,Rx,0,8,7F,34,00,DC,47,00,E0,AC,
38993748,02104136,true,Rx,0,8,BB,00,3F,FF,07,E0,00,00,
38994030,02804026,true,Rx,0,8,37,FF,74,41,F7,63,0D,FD,
38994319,02C00020,true,Rx,0,8,00,00,00,00,00,02,75,81,
38994609,19A00002,true,Rx,0,8,12,00,00,00,00,00,00,F7,
38995648,0100082C,true,Rx,0,8,0F,C0,87,DB,65,EC,1A,20,
38995929,0110483C,true,Rx,0,8,08,E9,6A,00,44,66,FC,52,
38998000,0340412E,true,Rx,0,8,72,80,00,DD,80,00,00,00,
38999305,00800006,true,Rx,0,8,49,DC,0E,56,41,DC,2E,65,
38999586,0090411E,true,Rx,0,8,02,02,E1,18,00,00,00,00,
38999877,0300410E,true,Rx,0,8,38,8F,A8,3D,07,C4,6C,00,
39000158,03800006,true,Rx,0,8,38,00,9C,E3,46,3E,0B,40,
39000601,1BA0493C,true,Rx,0,8,0D,01,02,01,01,01,01,01,
39000883,1BE0493C,true,Rx,0,8,01,00,2A,88,99,30,FD,FB,
39005514,0100082C,true,Rx,0,8,0F,C0,87,DB,65,EC,1A,20,
39005789,0110483C,true,Rx,0,8,08,E9,6A,00,44,66,FC,52,
39007183,01C04026,true,Rx,0,8,80,00,80,00,80,00,80,00,
39007462,02000026,true,Rx,0,8,7F,34,00,DC,47,00,E0,AC,
39007742,02104136,true,Rx,0,8,BB,00,3F,FF,07,E0,00,00,
39008024,02804026,true,Rx,0,8,37,FF,73,E2,F7,63,0D,FA,
39008313,02C00020,true,Rx,0,8,00,00,00,00,00,02,75,81,
39008594,0340412E,true,Rx,0,8,73,80,00,CD,80,00,00,00,
39008885,19000026,true,Rx,0,8,00,FF,01,40,38,11,84,00,
39009340,0300410E,true,Rx,0,8,B8,8D,28,3D,87,C3,FC,00,
39015451,0100082C,true,Rx,0,8,0F,C0,87,DB,65,EC,1A,20,
39015727,0110483C,true,Rx,0,8,08,E9,EA,00,44,66,FC,52,
39018003,0340412E,true,Rx,0,8,74,80,00,BD,80,00,00,00,
39019385,00800006,true,Rx,0,8,81,DC,0E,55,41,DC,AE,65,
39019662,0090411E,true,Rx,0,8,42,02,61,18,00,00,00,00,
39019943,0300410E,true,Rx,0,8,B8,8D,28,3D,87,C3,FC,00,
39020223,03800006,true,Rx,0,8,38,00,9C,E3,46,3E,0B,40,
39021153,01C04026,true,Rx,0,8,80,00,80,00,80,00,80,00,
39021433,02000026,true,Rx,0,8,7F,34,00,DC,47,00,E0,AC,
39021718,02104136,true,Rx,0,8,BB,00,3F,FF,07,E0,00,00,
39021999,02804026,true,Rx,0,8,37,FF,73,83,F7,63,0D,FA,
39022289,02C00020,true,Rx,0,8,00,00,00,00,00,02,75,81,
39022569,19A00002,true,Rx,0,8,6E,00,00,00,00,00,00,F7,
39022901,19000026,true,Rx,0,8,00,FF,01,40,38,11,84,00,
39025772,0100082C,true,Rx,0,8,0F,C0,87,DB,65,EC,1A,20,
39026048,0110483C,true,Rx,0,8,08,E9,6A,00,44,66,FC,52,
39028015,0340412E,true,Rx,0,8,75,80,00,AD,80,00,00,00,
39029335,0300410E,true,Rx,0,8,38,8D,A8,3D,07,C3,6C,00,
39029615,19E00006,true,Rx,0,8,00,00,18,C0,47,00,40,00,
39029979,1B200002,true,Rx,0,8,00,00,00,00,00,00,0F,71,
39035115,01C04026,true,Rx,0,8,80,00,80,00,80,00,80,00,
39035390,02000026,true,Rx,0,8,7F,34,00,DC,47,00,E0,AC,
39035681,0100082C,true,Rx,0,8,0F,C0,87,DB,65,EC,1A,20,
39035951,0110483C,true,Rx,0,8,08,E9,6A,00,44,66,FC,52,
39036242,02104136,true,Rx,0,8,BB,00,3F,FF,07,E0,00,00,
39036511,02804026,true,Rx,0,8,37,FF,73,24,F7,63,0D,FD,
39036801,02C00020,true,Rx,0,8,00,00,00,00,00,02,75,81,
39038006,0340412E,true,Rx,0,8,76,80,00,9D,80,00,00,00,
39038296,19000026,true,Rx,0,8,00,FF,01,40,38,11,84,00,
39039368,00800006,true,Rx,0,8,C9,DC,0E,55,41,DC,2E,65,
39039658,0090411E,true,Rx,0,8,02,02,E1,18,00,00,00,00,
39039938,0300410E,true,Rx,0,8,B8,8D,28,3D,87,C3,FC,00,
39040219,03800006,true,Rx,0,8,38,00,9C,E3,46,3E,0B,40,
39045482,0100082C,true,Rx,0,8,0F,C0,87,DB,65,EC,1A,20,
39045767,0110483C,true,Rx,0,8,08,E9,6A,00,44,66,FC,52,
39048074,0340412E,true,Rx,0,8,77,80,00,8D,80,00,00,00,
39049126,01C04026,true,Rx,0,8,80,00,80,00,80,00,80,00,
39049396,02000026,true,Rx,0,8,7F,34,00,DC,47,00,E0,AC,
39049686,02104136,true,Rx,0,8,BB,00,3F,FF,07,E0,00,00,
39049966,02804026,true,Rx,0,8,37,FF,72,C5,F7,63,0D,FD,
39050257,02C00020,true,Rx,0,8,00,00,00,00,00,02,75,81,
39050537,0300410E,true,Rx,0,8,38,8D,28,3D,07,C3,6C,00,
39050827,19A00002,true,Rx,0,8,12,00,00,00,00,00,00,F7,
39052897,19000026,true,Rx,0,8,00,FF,01,40,38,11,84,00,
39055635,0100082C,true,Rx,0,8,0F,C0,87,DB,65,EC,1A,20,
39055912,0110483C,true,Rx,0,8,08,E9,6A,00,44,66,FC,52,
39058012,0340412E,true,Rx,0,8,78,80,00,7D,80,00,00,00,
39059364,00800006,true,Rx,0,8,09,DC,0E,55,41,DC,2E,65,
39059643,0090411E,true,Rx,0,8,02,02,E1,18,00,00,00,00,
39059924,0300410E,true,Rx,0,8,B8,8D,A8,3D,87,C3,FC,00,
39060214,03800006,true,Rx,0,8,38,00,9C,E3,46,3E,0B,40,
39060494,1B600002,true,Rx,0,8,00,80,00,0C,00,1A,4C,00,
39063155,01C04026,true,Rx,0,8,80,00,80,00,80,00,80,00,
39063434,02000026,true,Rx,0,8,7F,34,00,DC,47,00,E0,AC,
39063722,02104136,true,Rx,0,8,BB,00,3F,FF,07,E0,00,00,
39063984,02804026,true,Rx,0,8,37,FF,72,66,F7,63,0D,FD,
39064284,02C00020,true,Rx,0,8,00,00,00,00,00,02,75,81,
39065749,0100082C,true,Rx,0,8,0F,C0,87,DB,75,EC,1A,20,
39066009,0110483C,true,Rx,0,8,08,E9,EA,00,44,66,FC,52,
39068009,0340412E,true,Rx,0,8,79,80,00,6D,80,00,00,00,
39068299,19000026,true,Rx,0,8,00,FF,01,40,38,11,84,00,
39069383,0300410E,true,Rx,0,8,B8,8B,28,3D,87,C3,FC,00,
39075497,0100082C,true,Rx,0,8,0F,C0,87,DB,65,EC,1A,20,
39075772,0110483C,true,Rx,0,8,08,E9,6A,00,44,66,FC,52,
39076063,1AE0092C,true,Rx,0,8,C0,00,22,E0,41,A0,00,00,
39076354,1B700030,true,Rx,0,8,3C,8F,22,00,00,C0,03,00,
39077108,01C04026,true,Rx,0,8,80,00,80,00,80,00,80,00,
39077388,02000026,true,Rx,0,8,7F,34,00,DC,46,00,E0,AC,
39077673,02104136,true,Rx,0,8,BB,00,3F,FF,07,E0,00,00,
39077953,02804026,true,Rx,0,8,37,FF,72,07,F7,63,0D,FD,
39078243,02C00020,true,Rx,0,8,00,00,00,00,00,02,75,81,
39078523,0340412E,true,Rx,0,8,7A,80,00,5D,80,00,00,00,
39078813,19A00002,true,Rx,0,8,02,00,00,00,00,00,00,F7,
39079413,00800006,true,Rx,0,8,41,DC,0E,54,41,DC,AE,65,
39079689,0090411E,true,Rx,0,8,C2,02,61,18,00,00,00,00,
39079981,0300410E,true,Rx,0,8,38,8B,28,3D,07,C3,6C,00,
39080260,03800006,true,Rx,0,8,78,00,9C,E3,46,3E,0B,40,
39080550,19E00006,true,Rx,0,8,00,00,18,E0,47,00,40,00,
39082894,19000026,true,Rx,0,8,00,FF,01,40,38,11,8C,00,
39085632,0100082C,true,Rx,0,8,0F,C0,87,DB,65,EC,1A,20,
39085909,0110483C,true,Rx,0,8,08,E9,6A,00,44,66,FC,52,
39088009,0340412E,true,Rx,0,8,7B,80,00,4D,80,00,00,00,
39089391,0300410E,true,Rx,0,8,B8,8B,A8,3D,87,C3,FC,00,
39091143,01C04026,true,Rx,0,8,80,00,80,00,80,00,80,00,
39091422,02000026,true,Rx,0,8,7F,34,00,DC,47,00,E0,AC,
39091701,02104136,true,Rx,0,8,BB,00,3F,FF,07,E0,00,00,
39091981,02804026,true,Rx,0,8,37,FF,71,A7,F7,63,0D,FD,
39092272,02C00020,true,Rx,0,8,00,00,00,00,00,02,75,81,
39095540,0100082C,true,Rx,0,8,0F,C0,87,DB,65,EC,1A,20,
39095815,0110483C,true,Rx,0,8,08,E9,6A,00,44,66,FC,52,
39098009,0340412E,true,Rx,0,8,7C,80,00,3D,80,00,00,00,
39098289,19000026,true,Rx,0,8,00,FF,01,40,38,11,84,00,
39099404,00800006,true,Rx,0,8,89,DC,0E,54,41,DC,2E,65,
39099683,0090411E,true,Rx,0,8,02,02,E1,18,00,00,00,00,
39099967,0300410E,true,Rx,0,8,B8,8B,28,3D,87,C3,FC,00,
39100247,03800006,true,Rx,0,8,38,00,9C,E3,46,3E,0B,40,
39105130,01C04026,true,Rx,0,8,80,00,80,00,80,00,80,00,
39105406,02000026,true,Rx,0,8,7F,34,00,DC,46,00,E0,AC,
39105696,0100082C,true,Rx,0,8,0F,C0,87,DB,65,EC,1A,20,
39105966,0110483C,true,Rx,0,8,08,E9,6A,00,44,66,FC,52,
39106257,02104136,true,Rx,0,8,BB,00,3F,FF,07,E0,00,00,
39106526,02804026,true,Rx,0,8,37,FF,71,48,F7,63,0D,FD,
39106826,02C00020,true,Rx,0,8,00,00,00,00,00,02,75,81,
39107107,19A00002,true,Rx,0,8,12,00,00,00,00,00,00,F7,
39108015,0340412E,true,Rx,0,8,7D,80,00,2D,80,00,00,00,
39109434,0300410E,true,Rx,0,8,38,8B,28,3D,07,C3,6C,00,
39112894,19000026,true,Rx,0,8,00,FF,01,40,38,11,84,00,
39114943,1B200002,true,Rx,0,8,00,00,00,00,00,00,0F,71,
39115507,0100082C,true,Rx,0,8,0F,C0,87,DB,65,EC,1A,20,
39115786,0110483C,true,Rx,0,8,08,E9,EA,00,44,66,FC,52,
39118075,0340412E,true,Rx,0,8,7E,80,00,1D,80,00,00,00,
39119149,01C04026,true,Rx,0,8,80,00,80,00,80,00,80,00,
39119427,00800006,true,Rx,0,8,C9,DC,0E,54,41,DC,AE,65,
39119706,0090411E,true,Rx,0,8,42,01,E1,1F,00,00,00,00,
39119988,02000026,true,Rx,0,8,7F,34,00,DC,47,00,E0,AC,
39120267,02104136,true,Rx,0,8,BB,00,3F,FF,07,E0,00,00,
39120546,02804026,true,Rx,0,8,37,FF,70,E9,F7,63,0D,FD,
39120837,02C00020,true,Rx,0,8,00,00,00,00,00,02,75,81,
39121117,0300410E,true,Rx,0,8,B8,8B,A8,3D,87,C3,FC,00,
39121395,03800006,true,Rx,0,8,38,00,9C,E3,46,3E,0B,40,
39125641,0100082C,true,Rx,0,8,0F,C0,87,DB,65,EC,1A,20,
39125917,0110483C,true,Rx,0,8,08,E9,6A,00,44,66,FC,52,
39128007,0340412E,true,Rx,0,8,7F,80,00,0D,80,00,00,00,
39128297,19000026,true,Rx,0,8,00,FF,01,40,38,11,84,00,
39129443,0300410E,true,Rx,0,8,38,8B,28,3D,07,C3,6C,00,
39129722,19E00006,true,Rx,0,8,00,00,18,C0,47,00,40,00,
39133132,01C04026,true,Rx,0,8,80,00,80,00,80,00,80,00,
39133401,02000026,true,Rx,0,8,7F,34,00,DC,47,00,E0,AC,
39133690,02104136,true,Rx,0,8,BB,00,3F,FF,07,E0,00,00,
39133962,02804026,true,Rx,0,8,37,FF,70,89,F7,63,0D,FD,
39134262,02C00020,true,Rx,0,8,00,00,00,00,00,02,75,81,
39134542,19A00002,true,Rx,0,8,6E,00,00,00,00,00,00,F7,
39135584,0100082C,true,Rx,0,8,0F,C0,87,DB,65,EC,1A,20,
39135866,0110483C,true,Rx,0,8,08,E9,6A,00,44,66,FC,52,
39138019,0340412E,true,Rx,0,8,70,80,00,FD,80,00,00,00,
39139442,00800006,true,Rx,0,8,01,DC,0E,54,41,DC,2E,65,
39139732,0090411E,true,Rx,0,8,02,01,61,1F,00,00,00,00,
39140014,0300410E,true,Rx,0,8,B8,8B,28,3D,87,C3,FC,00,
39140293,03800006,true,Rx,0,8,38,00,9C,E3,46,3E,0B,40,
39142891,19000026,true,Rx,0,8,00,FF,01,40,38,11,8C,00,
39145567,0100082C,true,Rx,0,8,0F,C0,87,DB,65,EC,1A,20,
39145842,0110483C,true,Rx,0,8,08,E9,6A,00,44,66,FC,52,
39147123,01C04026,true,Rx,0,8,80,00,80,00,80,00,80,00,
39147403,02000026,true,Rx,0,8,7F,34,00,DC,46,00,E0,AC,
39147694,02104136,true,Rx,0,8,BB,00,3F,FF,07,E0,00,00,
39147966,02804026,true,Rx,0,8,37,FF,70,2A,F7,63,0D,FD,
39148256,02C00020,true,Rx,0,8,00,00,00,00,00,02,75,81,
39148536,0340412E,true,Rx,0,8,71,80,00,ED,80,00,00,00,
39149475,0300410E,true,Rx,0,8,B8,89,A8,3D,87,C3,FC,00,
39155446,0100082C,true,Rx,0,8,0F,C0,87,DB,75,EC,1A,20,
39155731,0110483C,true,Rx,0,8,08,E9,6A,00,44,66,FC,52,
39158079,0340412E,true,Rx,0,8,72,80,00,DD,80,00,00,00,
39158359,19000026,true,Rx,0,8,00,FF,01,40,38,11,84,00,
39159463,00800006,true,Rx,0,8,49,DC,0E,52,41,DC,2E,65,
39159743,0090411E,true,Rx,0,8,02,01,E1,1F,00,00,00,00,
39160025,0300410E,true,Rx,0,8,38,89,28,3D,07,C3,6C,00,
39160304,03800006,true,Rx,0,8,38,00,9C,E3,46,3E,0B,40,
39161151,01C04026,true,Rx,0,8,80,00,80,00,80,00,80,00,
39161432,02000026,true,Rx,0,8,7F,34,00,DC,47,00,E0,AC,
39161716,02104136,true,Rx,0,8,BB,00,3F,FF,07,E0,00,00,
39161996,02804026,true,Rx,0,8,37,FF,70,00,F7,63,0D,FD,
39162287,02C00020,true,Rx,0,8,00,00,00,00,00,02,75,81,
39162577,19A00002,true,Rx,0,8,12,00,00,00,00,00,00,F7,
39165663,0100082C,true,Rx,0,8,0F,C0,87,DB,65,EC,1A,20,
39165950,0110483C,true,Rx,0,8,08,E9,EA,00,44,66,FC,52,
39168071,0340412E,true,Rx,0,8,73,80,00,CD,80,00,00,00,
39169463,0300410E,true,Rx,0,8,B8,87,28,3E,87,BD,FC,00,
39172893,19000026,true,Rx,0,8,00,FF,01,40,38,11,8C,00,
39175116,01C04026,true,Rx,0,8,80,00,80,00,80,00,80,00,
39175393,02000026,true,Rx,0,8,7F,34,00,DC,47,00,E0,AC,
39175672,0100082C,true,Rx,0,8,0F,C0,87,DB,65,EC,1A,20,
39175953,0110483C,true,Rx,0,8,08,E9,6A,00,44,66,FC,52,
39176234,02104136,true,Rx,0,8,BB,00,3F,FF,07,E0,00,00,
39176513,02804026,true,Rx,0,8,37,FF,70,00,F7,63,0D,FF,
39176804,02C00020,true,Rx,0,8,00,00,00,00,00,02,75,81,
39178018,0340412E,true,Rx,0,8,74,80,00,BD,80,00,00,00,
39179500,00800006,true,Rx,0,8,89,D8,0E,51,41,D8,AE,65,
39179789,0090411E,true,Rx,0,8,C2,2B,E1,E1,00,00,00,00,
39180071,0300410E,true,Rx,0,8,38,87,B8,3E,07,BD,6C,00,
39180350,03800006,true,Rx,0,8,78,00,9C,E3,46,3E,0B,40,
39180641,19E00006,true,Rx,0,8,00,00,18,E0,47,00,40,00,
39180922,1A200020,true,Rx,0,8,CE,00,02,3C,00,00,02,3C,
39185570,0100082C,true,Rx,0,8,0F,C0,87,DB,65,EC,1A,20,
39185846,0110483C,true,Rx,0,8,08,E9,6A,00,44,66,FC,52,
39188080,0340412E,true,Rx,0,8,75,80,00,AD,80,00,00,00,
39188361,19000026,true,Rx,0,8,00,FF,01,40,38,11,84,00,
39189115,01C04026,true,Rx,0,8,80,00,80,00,80,00,80,00,
39189394,02000026,true,Rx,0,8,7F,34,00,DC,47,00,E0,AC,
39189686,02104136,true,Rx,0,8,BB,00,3F,FF,07,E0,00,00,
39189958,02804026,true,Rx,0,8,37,FF,70,00,F7,63,0D,FD,
39190247,02C00020,true,Rx,0,8,00,00,00,00,00,02,75,81,
39190537,0300410E,true,Rx,0,8,B8,88,38,3E,87,BD,FC,00,
39190817,19A00002,true,Rx,0,8,02,00,00,00,00,00,00,F7,
39195533,0100082C,true,Rx,0,8,0F,C0,87,DB,65,EC,1A,20,
39195819,0110483C,true,Rx,0,8,08,E9,6A,00,44,66,FC,52,
39198012,0340412E,true,Rx,0,8,76,80,00,9D,80,00,00,00,
39199497,00800006,true,Rx,0,8,C1,D8,0E,52,41,D8,2E,65,
39199776,0090411E,true,Rx,0,8,02,2B,61,E1,00,00,00,00,
39200056,0300410E,true,Rx,0,8,B8,88,38,3E,87,BD,FC,00,
39200336,03800006,true,Rx,0,8,38,00,9C,E3,46,3E,0B,40,
39200637,1B200002,true,Rx,0,8,00,00,00,00,00,00,0F,71,
39202899,19000026,true,Rx,0,8,00,FF,01,40,38,11,84,00,
39203188,01C04026,true,Rx,0,8,80,00,80,00,80,00,80,00,
39203468,02000026,true,Rx,0,8,7F,34,00,DC,47,00,E0,AC,
39203759,02104136,true,Rx,0,8,BB,00,3F,FF,07,E0,00,00,
39204039,02804026,true,Rx,0,8,37,FF,70,00,F7,63,0D,FA,
39204329,02C00020,true,Rx,0,8,00,00,00,00,00,02,75,81,
39205742,0100082C,true,Rx,0,8,0F,C0,87,DB,65,EC,1A,20,
39206024,0110483C,true,Rx,0,8,08,E9,6A,00,44,66,FC,52,
39208012,0340412E,true,Rx,0,8,77,80,00,8D,80,00,00,00,
39209518,0300410E,true,Rx,0,8,38,88,B8,3E,07,BD,6C,00,
39215776,0100082C,true,Rx,0,8,0F,C0,87,DB,65,EC,1A,20,
39216064,0110483C,true,Rx,0,8,08,E7,EA,00,44,66,FC,52,
39217106,01C04026,true,Rx,0,8,80,00,80,00,80,00,80,00,
39217385,02000026,true,Rx,0,8,7F,34,00,DC,47,00,E0,AC,
39217676,02104136,true,Rx,0,8,BB,00,3F,FF,07,E0,00,00,
39217959,02804026,true,Rx,0,8,37,FF,70,00,F7,63,0D,F7,
39218239,02C00020,true,Rx,0,8,00,00,00,00,00,02,75,81,
39218529,0340412E,true,Rx,0,8,78,80,00,7D,80,00,00,00,
39218819,19000026,true,Rx,0,8,00,FF,01,40,38,11,8C,00,
39219111,19A00002,true,Rx,0,8,12,00,00,00,00,00,00,F7,
39219554,00800006,true,Rx,0,8,09,E1,0E,57,41,E1,AE,77,
39219852,0090411E,true,Rx,0,8,42,5A,E2,C5,00,00,00,00,
39220112,0300410E,true,Rx,0,8,B8,90,38,2E,87,CC,FC,00,
39220391,03800006,true,Rx,0,8,38,00,9C,E3,46,3E,0B,40,
39225544,0100082C,true,Rx,0,8,0F,C0,87,DB,65,EC,1A,20,
39225820,0110483C,true,Rx,0,8,08,E7,62,00,44,66,FC,52,
39228085,0340412E,true,Rx,0,8,79,80,00,6D,80,00,00,00,
39229907,0300410E,true,Rx,0,8,B8,90,38,2E,87,CC,FC,00,
39230197,19E00006,true,Rx,0,8,00,00,18,C0,47,00,40,00,
39230476,1B600002,true,Rx,0,8,00,80,00,1C,00,1A,4C,00,
39231169,01C04026,true,Rx,0,8,80,00,80,00,80,00,80,00,
39231449,02000026,true,Rx,0,8,7F,34,00,DC,47,00,E0,AC,
39231733,02104136,true,Rx,0,8,BB,00,3F,FF,07,E0,00,00,
39232014,02804026,true,Rx,0,8,37,FF,70,00,F7,63,0D,FD,
39232294,02C00020,true,Rx,0,8,00,00,00,00,00,02,75,81,
39232894,19000026,true,Rx,0,8,00,FF,01,40,38,11,84,00,
39235762,0100082C,true,Rx,0,8,0F,C0,87,DB,65,EC,1A,20,
39236040,0110483C,true,Rx,0,8,08,E7,62,00,44,66,FC,52,
39238077,0340412E,true,Rx,0,8,7A,80,00,5D,80,00,00,00,
39239542,00800006,true,Rx,0,8,49,E1,0E,57,41,E1,2E,77,
39239821,0090411E,true,Rx,0,8,02,55,E3,6A,00,00,00,00,
39240102,0300410E,true,Rx,0,8,38,90,B8,2E,07,CC,6C,00,
39240381,03800006,true,Rx,0,8,38,00,9C,E3,46,3E,0B,40,
39245131,01C04026,true,Rx,0,8,80,00,80,00,80,00,80,00,
39245406,02000026,true,Rx,0,8,7F,34,00,DC,47,00,E0,AC,
39245686,0100082C,true,Rx,0,8,0F,C0,87,DB,75,EC,1A,20,
39245968,0110483C,true,Rx,0,8,08,E7,62,00,44,66,FC,52,
39246248,02104136,true,Rx,0,8,BB,00,3F,FF,07,E0,00,00,
39246527,02804026,true,Rx,0,8,37,FF,70,00,F7,63,0D,FF,
39246817,02C00020,true,Rx,0,8,00,00,00,00,00,02,75,81,
39247108,19A00002,true,Rx,0,8,6E,00,00,00,00,00,00,F7,
39248015,0340412E,true,Rx,0,8,7B,80,00,4D,80,00,00,00,
39248306,19000026,true,Rx,0,8,00,FF,01,40,38,11,8C,00,
39249583,0300410E,true,Rx,0,8,B8,89,38,2E,87,CB,FC,00,
39250946,1BA0493C,true,Rx,0,8,0E,01,01,01,02,02,01,02,
39251235,1BE0493C,true,Rx,0,8,02,4A,8F,00,36,00,00,00,
39255448,0100082C,true,Rx,0,8,0F,C0,87,DB,65,EC,1A,20,
39255734,0110483C,true,Rx,0,8,08,E7,62,00,44,66,FC,52,
39258082,0340412E,true,Rx,0,8,7C,80,00,3D,80,00,00,00,
39259136,01C04026,true,Rx,0,8,80,00,80,00,80,00,80,00,
39259415,02000026,true,Rx,0,8,7F,34,00,DC,47,00,E0,AC,
39259696,00800006,true,Rx,0,8,81,E1,0E,52,41,E1,2E,7D,
39259976,0090411E,true,Rx,0,8,02,55,63,6A,00,00,00,00,
39260297,02104136,true,Rx,0,8,BB,00,3F,FF,07,E0,00,00,
39260577,02804026,true,Rx,0,8,37,FF,70,00,F7,63,0D,FF,
39260867,02C00020,true,Rx,0,8,00,00,00,00,00,02,75,81,
39261147,0300410E,true,Rx,0,8,38,89,38,2E,07,CB,6C,00,
39261428,03800006,true,Rx,0,8,38,00,9C,E3,46,3E,0B,40,
39262902,19000026,true,Rx,0,8,00,FF,01,40,38,11,84,00,
39265609,0100082C,true,Rx,0,8,0F,C0,87,DB,65,EC,1A,20,
39265887,0110483C,true,Rx,0,8,08,E7,E2,00,44,66,FC,52,
39268016,0340412E,true,Rx,0,8,7D,80,00,2D,80,00,00,00,
39269573,0300410E,true,Rx,0,8,B8,89,B8,30,87,CB,FC,00,
39273158,01C04026,true,Rx,0,8,80,00,80,00,80,00,80,00,
39273434,02000026,true,Rx,0,8,7F,34,00,DC,47,00,E0,AC,
39273725,02104136,true,Rx,0,8,BB,00,3F,FF,07,E0,00,00,
39274005,02804026,true,Rx,0,8,37,FF,70,00,F7,63,0D,FA,
39274285,02C00020,true,Rx,0,8,00,00,00,00,00,02,75,81,
39274585,19A00002,true,Rx,0,8,12,00,00,00,00,00,00,F7,
39275601,0100082C,true,Rx,0,8,0F,C0,87,DB,65,EC,1A,20,
39275883,0110483C,true,Rx,0,8,08,E7,62,00,44,66,FC,52,
39278015,0340412E,true,Rx,0,8,7E,80,00,1D,80,00,00,00,
39278306,19000026,true,Rx,0,8,00,FF,01,40,38,11,84,00,
39279593,00800006,true,Rx,0,8,C9,E0,0E,50,41,E0,AE,83,
39279874,0090411E,true,Rx,0,8,C2,5C,E3,FA,02,00,00,00,
39280155,0300410E,true,Rx,0,8,B8,85,38,30,87,CA,FC,00,
39280435,03800006,true,Rx,0,8,78,00,9C,E3,46,3E,0B,40,
39280725,19E00006,true,Rx,0,8,00,00,18,E0,47,00,40,00,
39284976,1B200002,true,Rx,0,8,00,00,00,00,00,00,0F,71,
39285623,0100082C,true,Rx,0,8,0F,C0,87,DB,65,EC,1A,20,
39285904,0110483C,true,Rx,0,8,08,E7,62,00,44,66,FC,52,
39286184,1B700030,true,Rx,0,8,2C,8F,22,00,00,C0,03,00,
39287123,01C04026,true,Rx,0,8,80,00,80,00,80,00,80,00,
39287404,02000026,true,Rx,0,8,7F,34,00,DC,47,00,E0,AC,
39287683,02104136,true,Rx,0,8,BB,00,3F,FF,07,E0,00,00,
39287963,02804026,true,Rx,0,8,37,FF,70,00,F7,63,0D,F7,
39288254,02C00020,true,Rx,0,8,00,00,00,00,00,02,75,81,
39288544,0340412E,true,Rx,0,8,7F,80,00,0D,80,00,00,00,
39289613,0300410E,true,Rx,0,8,38,85,38,30,07,CA,6C,00,
39292899,19000026,true,Rx,0,8,00,FF,01,40,38,11,8C,00,
39295506,0100082C,true,Rx,0,8,0F,C0,87,DB,65,EC,1A,20,
39295783,0110483C,true,Rx,0,8,08,E7,62,00,44,66,FC,52,
39298089,0340412E,true,Rx,0,8,70,80,00,FD,80,00,00,00,
39299600,00800006,true,Rx,0,8,09,E0,0E,4B,41,E0,2E,85,
39299882,0090411E,true,Rx,0,8,02,30,E4,3F,02,00,00,00,
39300161,0300410E,true,Rx,0,8,B8,7D,B8,30,87,CA,FC,00,
39300442,03800006,true,Rx,0,8,38,00,9C,E3,46,3E,0B,40,
39301144,01C04026,true,Rx,0,8,80,00,80,00,80,00,80,00,
39301424,02000026,true,Rx,0,8,7F,34,00,DC,47,00,E0,AC,
39301709,02104136,true,Rx,0,8,BB,00,3F,FF,07,E0,00,00,
39301991,02804026,true,Rx,0,8,37,FF,70,00,F7,63,0D,FA,
39302281,02C00020,true,Rx,0,8,00,00,00,00,00,02,75,81,
39302570,19A00002,true,Rx,0,8,02,00,00,00,00,00,00,F7,
39305686,0100082C,true,Rx,0,8,0F,C0,87,DB,65,EC,1A,20,
39305964,0110483C,true,Rx,0,8,08,E7,62,00,44,66,FC,52,
39308075,0340412E,true,Rx,0,8,71,80,00,ED,80,00,00,00,
39308364,19000026,true,Rx,0,8,00,FF,01,40,38,11,84,00,
39309613,0300410E,true,Rx,0,8,B8,7D,38,30,87,CA,FC,00,
39315096,01C04026,true,Rx,0,8,80,00,80,00,80,00,80,00,
39315371,02000026,true,Rx,0,8,7F,34,00,DC,47,00,E0,AC,
39315661,0100082C,true,Rx,0,8,0F,C0,87,DB,65,EC,00,00,
39315943,0110483C,true,Rx,0,8,08,E7,E2,00,44,66,FC,52,
39316232,02104136,true,Rx,0,8,BB,00,3F,FF,07,E0,00,00,
39316503,02804026,true,Rx,0,8,37,FF,70,00,F7,63,0D,FF,
39316792,02C00020,true,Rx,0,8,00,00,00,00,00,02,75,81,
39318017,0340412E,true,Rx,0,8,72,80,00,DD,80,00,00,00,
39319654,00800006,true,Rx,0,8,41,E0,0E,4B,41,E0,AE,85,
39319934,0090411E,true,Rx,0,8,42,30,64,3F,02,00,00,00,
39320213,0300410E,true,Rx,0,8,38,7D,38,32,07,CA,6C,00,
39320494,03800006,true,Rx,0,8,38,00,9C,E3,46,3E,0B,40,
39322899,19000026,true,Rx,0,8,00,FF,01,40,38,11,8C,00,
39325630,0100082C,true,Rx,0,8,0F,C0,87,DB,65,EC,00,00,
39325907,0110483C,true,Rx,0,8,08,E7,62,00,44,66,FC,52,
39328090,0340412E,true,Rx,0,8,73,80,00,CD,80,00,00,00,
39329111,01C04026,true,Rx,0,8,80,00,80,00,80,00,80,00,
39329390,02000026,true,Rx,0,8,7F,34,00,DC,47,00,E0,AC,
39329671,02104136,true,Rx,0,8,BB,00,3F,FF,07,E0,00,00,
39329954,02804026,true,Rx,0,8,37,FF,70,00,F7,63,0D,FD,
39330243,02C00020,true,Rx,0,8,00,00,00,00,00,02,75,81,
39330514,0300410E,true,Rx,0,8,B8,76,B8,32,87,C9,FC,00,
39330803,19A00002,true,Rx,0,8,12,00,00,00,00,00,00,F7,
39331095,19E00006,true,Rx,0,8,00,00,18,C0,47,00,40,00,
39335582,0100082C,true,Rx,0,8,0F,C0,87,DB,75,EC,00,00,
39335859,0110483C,true,Rx,0,8,08,E7,62,00,44,66,FC,52,
39338021,0340412E,true,Rx,0,8,74,80,00,BD,80,00,00,00,
39338301,19000026,true,Rx,0,8,00,FF,01,40,38,11,84,00,
39339650,00800006,true,Rx,0,8,89,DF,0E,47,41,DF,2E,88,
39339931,0090411E,true,Rx,0,8,02,3C,E4,8F,02,00,00,00,
39340210,0300410E,true,Rx,0,8,38,76,38,32,07,C9,6C,00,
39340490,03800006,true,Rx,0,8,38,00,9C,E3,46,3E,0B,40,
39343143,01C04026,true,Rx,0,8,80,00,80,00,80,00,80,00,
39343423,02000026,true,Rx,0,8,7F,34,00,DC,47,00,E0,AC,
39343711,02104136,true,Rx,0,8,BB,00,3F,FF,07,E0,00,00,
39343981,02804026,true,Rx,0,8,37,FF,70,49,F7,63,0D,FA,
39344272,02C00020,true,Rx,0,8,00,00,00,00,00,02,75,81,
39345643,0100082C,true,Rx,0,8,0F,C0,87,DB,65,EC,00,00,
39345917,0110483C,true,Rx,0,8,08,E7,62,00,44,66,FC,52,
39348017,0340412E,true,Rx,0,8,75,80,00,AD,80,00,00,00,
39349666,0300410E,true,Rx,0,8,B8,70,38,32,87,C8,FC,00,
39352899,19000026,true,Rx,0,8,00,FF,01,40,38,11,8C,00,
39355507,0100082C,true,Rx,0,8,0F,C0,87,DB,65,EC,00,00,
39355794,0110483C,true,Rx,0,8,08,E7,62,00,44,66,FC,52,
39357115,01C04026,true,Rx,0,8,80,00,80,00,80,00,80,00,
39357385,02000026,true,Rx,0,8,7F,34,00,DC,47,00,E0,AC,
39357675,02104136,true,Rx,0,8,BB,00,3F,FF,07,E0,00,00,
39357955,02804026,true,Rx,0,8,37,FF,70,A5,F7,63,0D,FA,
39358236,02C00020,true,Rx,0,8,00,00,00,00,00,02,75,81,
39358525,0340412E,true,Rx,0,8,76,80,00,9D,80,00,00,00,
39358806,19A00002,true,Rx,0,8,6E,00,00,00,00,00,00,F7,
39359688,00800006,true,Rx,0,8,C9,DF,0E,43,41,DF,2E,89,
39359969,0090411E,true,Rx,0,8,02,20,E4,B9,02,00,00,00,
39360238,0300410E,true,Rx,0,8,B8,70,B8,32,87,C8,FC,00,
39360529,03800006,true,Rx,0,8,38,00,9C,E3,46,3E,0B,40,
39365510,0100082C,true,Rx,0,8,0F,C0,87,DB,65,EC,00,00,
39365786,0110483C,true,Rx,0,8,08,E7,E2,00,44,66,FC,52,
39368093,0340412E,true,Rx,0,8,77,80,00,8D,80,00,00,00,
39368372,19000026,true,Rx,0,8,00,FF,01,40,38,11,84,00,
39369681,0300410E,true,Rx,0,8,38,70,38,33,07,C8,6C,00,
39371034,1B200002,true,Rx,0,8,00,00,00,00,00,00,0F,71,
39371323,01C04026,true,Rx,0,8,80,00,80,00,80,00,80,00,
39371592,02000026,true,Rx,0,8,7F,34,00,DC,47,00,E0,AC,
39371885,02104136,true,Rx,0,8,BB,00,3F,FF,07,E0,00,00,
39372154,02804026,true,Rx,0,8,37,FF,71,02,F7,63,0D,FD,
39372443,02C00020,true,Rx,0,8,00,00,00,00,00,02,75,81,
39375632,0100082C,true,Rx,0,8,0F,C0,87,DB,65,EC,00,00,
39375910,0110483C,true,Rx,0,8,08,E7,62,00,44,66,FC,52,
39378031,0340412E,true,Rx,0,8,78,80,00,7D,80,00,00,00,
39379681,00800006,true,Rx,0,8,01,DF,0E,3F,41,DF,AE,8B,
39379959,0090411E,true,Rx,0,8,C2,20,64,B9,04,00,00,00,
39380239,0300410E,true,Rx,0,8,B8,68,38,33,87,C8,FC,00,
39380519,03800006,true,Rx,0,8,58,00,9C,E3,46,3E,0B,40,
39380809,19E00006,true,Rx,0,8,00,00,18,E0,47,00,40,00,
39382907,19000026,true,Rx,0,8,00,FF,01,40,38,11,8C,00,
39385110,01C04026,true,Rx,0,8,80,00,80,00,80,00,80,00,
39385389,02000026,true,Rx,0,8,7F,34,00,DC,47,00,E0,AC,
39385669,0100082C,true,Rx,0,8,0F,C0,87,DB,65,EC,00,00,
39385950,0110483C,true,Rx,0,8,08,E7,62,00,44,66,FC,52,
39386240,02104136,true,Rx,0,8,BB,00,3F,FF,07,E0,00,00,
39386520,02804026,true,Rx,0,8,37,FF,71,60,F7,63,0D,FF,
39386810,02C00020,true,Rx,0,8,00,00,00,00,00,02,75,81,
39387100,19A00002,true,Rx,0,8,12,00,00,00,00,00,00,F7,
39388025,0340412E,true,Rx,0,8,79,80,00,6D,80,00,00,00,
39389716,0300410E,true,Rx,0,8,B8,62,B8,33,87,C7,FC,00,
39395434,0100082C,true,Rx,0,8,0F,C0,87,DB,65,EC,00,00,
39395710,0110483C,true,Rx,0,8,08,E7,62,00,44,66,FC,52,
39398017,0340412E,true,Rx,0,8,7A,80,00,5D,80,00,00,00,
39398296,19000026,true,Rx,0,8,00,FF,01,40,38,11,84,00,
39399112,01C04026,true,Rx,0,8,80,00,80,00,80,00,80,00,
39399392,02000026,true,Rx,0,8,7F,34,00,DC,46,00,E0,AC,
39399674,02104136,true,Rx,0,8,BB,00,3F,FF,07,E0,00,00,
39399945,00800006,true,Rx,0,8,49,DE,0E,3B,41,DE,2E,8C,
39400235,0090411E,true,Rx,0,8,02,26,E5,1E,04,00,00,00,
39400504,02804026,true,Rx,0,8,37,FF,71,BE,F7,63,0D,FF,
39400794,02C00020,true,Rx,0,8,00,00,00,00,00,02,75,81,
39401076,0300410E,true,Rx,0,8,38,62,38,33,07,C7,6C,00,
39401355,03800006,true,Rx,0,8,18,00,9C,E3,46,3E,0B,40,
39401643,1B600002,true,Rx,0,8,00,80,00,0C,00,1A,4C,00,
39405651,0100082C,true,Rx,0,8,0F,C0,87,DB,65,EC,00,00,
39405927,0110483C,true,Rx,0,8,08,E7,62,00,44,66,FC,52,
39408017,0340412E,true,Rx,0,8,7B,80,00,4D,80,00,00,00,
39409714,0300410E,true,Rx,0,8,B8,62,38,33,87,C7,FC,00,
39412908,19000026,true,Rx,0,8,00,FF,01,40,38,11,84,00,
39413197,01C04026,true,Rx,0,8,80,00,80,00,80,00,80,00,
39413478,02000026,true,Rx,0,8,7F,34,00,DC,47,00,E0,AC,
39413768,02104136,true,Rx,0,8,BB,00,3F,FF,07,E0,00,00,
39414039,02804026,true,Rx,0,8,37,FF,72,1D,F7,63,0D,FA,
39414329,02C00020,true,Rx,0,8,00,00,00,00,00,02,75,81,
39414618,19A00002,true,Rx,0,8,02,00,00,00,00,00,00,F7,
39415662,0100082C,true,Rx,0,8,0F,C0,87,DB,65,EC,00,00,
39415947,0110483C,true,Rx,0,8,08,E7,E2,00,44,66,FC,52,
39418026,0340412E,true,Rx,0,8,7C,80,00,3D,80,00,00,00,
39419717,00800006,true,Rx,0,8,89,DE,0E,3B,41,DE,AE,8C,
39419995,0090411E,true,Rx,0,8,42,1D,E5,40,04,00,00,00,
39420266,0300410E,true,Rx,0,8,38,62,B8,34,07,C7,6C,00,
39420555,03800006,true,Rx,0,8,18,00,9C,E3,46,3E,0B,40,
39425627,0100082C,true,Rx,0,8,0F,C0,87,DB,65,EC,00,00,
39425914,0110483C,true,Rx,0,8,08,E7,62,00,44,66,FC,52,
39427132,01C04026,true,Rx,0,8,80,00,80,00,80,00,80,00,
39427411,02000026,true,Rx,0,8,7F,34,00,DC,47,00,E0,AC,
39427701,02104136,true,Rx,0,8,BB,00,3F,FF,07,E0,00,00,
39427973,02804026,true,Rx,0,8,37,FF,72,7C,F7,63,0D,FD,
39428262,02C00020,true,Rx,0,8,00,00,00,00,00,02,75,81,
39428552,0340412E,true,Rx,0,8,7D,80,00,2D,80,00,00,00,
39428833,19000026,true,Rx,0,8,00,FF,01,40,38,11,8C,00,
39429756,0300410E,true,Rx,0,8,B8,5B,38,34,87,C7,FC,00,
39430036,19E00006,true,Rx,0,8,00,00,18,C0,47,00,40,00,
39435446,0100082C,true,Rx,0,8,0F,C0,87,DB,65,EC,00,00,
39435722,0110483C,true,Rx,0,8,08,E7,62,00,44,66,FC,52,
39438091,0340412E,true,Rx,0,8,7E,80,00,1D,80,00,00,00,
39439736,00800006,true,Rx,0,8,C1,DE,0E,33,41,DE,2E,8E,
39440017,0090411E,true,Rx,0,8,02,1D,65,40,04,00,00,00,
39440297,0300410E,true,Rx,0,8,B8,55,38,34,87,C6,FC,00,
39440576,03800006,true,Rx,0,8,18,00,9C,E3,46,3E,0B,40,
39441135,01C04026,true,Rx,0,8,80,00,80,00,80,00,80,00,
