Time Stamp,ID,Extended,Dir,Bus,LEN,D1,D2,D3,D4,D5,D6,D7,D8
10204593,0100082C,true,Rx,0,8,0F,C0,8F,D8,62,1B,00,79,
10204878,0110483C,true,Rx,0,8,00,C1,00,00,80,66,D8,53,
10205159,1A200020,true,Rx,0,8,2C,00,02,2D,00,00,02,2E,
10205450,1AE0092C,true,Rx,0,8,20,00,22,20,01,A0,00,00,
10205729,1B700030,true,Rx,0,8,2C,8E,22,00,00,00,03,00,
10214591,0100082C,true,Rx,0,8,0F,C0,8F,D8,66,1B,00,79,
10214866,0110483C,true,Rx,0,8,08,E1,20,08,44,66,FC,53,
10224555,0100082C,true,Rx,0,8,0F,C0,8F,D8,66,1B,00,79,
10224840,0110483C,true,Rx,0,8,08,E1,A0,00,44,66,FC,53,
10234571,0100082C,true,Rx,0,8,0F,C0,8F,D8,66,1B,00,79,
10234846,0110483C,true,Rx,0,8,08,E1,20,00,44,66,FC,51,
10244555,0100082C,true,Rx,0,8,0F,C0,8F,D8,66,1B,00,79,
10244830,0110483C,true,Rx,0,8,08,E1,20,00,44,66,FC,52,
10249604,1BA0493C,true,Rx,0,8,05,03,01,01,01,02,01,03,
10249881,1BE0493C,true,Rx,0,8,01,00,2A,6D,E2,68,FD,FB,
10254554,0100082C,true,Rx,0,8,0F,C0,8F,D8,66,1B,00,79,
10254839,0110483C,true,Rx,0,8,08,E1,20,00,44,66,FC,52,
10264558,0100082C,true,Rx,0,8,0F,C0,8F,D8,66,1B,00,79,
10264833,0110483C,true,Rx,0,8,08,E1,20,00,44,66,FC,52,
10274603,0100082C,true,Rx,0,8,0F,C0,8F,D8,66,1B,00,79,
10274888,0110483C,true,Rx,0,8,08,E1,A0,00,44,66,FC,52,
10284606,0100082C,true,Rx,0,8,0F,C0,8F,D8,66,1B,00,79,
10284882,0110483C,true,Rx,0,8,08,E1,20,00,44,66,FC,52,
10290642,00800006,true,Rx,0,8,60,00,00,00,00,00,00,00,
10290927,0090411E,true,Rx,0,8,00,00,00,00,00,00,00,00,
10291229,0300410E,true,Rx,0,8,00,00,00,00,00,00,00,00,
10291519,03800006,true,Rx,0,8,00,00,00,00,00,00,00,00,
10291819,19E00006,true,Rx,0,8,00,00,00,C0,00,00,00,00,
10292110,1B600002,true,Rx,0,8,00,00,00,00,00,00,00,00,
10292534,0300410E,true,Rx,0,8,00,00,00,00,00,00,00,00,
10294542,00800006,true,Rx,0,8,80,00,00,00,00,00,00,00,
10294838,0090411E,true,Rx,0,8,00,00,00,00,00,00,00,00,
10295119,0100082C,true,Rx,0,8,0F,C0,8F,D8,66,1B,00,79,
10295399,0110483C,true,Rx,0,8,08,E1,20,00,44,66,FC,52,
10295700,0300410E,true,Rx,0,8,00,00,00,00,00,00,00,00,
10295990,03800006,true,Rx,0,8,00,00,00,00,00,00,00,00,
10296539,0300410E,true,Rx,0,8,00,00,00,00,00,00,00,00,
10304565,0100082C,true,Rx,0,8,0F,C0,8F,D8,66,1B,00,79,
10304841,0110483C,true,Rx,0,8,08,E1,20,00,44,66,FC,52,
10306544,00800006,true,Rx,0,8,C9,E0,0D,E0,41,E0,A6,30,
10306831,0090411E,true,Rx,0,8,C2,00,E0,00,00,00,00,00,
10307111,0300410E,true,Rx,0,8,B7,CA,98,33,87,CA,FC,00,
10307404,03800006,true,Rx,0,8,70,00,00,00,00,00,00,00,
10314560,0100082C,true,Rx,0,8,0F,C0,8F,D8,66,1B,00,79,
10314835,0110483C,true,Rx,0,8,08,E1,20,00,44,66,FC,52,
10316559,0300410E,true,Rx,0,8,B7,D6,18,33,87,D6,FC,00,
10316847,19E00006,true,Rx,0,8,00,00,18,E0,6C,00,40,00,
10324555,0100082C,true,Rx,0,8,0F,C0,8F,D8,66,1B,00,79,
10324840,0110483C,true,Rx,0,8,08,E1,A0,00,44,66,FC,52,
10326564,00800006,true,Rx,0,8,01,E7,0D,E7,41,E7,26,74,
10326862,0090411E,true,Rx,0,8,02,00,60,00,00,00,00,00,
10327141,0300410E,true,Rx,0,8,37,D6,18,33,07,D6,6C,00,
10327433,03800006,true,Rx,0,8,30,00,00,00,00,00,00,00,
10334560,0100082C,true,Rx,0,8,0F,C0,8F,D8,66,1B,00,79,
10334845,0110483C,true,Rx,0,8,08,E1,20,00,44,66,FC,52,
10336579,0300410E,true,Rx,0,8,B7,E0,98,33,87,E0,FC,00,
10344549,0100082C,true,Rx,0,8,0F,C0,8F,D8,66,1B,00,79,
10344824,0110483C,true,Rx,0,8,08,E1,20,00,44,66,FC,52,
10346580,00800006,true,Rx,0,8,49,ED,0D,ED,41,ED,26,6C,
10346867,0090411E,true,Rx,0,8,02,00,E0,00,00,00,00,00,
10347158,0300410E,true,Rx,0,8,37,E0,18,33,07,E0,6C,00,
10347449,03800006,true,Rx,0,8,30,00,00,00,00,00,00,00,
10354552,0100082C,true,Rx,0,8,0F,C0,8F,D8,66,1B,00,79,
10354839,0110483C,true,Rx,0,8,08,E1,20,00,44,66,FC,52,
10356599,0300410E,true,Rx,0,8,B7,E0,18,EF,87,E0,FC,00,
10364543,0100082C,true,Rx,0,8,0F,C0,8F,D8,66,1B,00,79,
10364830,0110483C,true,Rx,0,8,08,E1,20,00,44,66,FC,52,
10366601,00800006,true,Rx,0,8,89,ED,0D,ED,41,ED,A6,6E,
10366890,0090411E,true,Rx,0,8,42,00,E0,00,00,00,00,00,
10367171,0300410E,true,Rx,0,8,B7,E0,98,EF,87,E0,FC,00,
10367472,03800006,true,Rx,0,8,30,00,00,00,00,00,00,00,
10367751,19E00006,true,Rx,0,8,00,00,18,C0,6C,00,40,00,
10374562,0100082C,true,Rx,0,8,0F,C0,8F,D8,66,1B,00,79,
10374839,0110483C,true,Rx,0,8,08,E1,A0,00,44,66,FC,52,
10376619,0300410E,true,Rx,0,8,37,E0,18,EF,07,E0,6C,00,
10384552,0100082C,true,Rx,0,8,0F,C0,8F,D8,66,1B,00,79,
10384829,0110483C,true,Rx,0,8,08,E1,20,00,44,66,FC,52,
10386620,00800006,true,Rx,0,8,C1,ED,0D,ED,41,ED,26,6E,
10386910,0090411E,true,Rx,0,8,02,00,60,00,00,00,00,00,
10387201,0300410E,true,Rx,0,8,B7,E0,18,EF,87,E0,FC,00,
10387502,03800006,true,Rx,0,8,30,00,00,00,00,00,00,00,
10394587,0100082C,true,Rx,0,8,0F,C0,8F,D8,66,1B,00,79,
10394863,0110483C,true,Rx,0,8,08,E2,20,00,44,66,FC,52,
10396674,0300410E,true,Rx,0,8,B7,E0,98,EF,87,E0,FC,00,
10404556,0100082C,true,Rx,0,8,0F,C0,8F,D8,66,1B,00,79,
10404832,0110483C,true,Rx,0,8,08,E2,20,00,44,66,FC,52,
10406643,00800006,true,Rx,0,8,09,ED,0D,ED,41,ED,A6,6E,
10406933,0090411E,true,Rx,0,8,C2,00,E0,00,00,00,00,00,
10407213,0300410E,true,Rx,0,8,37,E0,18,EF,07,E0,6C,00,
10407504,03800006,true,Rx,0,8,70,00,00,00,00,00,00,00,
10414570,0100082C,true,Rx,0,8,0F,C0,8F,D8,66,1B,00,79,
10414847,0110483C,true,Rx,0,8,08,E2,20,00,44,66,FC,52,
10415136,1B700030,true,Rx,0,8,2C,8E,22,00,00,C0,03,00,
10416662,0300410E,true,Rx,0,8,B7,E0,18,EF,87,E0,FC,00,
10416951,19E00006,true,Rx,0,8,00,00,18,E0,6D,00,40,00,
10424569,0100082C,true,Rx,0,8,0F,C0,8F,D8,66,1B,00,79,
10424846,0110483C,true,Rx,0,8,08,E2,A0,00,44,66,FC,52,
10426667,00800006,true,Rx,0,8,49,ED,0D,ED,41,ED,26,6E,
10426946,0090411E,true,Rx,0,8,02,00,E0,00,00,00,00,00,
10427237,0300410E,true,Rx,0,8,37,E0,98,EF,07,E0,6C,00,
10427528,03800006,true,Rx,0,8,30,00,00,00,00,00,00,00,
10434572,0100082C,true,Rx,0,8,0F,C0,8F,D8,66,1B,00,79,
10434849,0110483C,true,Rx,0,8,08,E2,20,00,44,66,FC,52,
10436680,0300410E,true,Rx,0,8,B7,E0,18,EF,87,E0,FC,00,
10436970,1B600002,true,Rx,0,8,00,80,00,40,00,1C,4C,00,
10444549,0100082C,true,Rx,0,8,0F,C0,8F,D8,66,1B,00,79,
10444825,0110483C,true,Rx,0,8,08,E2,20,00,44,66,FC,52,
10446688,00800006,true,Rx,0,8,81,ED,0D,ED,41,ED,26,6E,
10446977,0090411E,true,Rx,0,8,02,00,60,00,00,00,00,00,
10447258,0300410E,true,Rx,0,8,B7,E0,18,EF,87,E0,FC,00,
10447559,03800006,true,Rx,0,8,30,00,00,00,00,00,00,00,
10454592,0100082C,true,Rx,0,8,0F,C0,8F,D8,66,1B,00,79,
10454868,0110483C,true,Rx,0,8,08,E2,20,00,44,66,FC,52,
10456700,0300410E,true,Rx,0,8,37,E0,98,EF,07,E0,6C,00,
10464554,0100082C,true,Rx,0,8,0F,C0,8F,D8,66,1B,00,79,
10464830,0110483C,true,Rx,0,8,08,E2,20,00,44,66,FC,52,
10466703,00800006,true,Rx,0,8,C9,ED,0D,ED,41,ED,A6,6E,
10466984,0090411E,true,Rx,0,8,42,00,E0,00,00,00,00,00,
10467273,0300410E,true,Rx,0,8,B7,E0,18,EF,87,E0,FC,00,
10467574,03800006,true,Rx,0,8,30,00,00,00,00,00,00,00,
10467855,19E00006,true,Rx,0,8,00,00,18,C0,6D,00,40,00,
10474572,0100082C,true,Rx,0,8,0F,C0,8F,D8,66,1B,00,79,
10474849,0110483C,true,Rx,0,8,08,E2,A0,00,44,66,FC,52,
10476783,0300410E,true,Rx,0,8,B7,E0,18,EF,87,E0,FC,00,
10484563,0100082C,true,Rx,0,8,0F,C0,8F,D8,66,1B,00,79,
10484839,0110483C,true,Rx,0,8,08,E2,20,00,44,66,FC,52,
10486723,00800006,true,Rx,0,8,09,ED,0D,ED,41,ED,26,6E,
10487014,0090411E,true,Rx,0,8,02,00,E0,00,00,00,00,00,
10487293,0300410E,true,Rx,0,8,37,E0,98,EF,07,E0,6C,00,
10487594,03800006,true,Rx,0,8,30,00,00,00,00,00,00,00,
10494545,0100082C,true,Rx,0,8,0F,C0,8F,D8,66,1B,00,79,
10494832,0110483C,true,Rx,0,8,08,E2,20,00,44,66,FC,52,
10496746,0300410E,true,Rx,0,8,B7,E0,18,EF,87,E0,FC,00,
10499568,1BA0493C,true,Rx,0,8,06,02,01,07,04,01,02,01,
10499837,1BE0493C,true,Rx,0,8,02,4A,8B,00,40,04,19,24,
10504547,0100082C,true,Rx,0,8,0F,C0,8F,D8,66,1B,00,79,
10504834,0110483C,true,Rx,0,8,08,E2,20,00,44,66,FC,52,
10506747,00800006,true,Rx,0,8,41,ED,0D,ED,41,ED,A6,6E,
10507038,0090411E,true,Rx,0,8,C2,00,60,00,00,00,00,00,
10507319,0300410E,true,Rx,0,8,37,E0,18,EF,07,E0,6C,00,
10507618,03800006,true,Rx,0,8,70,00,00,00,00,00,00,00,
10514591,0100082C,true,Rx,0,8,0F,C0,8F,D8,66,1B,00,79,
10514867,0110483C,true,Rx,0,8,08,E2,20,00,44,66,FC,52,
10516760,0300410E,true,Rx,0,8,B7,E0,98,EF,87,E0,FC,00,
10517051,19E00006,true,Rx,0,8,00,00,18,E0,6D,00,40,00,
10519627,1A200020,true,Rx,0,8,4E,00,02,2D,00,00,02,2E,
10524561,0100082C,true,Rx,0,8,0F,C0,8F,D8,66,1B,00,79,
10524836,0110483C,true,Rx,0,8,08,E2,A0,00,44,66,FC,52,
10526761,00800006,true,Rx,0,8,89,ED,0D,ED,41,ED,26,6E,
10527051,0090411E,true,Rx,0,8,02,00,E0,00,00,00,00,00,
10527342,0300410E,true,Rx,0,8,B7,E0,18,EF,87,E0,FC,00,
10527633,03800006,true,Rx,0,8,30,00,00,00,00,00,00,00,
10534563,0100082C,true,Rx,0,8,0F,C0,8F,D8,66,1B,00,79,
10534838,0110483C,true,Rx,0,8,08,E2,20,00,44,66,FC,52,
10536774,0300410E,true,Rx,0,8,37,E0,18,EF,07,E0,6C,00,
10544555,0100082C,true,Rx,0,8,0F,C0,8F,D8,66,1B,00,79,
10544841,0110483C,true,Rx,0,8,08,E2,20,00,44,66,FC,52,
10546785,00800006,true,Rx,0,8,C9,ED,0D,ED,41,ED,26,6E,
10547066,0090411E,true,Rx,0,8,02,00,E0,00,00,00,00,00,
10547357,0300410E,true,Rx,0,8,B7,E0,98,EF,87,E0,FC,00,
10547648,03800006,true,Rx,0,8,30,00,00,00,00,00,00,00,
10554557,0100082C,true,Rx,0,8,0F,C0,8F,D8,66,1B,00,79,
10554832,0110483C,true,Rx,0,8,08,E2,20,00,44,66,FC,52,
10556860,0300410E,true,Rx,0,8,B7,E0,18,EF,87,E0,FC,00,
10564558,0100082C,true,Rx,0,8,0F,C0,8F,D8,66,1B,00,79,
10564833,0110483C,true,Rx,0,8,08,E2,20,00,44,66,FC,52,
10566812,00800006,true,Rx,0,8,01,ED,0D,ED,41,ED,A6,6E,
10567091,0090411E,true,Rx,0,8,42,00,60,00,00,00,00,00,
10567371,0300410E,true,Rx,0,8,37,E0,18,EF,07,E0,6C,00,
10567672,03800006,true,Rx,0,8,30,00,00,00,00,00,00,00,
10567962,19E00006,true,Rx,0,8,00,00,18,C0,6D,00,40,00,
10574597,0100082C,true,Rx,0,8,0F,C0,8F,D8,66,1B,00,79,
10574872,0110483C,true,Rx,0,8,08,E2,A0,00,44,66,FC,52,
10576818,0300410E,true,Rx,0,8,B7,E0,98,EF,87,E0,FC,00,
10584567,0100082C,true,Rx,0,8,0F,C0,8F,D8,66,1B,00,79,
10584852,0110483C,true,Rx,0,8,08,E2,20,00,44,66,FC,52,
10586818,00800006,true,Rx,0,8,49,ED,0D,ED,41,ED,26,6E,
10587108,0090411E,true,Rx,0,8,02,00,E0,00,00,00,00,00,
10587389,0300410E,true,Rx,0,8,37,E0,18,EF,07,E0,6C,00,
10587690,03800006,true,Rx,0,8,30,00,00,00,00,00,00,00,
10594550,0100082C,true,Rx,0,8,0F,C0,8F,D8,66,1B,00,79,
10594835,0110483C,true,Rx,0,8,08,E2,20,00,44,66,FC,52,
10596843,0300410E,true,Rx,0,8,B7,E0,18,EF,87,E0,FC,00,
10604550,0100082C,true,Rx,0,8,0F,C0,8F,D8,66,1B,00,79,
10604836,0110483C,true,Rx,0,8,08,E2,20,00,44,66,FC,52,
10606843,00800006,true,Rx,0,8,89,ED,0D,ED,41,ED,A6,6E,
10607133,0090411E,true,Rx,0,8,C2,00,E0,00,00,00,00,00,
10607413,0300410E,true,Rx,0,8,B7,E0,98,EF,87,E0,FC,00,
10607704,03800006,true,Rx,0,8,70,00,00,00,00,00,00,00,
10607994,1B600002,true,Rx,0,8,00,80,00,40,00,1C,4C,00,
10614558,0100082C,true,Rx,0,8,0F,C0,8F,D8,66,1B,00,79,
10614834,0110483C,true,Rx,0,8,08,E2,20,00,44,66,FC,52,
10616862,0300410E,true,Rx,0,8,37,E0,18,EF,07,E0,6C,00,
10617152,19E00006,true,Rx,0,8,00,00,18,E0,6D,00,40,00,
10624584,0100082C,true,Rx,0,8,0F,C0,8F,D8,66,1B,00,79,
10624869,0110483C,true,Rx,0,8,08,E2,A0,00,44,66,FC,52,
10625148,1AE0092C,true,Rx,0,8,40,00,22,E0,41,A0,00,00,
10625430,1B700030,true,Rx,0,8,2C,8E,22,00,00,C0,03,00,
10626874,00800006,true,Rx,0,8,C1,ED,0D,ED,41,ED,26,6E,
10627164,0090411E,true,Rx,0,8,02,00,60,00,00,00,00,00,
10627445,0300410E,true,Rx,0,8,B7,E0,18,EF,87,E0,FC,00,
10627746,03800006,true,Rx,0,8,30,00,00,00,00,00,00,00,
10634565,0100082C,true,Rx,0,8,0F,C0,8F,D8,66,1B,00,79,
10634840,0110483C,true,Rx,0,8,08,E2,20,00,44,66,FC,52,
10636940,0300410E,true,Rx,0,8,B7,E0,98,EF,87,E0,FC,00,
10644576,0100082C,true,Rx,0,8,0F,C0,8F,D8,66,1B,00,79,
10644861,0110483C,true,Rx,0,8,08,E2,20,00,44,66,FC,52,
10646879,00800006,true,Rx,0,8,09,ED,0D,ED,41,ED,26,6E,
10647169,0090411E,true,Rx,0,8,02,00,E0,00,00,00,00,00,
10647450,0300410E,true,Rx,0,8,37,E0,18,EF,07,E0,6C,00,
10647750,03800006,true,Rx,0,8,30,00,00,00,00,00,00,00,
10654557,0100082C,true,Rx,0,8,0F,C0,8F,D8,66,1B,00,79,
10654832,0110483C,true,Rx,0,8,08,E2,20,00,44,66,FC,52,
10656902,0300410E,true,Rx,0,8,B7,E0,18,EF,87,E0,FC,00,
10664557,0100082C,true,Rx,0,8,0F,C0,8F,D8,66,1B,00,79,
10664843,0110483C,true,Rx,0,8,08,E2,20,00,44,66,FC,52,
10666902,00800006,true,Rx,0,8,49,ED,0D,ED,41,ED,A6,6E,
10667191,0090411E,true,Rx,0,8,42,00,E0,00,00,00,00,00,
10667473,0300410E,true,Rx,0,8,37,E0,98,EF,07,E0,6C,00,
10667773,03800006,true,Rx,0,8,30,00,00,00,00,00,00,00,
10668052,19E00006,true,Rx,0,8,00,00,18,C0,6D,00,40,00,
10674564,0100082C,true,Rx,0,8,0F,C0,8F,D8,66,1B,00,79,
10674839,0110483C,true,Rx,0,8,08,E2,A0,00,44,66,FC,52,
10676918,0300410E,true,Rx,0,8,B7,E0,18,EF,87,E0,FC,00,
10684565,0100082C,true,Rx,0,8,0F,C0,8F,D8,66,1B,00,79,
10684850,0110483C,true,Rx,0,8,08,E2,20,00,44,66,FC,52,
10686919,00800006,true,Rx,0,8,81,ED,0D,ED,41,ED,26,6E,
10687219,0090411E,true,Rx,0,8,02,00,60,00,00,00,00,00,
10687501,0300410E,true,Rx,0,8,B7,E0,18,EF,87,E0,FC,00,
10687801,03800006,true,Rx,0,8,30,00,00,00,00,00,00,00,
10694587,0100082C,true,Rx,0,8,0F,C0,8F,D8,66,1B,00,79,
10694862,0110483C,true,Rx,0,8,08,E2,20,00,44,66,FC,52,
10696942,0300410E,true,Rx,0,8,37,E0,98,EF,07,E0,6C,00,
10704560,0100082C,true,Rx,0,8,0F,C0,8F,D8,66,1B,00,79,
10704835,0110483C,true,Rx,0,8,08,E2,20,00,44,66,FC,52,
10706935,00800006,true,Rx,0,8,C9,ED,0D,ED,41,ED,A6,6E,
10707225,0090411E,true,Rx,0,8,C2,00,E0,00,00,00,00,00,
10707517,0300410E,true,Rx,0,8,B7,E0,18,EF,87,E0,FC,00,
10707806,03800006,true,Rx,0,8,70,00,00,00,00,00,00,00,
10714552,0100082C,true,Rx,0,8,0F,C0,8F,D8,66,1B,00,79,
10714837,0110483C,true,Rx,0,8,08,E2,20,00,44,66,FC,52,
10717019,0300410E,true,Rx,0,8,B7,E0,18,EF,87,E0,FC,00,
10717309,19E00006,true,Rx,0,8,00,00,18,E0,6D,00,40,00,
10724566,0100082C,true,Rx,0,8,0F,C0,8F,D8,66,1B,00,79,
10724842,0110483C,true,Rx,0,8,08,E2,A0,00,44,66,FC,52,
10726962,00800006,true,Rx,0,8,09,ED,0D,ED,41,ED,26,6E,
10727252,0090411E,true,Rx,0,8,02,00,E0,00,00,00,00,00,
10727533,0300410E,true,Rx,0,8,37,E0,98,EF,07,E0,6C,00,
10727833,03800006,true,Rx,0,8,30,00,00,00,00,00,00,00,
10734559,0100082C,true,Rx,0,8,0F,C0,8F,D8,66,1B,00,79,
10734845,0110483C,true,Rx,0,8,08,E2,20,00,44,66,FC,52,
10736986,0300410E,true,Rx,0,8,B7,E0,18,EF,87,E0,FC,00,
10744570,0100082C,true,Rx,0,8,0F,C0,8F,D8,66,1B,00,79,
10744846,0110483C,true,Rx,0,8,08,E2,20,00,44,66,FC,52,
10746987,00800006,true,Rx,0,8,41,ED,0D,ED,41,ED,26,6E,
10747278,0090411E,true,Rx,0,8,02,00,60,00,00,00,00,00,
10747558,0300410E,true,Rx,0,8,37,E0,18,EF,07,E0,6C,00,
10747858,03800006,true,Rx,0,8,30,00,00,00,00,00,00,00,
10749646,1BA0493C,true,Rx,0,8,07,01,03,00,02,01,01,01,
10754580,0100082C,true,Rx,0,8,0F,C0,8F,D8,66,1B,00,79,
10754866,0110483C,true,Rx,0,8,08,E2,20,00,44,66,FC,52,
10756997,0300410E,true,Rx,0,8,B7,E0,98,EF,87,E0,FC,00,
10764601,0100082C,true,Rx,0,8,0F,C0,8F,D8,66,1B,00,7A,
10764887,0110483C,true,Rx,0,8,08,E2,20,00,44,66,FC,52,
10766997,00800006,true,Rx,0,8,89,ED,0D,ED,41,ED,A6,6E,
10767288,0090411E,true,Rx,0,8,42,00,E0,00,00,00,00,00,
10767569,0300410E,true,Rx,0,8,B7,E0,18,EF,87,E0,FC,00,
10767868,03800006,true,Rx,0,8,30,00,00,00,00,00,00,00,
10768149,19E00006,true,Rx,0,8,00,00,18,C0,6D,00,40,00,
10774566,0100082C,true,Rx,0,8,0F,C0,8F,D8,66,1B,00,7A,
10774842,0110483C,true,Rx,0,8,08,E2,A0,00,44,66,FC,52,
10777014,0300410E,true,Rx,0,8,37,E0,18,EF,07,E0,6C,00,
10777304,1B600002,true,Rx,0,8,00,80,00,40,00,1C,4C,00,
10784571,0100082C,true,Rx,0,8,0F,C0,8F,D8,66,1B,00,7A,
10784856,0110483C,true,Rx,0,8,08,E2,20,00,44,66,FC,52,
10787018,00800006,true,Rx,0,8,C9,ED,0D,ED,41,ED,26,6E,
10787309,0090411E,true,Rx,0,8,02,00,E0,00,00,00,00,00,
10787590,0300410E,true,Rx,0,8,B7,E0,98,EF,87,E0,FC,00,
10787889,03800006,true,Rx,0,8,30,00,00,00,00,00,00,00,
10794554,0100082C,true,Rx,0,8,0F,C0,8F,D8,66,1B,00,7A,
10794839,0110483C,true,Rx,0,8,08,E2,20,00,44,66,FC,52,
10797104,0300410E,true,Rx,0,8,B7,E0,18,EF,87,E0,FC,00,
10804555,0100082C,true,Rx,0,8,0F,C0,8F,D8,66,1B,00,7A,
10804840,0110483C,true,Rx,0,8,08,E2,20,00,44,66,FC,52,
10807043,00800006,true,Rx,0,8,01,ED,0D,ED,41,ED,A6,6E,
10807335,0090411E,true,Rx,0,8,C2,00,60,00,00,00,00,00,
10807614,0300410E,true,Rx,0,8,37,E0,18,EF,07,E0,6C,00,
10807914,03800006,true,Rx,0,8,70,00,00,00,00,00,00,00,
10814580,0100082C,true,Rx,0,8,0F,C0,8F,D8,66,1B,00,7A,
10814867,0110483C,true,Rx,0,8,08,E2,20,00,44,66,FC,52,
10817058,0300410E,true,Rx,0,8,B7,E0,98,EF,87,E0,FC,00,
10817350,19E00006,true,Rx,0,8,00,00,18,E0,6D,00,40,00,
10824566,0100082C,true,Rx,0,8,0F,C0,8F,D8,66,1B,00,7A,
10824842,0110483C,true,Rx,0,8,08,E2,A0,00,44,66,FC,52,
10827064,00800006,true,Rx,0,8,49,ED,0D,ED,41,ED,26,6E,
10827347,0090411E,true,Rx,0,8,02,00,E0,00,00,00,00,00,
10827626,0300410E,true,Rx,0,8,37,E0,18,EF,07,E0,6C,00,
10827927,03800006,true,Rx,0,8,30,00,00,00,00,00,00,00,
10834600,0100082C,true,Rx,0,8,0F,C0,8F,D8,66,1B,00,7A,
10834877,0110483C,true,Rx,0,8,08,E2,20,00,44,66,FC,52,
10835166,1A200020,true,Rx,0,8,8E,00,02,2D,00,00,02,2E,
10835447,1B700030,true,Rx,0,8,3C,8E,22,00,00,C0,03,00,
10837086,0300410E,true,Rx,0,8,B7,E0,18,EF,87,E0,FC,00,
10844557,0100082C,true,Rx,0,8,0F,C0,8F,D8,66,1B,00,7A,
10844834,0110483C,true,Rx,0,8,08,E2,20,00,44,66,FC,52,
10847087,00800006,true,Rx,0,8,89,ED,0D,ED,41,ED,26,6E,
10847369,0090411E,true,Rx,0,8,02,00,E0,00,00,00,00,00,
10847658,0300410E,true,Rx,0,8,B7,E0,98,EF,87,E0,FC,00,
10847949,03800006,true,Rx,0,8,30,00,00,00,00,00,00,00,
10854560,0100082C,true,Rx,0,8,0F,C0,8F,D8,66,1B,00,7A,
10854837,0110483C,true,Rx,0,8,08,E2,20,00,44,66,FC,52,
10857101,0300410E,true,Rx,0,8,37,E0,18,EF,07,E0,6C,00,
10864560,0100082C,true,Rx,0,8,0F,C0,8F,D8,66,1B,00,7A,
10864837,0110483C,true,Rx,0,8,08,E2,20,00,44,66,FC,52,
10867101,00800006,true,Rx,0,8,C1,ED,0D,ED,41,ED,A6,6E,
10867392,0090411E,true,Rx,0,8,42,00,60,00,00,00,00,00,
10867681,0300410E,true,Rx,0,8,B7,E0,18,EF,87,E0,FC,00,
10867972,03800006,true,Rx,0,8,30,00,00,00,00,00,00,00,
10868262,19E00006,true,Rx,0,8,00,00,18,C0,6D,00,40,00,
10874577,0100082C,true,Rx,0,8,0F,C0,8F,D8,66,1B,00,7A,
10874853,0110483C,true,Rx,0,8,08,E2,A0,00,44,66,FC,52,
10877179,0300410E,true,Rx,0,8,B7,E0,98,EF,87,E0,FC,00,
10884601,0100082C,true,Rx,0,8,0F,C0,8F,D8,66,1B,00,7A,
10884877,0110483C,true,Rx,0,8,08,E2,20,00,44,66,FC,52,
10887121,00800006,true,Rx,0,8,09,ED,0D,ED,41,ED,26,6E,
10887412,0090411E,true,Rx,0,8,02,00,E0,00,00,00,00,00,
10887691,0300410E,true,Rx,0,8,37,E0,18,EF,07,E0,6C,00,
10887992,03800006,true,Rx,0,8,30,00,00,00,00,00,00,00,
10894562,0100082C,true,Rx,0,8,0F,C0,8F,D8,66,1B,00,7A,
10894839,0110483C,true,Rx,0,8,08,E2,20,00,44,66,FC,52,
10897144,0300410E,true,Rx,0,8,B7,E0,18,EF,87,E0,FC,00,
10904563,0100082C,true,Rx,0,8,0F,C0,8F,D8,66,1B,00,7A,
10904850,0110483C,true,Rx,0,8,08,E2,20,00,44,66,FC,52,
10907145,00800006,true,Rx,0,8,49,ED,0D,ED,41,ED,A6,6E,
10907426,0090411E,true,Rx,0,8,C2,00,E0,00,00,00,00,00,
10907715,0300410E,true,Rx,0,8,37,E0,98,EF,07,E0,6C,00,
10908006,03800006,true,Rx,0,8,70,00,00,00,00,00,00,00,
10914566,0100082C,true,Rx,0,8,0F,C0,8F,D8,66,1B,00,7A,
10914842,0110483C,true,Rx,0,8,08,E2,20,00,44,66,FC,52,
10917158,0300410E,true,Rx,0,8,B7,E0,18,EF,87,E0,FC,00,
10917449,19E00006,true,Rx,0,8,00,00,18,E0,6D,00,40,00,
10924583,0100082C,true,Rx,0,8,0F,C0,8F,D8,66,1B,00,7A,
10924859,0110483C,true,Rx,0,8,08,E2,A0,00,44,66,FC,52,
10927165,00800006,true,Rx,0,8,81,ED,0D,ED,41,ED,26,6E,
10927456,0090411E,true,Rx,0,8,02,00,60,00,00,00,00,00,
10927745,0300410E,true,Rx,0,8,B7,E0,18,EF,87,E0,FC,00,
10928036,03800006,true,Rx,0,8,30,00,00,00,00,00,00,00,
10934564,0100082C,true,Rx,0,8,0F,C0,8F,D8,66,1B,00,7A,
10934851,0110483C,true,Rx,0,8,08,E2,20,00,44,66,FC,52,
10937177,0300410E,true,Rx,0,8,37,E0,98,EF,07,E0,6C,00,
10944564,0100082C,true,Rx,0,8,0F,C0,8F,D8,66,1B,00,7A,
10944841,0110483C,true,Rx,0,8,08,E2,20,00,44,66,FC,52,
10947177,00800006,true,Rx,0,8,C9,ED,0D,ED,41,ED,26,6E,
10947468,0090411E,true,Rx,0,8,02,00,E0,00,00,00,00,00,
10947759,0300410E,true,Rx,0,8,B7,E0,18,EF,87,E0,FC,00,
10948059,03800006,true,Rx,0,8,30,00,00,00,00,00,00,00,
10948339,1B600002,true,Rx,0,8,00,80,00,40,00,1C,4C,00,
10954560,0100082C,true,Rx,0,8,0F,C0,8F,D8,66,1B,00,7A,
10954847,0110483C,true,Rx,0,8,08,E2,20,00,44,66,FC,52,
10957265,0300410E,true,Rx,0,8,B7,E0,18,EF,87,E0,FC,00,
10964562,0100082C,true,Rx,0,8,0F,C0,8F,D8,66,1B,00,7A,
10964838,0110483C,true,Rx,0,8,08,E2,20,00,44,66,FC,52,
10967205,00800006,true,Rx,0,8,09,ED,0D,ED,41,ED,A6,6E,
10967486,0090411E,true,Rx,0,8,42,00,E0,00,00,00,00,00,
10967767,0300410E,true,Rx,0,8,37,E0,98,EF,07,E0,6C,00,
10968067,03800006,true,Rx,0,8,30,00,00,00,00,00,00,00,
10968357,19E00006,true,Rx,0,8,00,00,18,C0,6D,00,40,00,
10974569,0100082C,true,Rx,0,8,0F,C0,8F,D8,66,1B,00,7A,
10974845,0110483C,true,Rx,0,8,08,E2,A0,00,44,66,FC,52,
10977223,0300410E,true,Rx,0,8,B7,E0,18,EF,87,E0,FC,00,
10984580,0100082C,true,Rx,0,8,0F,C0,8F,D8,66,1B,00,7A,
10984856,0110483C,true,Rx,0,8,08,E2,20,00,44,66,FC,52,
10987223,00800006,true,Rx,0,8,41,ED,0D,ED,41,ED,26,6E,
10987514,0090411E,true,Rx,0,8,02,00,60,00,00,00,00,00,
10987795,0300410E,true,Rx,0,8,37,E0,18,EF,07,E0,6C,00,
10988095,03800006,true,Rx,0,8,30,00,00,00,00,00,00,00,
10994574,0100082C,true,Rx,0,8,0F,C0,8F,D8,66,1B,00,7A,
10994849,0110483C,true,Rx,0,8,08,E2,20,00,44,66,FC,52,
10997236,0300410E,true,Rx,0,8,B7,E0,98,EF,87,E0,FC,00,
10999595,1BA0493C,true,Rx,0,8,08,02,01,12,01,01,01,02,
11004571,0100082C,true,Rx,0,8,0F,C0,8F,D8,66,1B,00,7A,
11004846,0110483C,true,Rx,0,8,08,E4,20,00,44,66,FC,52,
11007234,00800006,true,Rx,0,8,89,ED,0D,ED,41,ED,A6,6E,
11007525,0090411E,true,Rx,0,8,C2,00,E0,00,00,00,00,00,
11007816,0300410E,true,Rx,0,8,B7,E0,18,EF,87,E0,FC,00,
11008106,03800006,true,Rx,0,8,70,00,00,00,00,00,00,00,
11014573,0100082C,true,Rx,0,8,0F,C0,8F,D8,66,1B,00,7A,
11014859,0110483C,true,Rx,0,8,08,E4,20,00,44,66,FC,52,
11017257,0300410E,true,Rx,0,8,37,E0,18,EF,07,E0,6C,00,
11017548,19E00006,true,Rx,0,8,00,00,18,E0,6D,00,40,00,
11024579,0100082C,true,Rx,0,8,0F,C0,8F,D8,66,1B,00,7A,
11024864,0110483C,true,Rx,0,8,08,E4,A0,00,44,66,FC,52,
11027264,00800006,true,Rx,0,8,C9,ED,0D,ED,41,ED,26,6E,
11027554,0090411E,true,Rx,0,8,02,00,E0,00,00,00,00,00,
11027835,0300410E,true,Rx,0,8,B7,E0,98,EF,87,E0,FC,00,
11028135,03800006,true,Rx,0,8,30,00,00,00,00,00,00,00,
11034572,0100082C,true,Rx,0,8,0F,C0,8F,D8,66,1B,00,7A,
11034858,0110483C,true,Rx,0,8,08,E4,20,00,44,66,FC,52,
11037276,0300410E,true,Rx,0,8,37,E0,18,EF,07,E0,6C,00,
11044594,0100082C,true,Rx,0,8,0F,C0,8F,D8,66,1B,00,7A,
11044870,0110483C,true,Rx,0,8,08,E4,20,00,44,66,FC,52,
11045159,1AE0092C,true,Rx,0,8,80,00,22,E0,41,A0,00,00,
11045441,1B700030,true,Rx,0,8,2C,8E,22,00,00,C0,03,00,
11047296,00800006,true,Rx,0,8,01,ED,0D,ED,41,ED,26,6E,
11047588,0090411E,true,Rx,0,8,02,00,60,00,00,00,00,00,
11047867,0300410E,true,Rx,0,8,B7,E0,18,EF,87,E0,FC,00,
11048167,03800006,true,Rx,0,8,30,00,00,00,00,00,00,00,
11054583,0100082C,true,Rx,0,8,0F,C0,8F,D8,66,1B,00,7A,
11054859,0110483C,true,Rx,0,8,08,E4,20,00,44,66,FC,52,
11057298,0300410E,true,Rx,0,8,B7,E0,98,EF,87,E0,FC,00,
11064565,0100082C,true,Rx,0,8,0F,C0,8F,D8,66,1B,00,7A,
11064851,0110483C,true,Rx,0,8,08,E4,20,00,44,66,FC,52,
11067300,00800006,true,Rx,0,8,49,ED,0D,ED,41,ED,A6,6E,
11067592,0090411E,true,Rx,0,8,42,00,E0,00,00,00,00,00,
11067871,0300410E,true,Rx,0,8,37,E0,18,EF,07,E0,6C,00,
11068171,03800006,true,Rx,0,8,30,00,00,00,00,00,00,00,
11068453,19E00006,true,Rx,0,8,00,00,18,C0,6D,00,40,00,
11074571,0100082C,true,Rx,0,8,0F,C0,8F,D8,66,1B,00,7A,
11074857,0110483C,true,Rx,0,8,08,E4,A0,00,44,66,FC,52,
11077318,0300410E,true,Rx,0,8,B7,E0,18,EF,87,E0,FC,00,
11084584,0100082C,true,Rx,0,8,0F,C0,8F,D8,66,1B,00,7A,
11084859,0110483C,true,Rx,0,8,08,E4,20,00,44,66,FC,52,
11087321,00800006,true,Rx,0,8,89,ED,0D,ED,41,ED,26,6E,
11087612,0090411E,true,Rx,0,8,02,00,E0,00,00,00,00,00,
11087891,0300410E,true,Rx,0,8,B7,E0,98,EF,87,E0,FC,00,
11088191,03800006,true,Rx,0,8,30,00,00,00,00,00,00,00,
11094566,0100082C,true,Rx,0,8,0F,C0,8F,D8,66,1B,00,7A,
11094842,0110483C,true,Rx,0,8,08,E4,20,00,44,66,FC,52,
11097334,0300410E,true,Rx,0,8,37,E0,18,EF,07,E0,6C,00,
11104578,0100082C,true,Rx,0,8,0F,C0,8F,D8,66,1B,00,7A,
11104853,0110483C,true,Rx,0,8,08,E4,20,00,44,66,FC,52,
11107344,00800006,true,Rx,0,8,C1,ED,0D,ED,41,ED,A6,6E,
11107635,0090411E,true,Rx,0,8,C2,00,60,00,00,00,00,00,
11107914,0300410E,true,Rx,0,8,B7,E0,18,EF,87,E0,FC,00,
11108214,03800006,true,Rx,0,8,70,00,00,00,00,00,00,00,
11114581,0100082C,true,Rx,0,8,0F,C0,8F,D8,66,1B,00,7A,
11114866,0110483C,true,Rx,0,8,08,E4,20,00,44,66,FC,52,
11117399,0300410E,true,Rx,0,8,B7,E0,98,EF,87,E0,FC,00,
11117690,19E00006,true,Rx,0,8,00,00,18,E0,6D,00,40,00,
11117980,1B600002,true,Rx,0,8,00,80,00,40,00,1C,4C,00,
11124610,0100082C,true,Rx,0,8,0F,C0,8F,D8,66,1B,00,7A,
11124896,0110483C,true,Rx,0,8,08,E4,A0,00,44,66,FC,52,
11127357,00800006,true,Rx,0,8,09,ED,0D,ED,41,ED,26,6E,
11127648,0090411E,true,Rx,0,8,02,00,E0,00,00,00,00,00,
11127927,0300410E,true,Rx,0,8,37,E0,18,EF,07,E0,6C,00,
11128228,03800006,true,Rx,0,8,30,00,00,00,00,00,00,00,
11134573,0100082C,true,Rx,0,8,0F,C0,8F,D8,66,1B,00,7A,
11134858,0110483C,true,Rx,0,8,08,E4,20,00,44,66,FC,52,
11137381,0300410E,true,Rx,0,8,B7,E0,18,EF,87,E0,FC,00,
11144573,0100082C,true,Rx,0,8,0F,C0,8F,D8,66,1B,00,7A,
11144858,0110483C,true,Rx,0,8,08,E4,20,00,44,66,FC,52,
11147381,00800006,true,Rx,0,8,49,ED,0D,ED,41,ED,26,6E,
11147672,0090411E,true,Rx,0,8,02,00,E0,00,00,00,00,00,
11147951,0300410E,true,Rx,0,8,37,E0,98,EF,07,E0,6C,00,
11148252,03800006,true,Rx,0,8,30,00,00,00,00,00,00,00,
11149688,1A200020,true,Rx,0,8,CE,00,02,2D,00,00,02,2E,
11154572,0100082C,true,Rx,0,8,0F,C0,8F,D8,66,1B,00,7A,
11154848,0110483C,true,Rx,0,8,08,E4,20,00,44,66,FC,52,
11157402,0300410E,true,Rx,0,8,B7,E0,18,EF,87,E0,FC,00,
11164573,0100082C,true,Rx,0,8,0F,C0,8F,D8,66,1B,00,7A,
11164848,0110483C,true,Rx,0,8,08,E4,20,00,44,66,FC,52,
11167402,00800006,true,Rx,0,8,81,ED,0D,ED,41,ED,A6,6E,
11167692,0090411E,true,Rx,0,8,42,00,60,00,00,00,00,00,
11167982,0300410E,true,Rx,0,8,B7,E0,18,EF,87,E0,FC,00,
11168272,03800006,true,Rx,0,8,30,00,00,00,00,00,00,00,
11168563,19E00006,true,Rx,0,8,00,00,18,C0,6D,00,40,00,
11174591,0100082C,true,Rx,0,8,0F,C0,8F,D8,66,1B,00,7A,
11174866,0110483C,true,Rx,0,8,08,E4,A0,00,44,66,FC,52,
11177420,0300410E,true,Rx,0,8,37,E0,98,EF,07,E0,6C,00,
11184591,0100082C,true,Rx,0,8,0F,C0,8F,D8,66,1B,00,7A,
11184866,0110483C,true,Rx,0,8,08,E4,20,00,44,66,FC,52,
11187421,00800006,true,Rx,0,8,C9,ED,0D,ED,41,ED,26,6E,
11187710,0090411E,true,Rx,0,8,02,00,E0,00,00,00,00,00,
11188000,0300410E,true,Rx,0,8,B7,E0,18,EF,87,E0,FC,00,
11188291,03800006,true,Rx,0,8,30,00,00,00,00,00,00,00,
11194582,0100082C,true,Rx,0,8,0F,C0,8F,D8,66,1B,00,7A,
11194858,0110483C,true,Rx,0,8,08,E4,20,00,44,66,FC,52,
11197443,0300410E,true,Rx,0,8,B7,E0,18,EF,87,E0,FC,00,
11204573,0100082C,true,Rx,0,8,0F,C0,8F,D8,66,1B,00,7A,
11204859,0110483C,true,Rx,0,8,08,E4,20,00,44,66,FC,52,
11207446,00800006,true,Rx,0,8,09,ED,0D,ED,41,ED,A6,6E,
11207735,0090411E,true,Rx,0,8,C2,00,E0,00,00,00,00,00,
11208015,0300410E,true,Rx,0,8,37,E0,98,EF,07,E0,6C,00,
11208306,03800006,true,Rx,0,8,70,00,00,00,00,00,00,00,
11214570,0100082C,true,Rx,0,8,0F,C0,8F,D8,66,1B,00,7A,
11214845,0110483C,true,Rx,0,8,08,E4,20,00,44,66,FC,52,
11217461,0300410E,true,Rx,0,8,B7,E0,18,EF,87,E0,FC,00,
11217751,19E00006,true,Rx,0,8,00,00,18,E0,6D,00,40,00,
11224576,0100082C,true,Rx,0,8,0F,C0,8F,D8,66,1B,00,7A,
11224851,0110483C,true,Rx,0,8,08,E4,A0,00,44,66,FC,52,
11227467,00800006,true,Rx,0,8,41,ED,0D,ED,41,ED,26,6E,
11227757,0090411E,true,Rx,0,8,02,00,60,00,00,00,00,00,
11228036,0300410E,true,Rx,0,8,37,E0,18,EF,07,E0,6C,00,
11228338,03800006,true,Rx,0,8,30,00,00,00,00,00,00,00,
11234578,0100082C,true,Rx,0,8,0F,C0,8F,D8,66,1B,00,7A,
11234853,0110483C,true,Rx,0,8,08,E4,20,00,44,66,FC,52,
11237480,0300410E,true,Rx,0,8,B7,E0,98,EF,87,E0,FC,00,
11244599,0100082C,true,Rx,0,8,0F,C0,8F,D8,66,1B,00,7A,
11244874,0110483C,true,Rx,0,8,08,E4,20,00,44,66,FC,52,
11247480,00800006,true,Rx,0,8,89,ED,0D,ED,41,ED,26,6E,
11247770,0090411E,true,Rx,0,8,02,00,E0,00,00,00,00,00,
11248060,0300410E,true,Rx,0,8,B7,E0,18,EF,87,E0,FC,00,
11248351,03800006,true,Rx,0,8,30,00,00,00,00,00,00,00,
11249705,1BA0493C,true,Rx,0,8,09,00,00,01,01,01,01,01,
11249984,1BE0493C,true,Rx,0,8,01,00,2A,6D,E2,71,02,04,
11254592,0100082C,true,Rx,0,8,0F,C0,8F,D8,66,1B,00,7A,
11254867,0110483C,true,Rx,0,8,08,E4,20,00,44,66,FC,52,
11255158,1B700030,true,Rx,0,8,3C,8E,22,00,00,C0,03,00,
11257497,0300410E,true,Rx,0,8,37,E0,18,EF,07,E0,6C,00,
11264575,0100082C,true,Rx,0,8,0F,C0,8F,D8,66,1B,00,7A,
11264861,0110483C,true,Rx,0,8,08,E4,20,00,44,66,FC,52,
11267498,00800006,true,Rx,0,8,C9,ED,0D,ED,41,ED,A6,6E,
11267787,0090411E,true,Rx,0,8,42,00,E0,00,00,00,00,00,
11268068,0300410E,true,Rx,0,8,B7,E0,98,EF,87,E0,FC,00,
11268369,03800006,true,Rx,0,8,30,00,00,00,00,00,00,00,
11268651,19E00006,true,Rx,0,8,00,00,18,C0,6D,00,40,00,
11274595,0100082C,true,Rx,0,8,0F,C0,8F,D8,66,1B,00,7A,
11274870,0110483C,true,Rx,0,8,08,E4,A0,00,44,66,FC,52,
11277517,0300410E,true,Rx,0,8,B7,E0,18,EF,87,E0,FC,00,
11284595,0100082C,true,Rx,0,8,0F,C0,8F,D8,66,1B,00,7A,
11284870,0110483C,true,Rx,0,8,08,E4,20,00,44,66,FC,52,
11287528,00800006,true,Rx,0,8,01,ED,0D,ED,41,ED,26,6E,
11287817,0090411E,true,Rx,0,8,02,00,60,00,00,00,00,00,
11288098,0300410E,true,Rx,0,8,37,E0,18,EF,07,E0,6C,00,
11288399,03800006,true,Rx,0,8,30,00,00,00,00,00,00,00,
11288680,1B600002,true,Rx,0,8,00,80,00,5C,00,1C,4C,00,
11294594,0100082C,true,Rx,0,8,0F,C0,8F,D8,66,1B,00,7A,
11294881,0110483C,true,Rx,0,8,08,E4,20,00,44,66,FC,52,
11297538,0300410E,true,Rx,0,8,B7,E0,98,EF,87,E0,FC,00,
11304585,0100082C,true,Rx,0,8,0F,C0,8F,D8,66,1B,00,7A,
11304861,0110483C,true,Rx,0,8,08,E4,20,00,44,66,FC,52,
11307538,00800006,true,Rx,0,8,49,ED,0D,ED,41,ED,A6,6E,
11307828,0090411E,true,Rx,0,8,C2,00,E0,00,00,00,00,00,
11308108,0300410E,true,Rx,0,8,37,E0,18,EF,07,E0,6C,00,
11308409,03800006,true,Rx,0,8,70,00,00,00,00,00,00,00,
11314568,0100082C,true,Rx,0,8,0F,C0,8F,D8,66,1B,00,7A,
11314855,0110483C,true,Rx,0,8,08,E4,20,00,44,66,FC,52,
11317562,0300410E,true,Rx,0,8,B7,E0,18,EF,87,E0,FC,00,
11317852,19E00006,true,Rx,0,8,00,00,18,E0,6D,00,40,00,
11324583,0100082C,true,Rx,0,8,0F,C0,8F,D8,66,1B,00,7A,
11324860,0110483C,true,Rx,0,8,08,E4,A0,00,44,66,FC,52,
11327558,00800006,true,Rx,0,8,89,ED,0D,ED,41,ED,26,6E,
11327847,0090411E,true,Rx,0,8,02,00,E0,00,00,00,00,00,
11328128,0300410E,true,Rx,0,8,B7,E0,98,EF,87,E0,FC,00,
11328429,03800006,true,Rx,0,8,30,00,00,00,00,00,00,00,
11334576,0100082C,true,Rx,0,8,0F,C0,8F,D8,66,1B,00,7A,
11334863,0110483C,true,Rx,0,8,08,E4,20,00,44,66,FC,52,
11337581,0300410E,true,Rx,0,8,37,E0,18,EF,07,E0,6C,00,
11344577,0100082C,true,Rx,0,8,0F,C0,8F,D8,66,1B,00,7A,
11344863,0110483C,true,Rx,0,8,08,E4,20,00,44,66,FC,52,
11347581,00800006,true,Rx,0,8,C1,ED,0D,ED,41,ED,26,6E,
11347872,0090411E,true,Rx,0,8,02,00,60,00,00,00,00,00,
11348161,0300410E,true,Rx,0,8,B7,E0,18,EF,87,E0,FC,00,
11348452,03800006,true,Rx,0,8,30,00,00,00,00,00,00,00,
11354589,0100082C,true,Rx,0,8,0F,C0,8F,D8,66,1B,00,7A,
11354865,0110483C,true,Rx,0,8,08,E4,20,00,44,66,FC,52,
11357656,0300410E,true,Rx,0,8,B7,E0,98,EF,87,E0,FC,00,
11364590,0100082C,true,Rx,0,8,0F,C0,8F,D8,66,1B,00,7A,
11364867,0110483C,true,Rx,0,8,08,E4,20,00,44,66,FC,52,
11367605,00800006,true,Rx,0,8,09,ED,0D,ED,41,ED,A6,6E,
11367886,0090411E,true,Rx,0,8,42,00,E0,00,00,00,00,00,
11368175,0300410E,true,Rx,0,8,37,E0,18,EF,07,E0,6C,00,
11368466,03800006,true,Rx,0,8,30,00,00,00,00,00,00,00,
11368749,19E00006,true,Rx,0,8,00,00,18,C0,6D,00,40,00,
11374631,0100082C,true,Rx,0,8,0F,C0,8F,D8,66,1B,00,7A,
11374918,0110483C,true,Rx,0,8,08,E4,A0,00,44,66,FC,52,
11377615,0300410E,true,Rx,0,8,B7,E0,18,EF,87,E0,FC,00,
11384601,0100082C,true,Rx,0,8,0F,C0,8F,D8,66,1B,00,7A,
11384877,0110483C,true,Rx,0,8,08,E4,20,00,44,66,FC,52,
11387626,00800006,true,Rx,0,8,49,ED,0D,ED,41,ED,26,6E,
11387906,0090411E,true,Rx,0,8,02,00,E0,00,00,00,00,00,
11388196,0300410E,true,Rx,0,8,37,E0,98,EF,07,E0,6C,00,
11388486,03800006,true,Rx,0,8,30,00,00,00,00,00,00,00,
11394572,0100082C,true,Rx,0,8,0F,C0,8F,D8,66,1B,00,7A,
11394848,0110483C,true,Rx,0,8,08,E4,20,00,44,66,FC,52,
11397638,0300410E,true,Rx,0,8,B7,E0,18,EF,87,E0,FC,00,
11404585,0100082C,true,Rx,0,8,0F,C0,8F,D8,66,1B,00,7A,
11404861,0110483C,true,Rx,0,8,08,E4,20,00,44,66,FC,52,
11407641,00800006,true,Rx,0,8,81,ED,0D,ED,41,ED,A6,6E,
11407931,0090411E,true,Rx,0,8,C2,00,60,00,00,00,00,00,
11408221,0300410E,true,Rx,0,8,B7,E0,18,EF,87,E0,FC,00,
11408512,03800006,true,Rx,0,8,70,00,00,00,00,00,00,00,
11414587,0100082C,true,Rx,0,8,0F,C0,8F,D8,66,1B,00,7A,
11414864,0110483C,true,Rx,0,8,08,E4,20,00,44,66,FC,52,
11417653,0300410E,true,Rx,0,8,37,E0,98,EF,07,E0,6C,00,
11417944,19E00006,true,Rx,0,8,00,00,18,E0,6D,00,40,00,
11424582,0100082C,true,Rx,0,8,0F,C0,8F,D8,66,1B,00,7A,
11424859,0110483C,true,Rx,0,8,08,E4,A0,00,44,66,FC,52,
11427659,00800006,true,Rx,0,8,C9,ED,0D,ED,41,ED,26,6E,
11427950,0090411E,true,Rx,0,8,02,00,E0,00,00,00,00,00,
11428229,0300410E,true,Rx,0,8,B7,E0,18,EF,87,E0,FC,00,
11428531,03800006,true,Rx,0,8,30,00,00,00,00,00,00,00,
11434585,0100082C,true,Rx,0,8,0F,C0,8F,D8,66,1B,00,7A,
11434861,0110483C,true,Rx,0,8,08,E4,20,00,44,66,FC,52,
11437734,0300410E,true,Rx,0,8,B7,E0,18,EF,87,E0,FC,00,
11444575,0100082C,true,Rx,0,8,0F,C0,8F,D8,66,1B,00,7A,
11444851,0110483C,true,Rx,0,8,08,E4,20,00,44,66,FC,52,
11447682,00800006,true,Rx,0,8,09,ED,0D,ED,41,ED,26,6E,
11447962,0090411E,true,Rx,0,8,02,00,E0,00,00,00,00,00,
11448252,0300410E,true,Rx,0,8,37,E0,98,EF,07,E0,6C,00,
11448544,03800006,true,Rx,0,8,30,00,00,00,00,00,00,00,
11454599,0100082C,true,Rx,0,8,0F,C0,8F,D8,66,1B,00,7A,
11454875,0110483C,true,Rx,0,8,08,E6,2A,00,44,66,FC,52,
11457697,0300410E,true,Rx,0,8,B7,E0,18,EF,87,E0,FC,00,
11457986,1B600002,true,Rx,0,8,00,80,00,4C,00,1C,4C,00,
11464635,0100082C,true,Rx,0,8,0F,C0,8F,D8,66,1B,00,7A,
11464911,0110483C,true,Rx,0,8,08,E6,2A,00,44,66,FC,52,
11465190,1A200020,true,Rx,0,8,0E,00,02,2D,00,00,02,2E,
11465482,1AE0092C,true,Rx,0,8,C0,00,22,E0,41,A0,00,00,
11465761,1B700030,true,Rx,0,8,2C,8E,22,00,00,C0,03,00,
11467715,00800006,true,Rx,0,8,41,ED,0D,ED,41,ED,A6,6E,
11468004,0090411E,true,Rx,0,8,42,00,60,00,00,00,00,00,
11468284,0300410E,true,Rx,0,8,37,E0,18,EF,07,E0,6C,00,
11468586,03800006,true,Rx,0,8,30,00,00,00,00,00,00,00,
11468868,19E00006,true,Rx,0,8,00,00,18,C0,6D,00,40,00,
11474637,0100082C,true,Rx,0,8,0F,C8,8F,D8,24,00,00,7A,
11474923,0110483C,true,Rx,0,8,08,E6,AA,00,44,66,FC,52,
11477714,0300410E,true,Rx,0,8,B7,E0,98,EF,87,E0,FC,00,
11484627,0100082C,true,Rx,0,8,0F,C8,8F,D8,24,00,00,7A,
11484902,0110483C,true,Rx,0,8,08,E6,2A,00,44,66,FC,52,
11487755,00800006,true,Rx,0,8,89,ED,0D,ED,41,ED,26,6E,
11488034,0090411E,true,Rx,0,8,02,00,E0,00,00,00,00,00,
11488325,0300410E,true,Rx,0,8,37,E0,18,EF,07,E0,6C,00,
11488616,03800006,true,Rx,0,8,30,00,00,00,00,00,00,00,
11494577,0100082C,true,Rx,0,8,0F,C8,8F,D8,24,00,00,7A,
11494863,0110483C,true,Rx,0,8,08,E6,2A,00,44,66,FC,52,
11497736,0300410E,true,Rx,0,8,B7,E0,18,EF,87,E0,FC,00,
11499599,1BA0493C,true,Rx,0,8,0A,01,01,01,01,02,06,01,
11499888,1BE0493C,true,Rx,0,8,05,00,00,00,00,00,07,8F,
11504620,0100082C,true,Rx,0,8,0F,C8,8F,D8,24,00,00,7A,
11504895,0110483C,true,Rx,0,8,08,E6,2A,00,44,66,FC,52,
11507739,00800006,true,Rx,0,8,C9,ED,0D,ED,41,ED,A6,6E,
11508028,0090411E,true,Rx,0,8,C2,00,E0,00,00,00,00,00,
11508308,0300410E,true,Rx,0,8,B7,E0,98,EF,87,E0,FC,00,
11508610,03800006,true,Rx,0,8,70,00,00,00,00,00,00,00,
11509439,01C04026,true,Rx,0,8,80,00,80,00,80,00,80,00,
11509718,02000026,true,Rx,0,8,7F,34,00,CC,4E,00,E0,AC,
11510009,02104136,true,Rx,0,8,BB,00,3F,FF,07,E0,00,00,
11510288,02804026,true,Rx,0,8,B7,FF,77,FF,F2,00,1E,0A,
11510579,02C00020,true,Rx,0,8,00,00,00,00,00,00,00,00,
11510874,19A00002,true,Rx,0,8,12,00,00,00,00,00,00,07,
11514768,0100082C,true,Rx,0,8,0F,C8,8F,D8,76,18,00,7A,
11515053,0110483C,true,Rx,0,8,08,E6,2A,00,44,66,FC,52,
11517875,0300410E,true,Rx,0,8,37,E0,18,EF,07,E0,6C,00,
11518164,19E00006,true,Rx,0,8,00,00,18,E0,6D,00,40,00,
11523395,01C04026,true,Rx,0,8,80,00,80,00,80,00,80,00,
11523670,02000026,true,Rx,0,8,7F,34,00,CC,4E,00,E0,AC,
11523961,02104136,true,Rx,0,8,BB,00,3F,FF,07,E0,00,00,
11524240,02804026,true,Rx,0,8,B7,FF,77,FF,F2,00,1E,0A,
11524533,02C00020,true,Rx,0,8,00,00,00,00,00,00,00,00,
11524812,0100082C,true,Rx,0,8,0F,C8,8F,D8,66,18,00,7A,
11525092,0110483C,true,Rx,0,8,08,E6,AA,00,44,66,FC,52,
11525384,0340412E,true,Rx,0,8,00,00,00,00,00,00,00,00,
11525682,19000026,true,Rx,0,8,00,00,00,00,00,00,00,00,
11527803,00800006,true,Rx,0,8,01,ED,0D,ED,41,ED,26,6E,
11528092,0090411E,true,Rx,0,8,02,00,60,00,00,00,00,00,
11528374,0300410E,true,Rx,0,8,B7,E0,18,EF,87,E0,FC,00,
11528674,03800006,true,Rx,0,8,30,00,00,00,00,00,00,00,
11534591,0100082C,true,Rx,0,8,0F,C8,8F,D8,66,18,00,7A,
11534877,0110483C,true,Rx,0,8,08,E6,2A,00,44,66,FC,52,
11535166,0340412E,true,Rx,0,8,00,00,00,00,00,00,00,00,
11537444,01C04026,true,Rx,0,8,80,00,80,00,80,00,80,00,
11537725,02000026,true,Rx,0,8,7F,34,00,CC,4E,00,E0,AC,
11538015,02104136,true,Rx,0,8,BB,00,3F,FF,07,E0,00,00,
11538294,02804026,true,Rx,0,8,B7,FF,77,FF,F2,00,1E,0A,
11538586,02C00020,true,Rx,0,8,00,00,00,00,00,00,00,00,
11538870,0300410E,true,Rx,0,8,F7,E0,98,EF,87,E0,FC,00,
11539161,19A00002,true,Rx,0,8,6E,00,00,00,00,00,00,F7,
11539894,19000026,true,Rx,0,8,00,00,00,00,00,00,04,00,
11544710,0100082C,true,Rx,0,8,0F,C8,8F,D8,66,18,00,7A,
11544995,0110483C,true,Rx,0,8,08,E6,2A,00,44,66,FC,52,
11545276,0340412E,true,Rx,0,8,50,80,00,FD,80,00,00,00,
11547780,00800006,true,Rx,0,8,49,ED,0D,ED,41,ED,26,6E,
11548070,0090411E,true,Rx,0,8,02,00,E0,00,00,00,00,00,
11548352,0300410E,true,Rx,0,8,37,E0,18,EF,07,E0,6C,00,
11548652,03800006,true,Rx,0,8,30,00,00,00,00,00,00,00,
11551464,01C04026,true,Rx,0,8,80,00,80,00,80,00,80,00,
11551749,02000026,true,Rx,0,8,7F,34,00,CC,4E,00,E0,AC,
11552028,02104136,true,Rx,0,8,BB,00,3F,FF,07,E0,00,00,
11552320,02804026,true,Rx,0,8,B7,FF,77,FF,F2,00,1E,0C,
11552610,02C00020,true,Rx,0,8,00,01,00,00,00,02,75,81,
11554737,0100082C,true,Rx,0,8,0F,C8,8F,D8,66,18,00,7A,
11555016,0110483C,true,Rx,0,8,08,E6,2A,00,44,66,FC,52,
11555297,0340412E,true,Rx,0,8,71,80,00,ED,80,00,00,00,
11555588,19000026,true,Rx,0,8,00,00,00,00,38,13,04,00,
11557812,0300410E,true,Rx,0,8,B7,E0,18,EF,87,E0,FC,00,
11564588,0100082C,true,Rx,0,8,0F,C8,8F,D8,66,18,00,7A,
11564873,0110483C,true,Rx,0,8,08,E6,6A,00,44,66,FC,52,
11565153,0340412E,true,Rx,0,8,72,80,00,DD,80,00,00,00,
11565445,01C04026,true,Rx,0,8,80,00,80,00,80,00,80,00,
11565724,02000026,true,Rx,0,8,7F,34,00,CC,4E,00,E0,AC,
11566004,02104136,true,Rx,0,8,BB,00,3F,FF,07,E0,00,00,
11566294,02804026,true,Rx,0,8,B7,FF,77,FF,F2,00,1E,0C,
11566585,02C00020,true,Rx,0,8,00,00,00,00,00,02,75,81,
11566874,19A00002,true,Rx,0,8,12,00,00,00,00,00,00,F7,
11567823,00800006,true,Rx,0,8,89,ED,0D,ED,41,ED,A6,6E,
11568113,0090411E,true,Rx,0,8,42,00,E0,00,00,00,00,00,
11568395,0300410E,true,Rx,0,8,B7,E0,98,EF,87,E0,FC,00,
11568676,03800006,true,Rx,0,8,34,00,A1,3D,47,DC,03,32,
11568966,19E00006,true,Rx,0,8,00,00,18,C0,6D,00,40,00,
11569886,19000026,true,Rx,0,8,00,00,01,40,38,11,84,00,
11574692,0100082C,true,Rx,0,8,0F,C8,8F,D8,66,18,00,7A,
11574977,0110483C,true,Rx,0,8,08,E6,EA,00,44,66,FC,52,
11575258,0340412E,true,Rx,0,8,73,80,00,CD,80,00,00,00,
11577814,0300410E,true,Rx,0,8,37,E0,18,EF,07,E0,6C,00,
11579636,01C04026,true,Rx,0,8,80,00,80,00,80,00,80,00,
11579906,02000026,true,Rx,0,8,7F,34,00,CC,4E,00,E0,AC,
11580195,02104136,true,Rx,0,8,BB,00,3F,FF,07,E0,00,00,
11580476,02804026,true,Rx,0,8,37,FF,77,FF,F2,00,0E,0C,
11580781,02C00020,true,Rx,0,8,00,00,00,00,00,02,75,81,
11584735,0100082C,true,Rx,0,8,0F,C0,89,B4,E6,18,00,7A,
11585010,0110483C,true,Rx,0,8,08,E6,6A,00,44,66,FC,52,
11585291,0340412E,true,Rx,0,8,74,80,00,BD,80,00,00,00,
11585582,19000026,true,Rx,0,8,00,00,01,40,38,11,84,00,
11587830,00800006,true,Rx,0,8,C1,ED,0D,ED,41,ED,26,6E,
11588119,0090411E,true,Rx,0,8,02,00,60,00,00,00,00,00,
11588401,0300410E,true,Rx,0,8,B7,E0,18,EF,87,E0,FC,00,
11588691,03800006,true,Rx,0,8,30,00,A1,3D,47,DC,03,32,
11593605,01C04026,true,Rx,0,8,80,00,80,00,80,00,80,00,
11593892,02000026,true,Rx,0,8,7F,34,00,DC,4E,00,E0,AC,
11594171,02104136,true,Rx,0,8,BB,00,3F,FF,07,E0,00,00,
11594463,02804026,true,Rx,0,8,37,FF,77,FF,F2,00,0E,0C,
11594742,0100082C,true,Rx,0,8,0F,C0,89,B4,66,18,00,7A,
11595022,0110483C,true,Rx,0,8,08,E6,6A,00,44,66,FC,52,
11595312,02C00020,true,Rx,0,8,00,00,00,00,00,02,75,81,
11595593,0340412E,true,Rx,0,8,75,80,00,AD,80,00,00,00,
11595881,19A00002,true,Rx,0,8,02,00,00,00,00,00,00,F7,
11596430,1B200002,true,Rx,0,8,00,00,00,00,00,00,04,51,
11597934,0300410E,true,Rx,0,8,37,E0,98,EF,07,E0,6C,00,
11599900,19000026,true,Rx,0,8,00,00,01,40,38,11,84,00,
11604736,0100082C,true,Rx,0,8,0F,C0,89,B4,76,18,00,7A,
11605011,0110483C,true,Rx,0,8,08,E6,6A,00,44,66,FC,52,
11605292,0340412E,true,Rx,0,8,76,80,00,9D,80,00,00,00,
11607642,01C04026,true,Rx,0,8,80,00,80,00,80,00,80,00,
11607921,00800006,true,Rx,0,8,09,ED,0D,ED,41,ED,BE,6E,
11608212,0090411E,true,Rx,0,8,C2,00,E0,00,00,00,00,00,
11608493,02000026,true,Rx,0,8,7F,34,00,DC,4E,00,E0,AC,
11608772,02104136,true,Rx,0,8,BB,00,3F,FF,07,E0,00,00,
11609057,02804026,true,Rx,0,8,37,FF,77,FF,F2,00,0E,0C,
11609348,02C00020,true,Rx,0,8,00,00,00,00,00,02,75,81,
11609637,0300410E,true,Rx,0,8,B7,E0,18,EF,87,E0,FC,00,
11609918,03800006,true,Rx,0,8,70,00,A1,3D,47,DC,03,32,
11614674,0100082C,true,Rx,0,8,0F,C0,89,B4,66,18,00,7A,
11614949,0110483C,true,Rx,0,8,08,E6,6A,00,44,66,FC,52,
11615240,0340412E,true,Rx,0,8,77,80,00,8D,80,00,00,00,
11615521,19000026,true,Rx,0,8,00,00,01,40,38,11,84,00,
11617862,0300410E,true,Rx,0,8,B8,B4,18,EF,87,E0,FC,00,
11618152,19E00006,true,Rx,0,8,00,00,18,E0,6D,00,40,00,
11621641,01C04026,true,Rx,0,8,80,00,80,00,80,00,80,00,
11621916,02000026,true,Rx,0,8,7F,34,00,DC,4E,00,E0,AC,
11622207,02104136,true,Rx,0,8,BB,00,3F,FF,07,E0,00,00,
11622487,02804026,true,Rx,0,8,37,FF,77,FF,F2,00,0E,0C,
11622777,02C00020,true,Rx,0,8,00,00,00,00,00,02,75,81,
11623068,19A00002,true,Rx,0,8,12,00,00,00,00,00,00,F7,
11624754,0100082C,true,Rx,0,8,0F,C0,89,B4,66,18,00,7A,
11625033,0110483C,true,Rx,0,8,08,E6,EA,00,44,66,FC,52,
11625325,0340412E,true,Rx,0,8,78,80,00,7D,80,00,00,00,
11627872,00800006,true,Rx,0,8,49,ED,0E,6C,41,ED,2E,6E,
11628158,0090411E,true,Rx,0,8,02,00,E0,00,00,00,00,00,
11628440,0300410E,true,Rx,0,8,38,B4,98,EF,07,E0,6C,00,
11628719,03800006,true,Rx,0,8,38,00,A1,3D,47,DC,03,32,
11628999,1B600002,true,Rx,0,8,00,80,00,4C,00,1C,4C,00,
11629921,19000026,true,Rx,0,8,00,00,01,40,38,11,84,00,
11634735,0100082C,true,Rx,0,8,0F,C0,89,B4,66,18,00,7A,
11635020,0110483C,true,Rx,0,8,08,E6,6A,00,44,66,FC,52,
11635301,0340412E,true,Rx,0,8,79,80,00,6D,80,00,00,00,
11635653,01C04026,true,Rx,0,8,80,00,80,00,80,00,80,00,
11635934,02000026,true,Rx,0,8,7F,34,00,DC,4E,00,E0,AC,
11636213,02104136,true,Rx,0,8,BB,00,3F,FF,07,E0,00,00,
11636504,02804026,true,Rx,0,8,37,FF,77,FF,F2,00,0E,0C,
11636803,02C00020,true,Rx,0,8,00,00,00,00,00,02,75,81,
11637907,0300410E,true,Rx,0,8,B8,B4,18,EF,87,E0,FC,00,
11644585,0100082C,true,Rx,0,8,0F,C0,89,B4,66,18,00,7A,
11644861,0110483C,true,Rx,0,8,08,E6,6A,00,44,66,FC,52,
11645141,0340412E,true,Rx,0,8,7A,80,00,5D,80,00,00,00,
11645432,19000026,true,Rx,0,8,00,00,01,40,38,11,84,00,
11647886,00800006,true,Rx,0,8,81,ED,0E,6C,41,ED,2E,6E,
11648177,0090411E,true,Rx,0,8,02,00,60,00,00,00,00,00,
11648467,0300410E,true,Rx,0,8,B8,B4,18,EF,87,E0,FC,00,
11648747,03800006,true,Rx,0,8,38,00,A1,3D,47,DC,03,32,
11649645,01C04026,true,Rx,0,8,80,00,80,00,80,00,80,00,
11649926,02000026,true,Rx,0,8,7F,34,00,DC,4E,00,E0,AC,
11650215,02104136,true,Rx,0,8,BB,00,3F,FF,07,E0,00,00,
11650497,02804026,true,Rx,0,8,37,FF,77,FF,F2,00,0E,0C,
11650791,02C00020,true,Rx,0,8,00,00,00,00,00,02,75,81,
11651070,19A00002,true,Rx,0,8,6E,00,00,00,00,00,00,F7,
11654792,0100082C,true,Rx,0,8,0F,C0,89,B4,66,18,00,7A,
11655079,0110483C,true,Rx,0,8,08,E6,6A,00,44,66,FC,52,
11655360,0340412E,true,Rx,0,8,7B,80,00,4D,80,00,00,00,
11657893,0300410E,true,Rx,0,8,38,B4,98,1B,07,E0,6C,00,
11659911,19000026,true,Rx,0,8,00,00,01,40,38,11,84,00,
11663602,01C04026,true,Rx,0,8,80,00,80,00,80,00,80,00,
11663888,02000026,true,Rx,0,8,7F,34,00,DC,4E,00,E0,AC,
11664167,02104136,true,Rx,0,8,BB,00,3F,FF,07,E0,00,00,
11664449,02804026,true,Rx,0,8,37,FF,77,FF,F2,00,0E,0C,
11664739,02C00020,true,Rx,0,8,00,00,00,00,00,02,75,81,
11665029,0100082C,true,Rx,0,8,0F,C0,89,B4,66,18,00,7A,
11665299,0110483C,true,Rx,0,8,08,E6,6A,00,44,66,FC,52,
11665590,0340412E,true,Rx,0,8,7C,80,00,3D,80,00,00,00,
11667930,00800006,true,Rx,0,8,C9,ED,0E,6C,41,ED,AE,6E,
11668217,0090411E,true,Rx,0,8,42,00,E0,00,00,00,00,00,
11668487,0300410E,true,Rx,0,8,B8,B4,18,1B,87,E0,FC,00,
11668777,03800006,true,Rx,0,8,38,00,A1,3D,47,DC,03,32,
11669057,19E00006,true,Rx,0,8,00,00,18,C0,6D,00,40,00,
11674641,0100082C,true,Rx,0,8,0F,C0,89,B4,66,18,00,7A,
11674916,0110483C,true,Rx,0,8,08,E6,EA,00,44,66,FC,52,
11675196,0340412E,true,Rx,0,8,7D,80,00,2D,80,00,00,00,
11675487,19000026,true,Rx,0,8,00,00,01,40,38,11,84,00,
11675777,1B700030,true,Rx,0,8,2C,00,22,00,00,C0,00,00,
11677637,01C04026,true,Rx,0,8,80,00,80,00,80,00,80,00,
11677916,02000026,true,Rx,0,8,7F,34,00,DC,4E,00,E0,AC,
11678196,02104136,true,Rx,0,8,BB,00,3F,FF,07,E0,00,00,
11678487,02804026,true,Rx,0,8,37,FF,77,FF,F2,00,0E,0C,
11678779,02C00020,true,Rx,0,8,00,00,00,00,00,02,75,81,
11679059,0300410E,true,Rx,0,8,B8,B4,18,1B,87,E0,FC,00,
11679340,19A00002,true,Rx,0,8,12,00,00,00,00,00,00,F7,
11681877,1B200002,true,Rx,0,8,00,00,00,00,00,00,0F,71,
11684678,0100082C,true,Rx,0,8,0F,C0,89,B4,66,18,00,7A,
11684953,0110483C,true,Rx,0,8,08,E6,6A,00,44,66,FC,52,
11685234,0340412E,true,Rx,0,8,7E,80,00,1D,80,00,00,00,
11687923,00800006,true,Rx,0,8,09,ED,0E,6C,41,ED,2E,6E,
11688213,0090411E,true,Rx,0,8,02,00,E0,00,00,00,00,00,
11688494,0300410E,true,Rx,0,8,38,B4,98,1B,07,E0,6C,00,
11688773,03800006,true,Rx,0,8,38,00,A1,3D,47,DC,03,32,
11689912,19000026,true,Rx,0,8,00,00,01,40,38,11,84,00,
11691661,01C04026,true,Rx,0,8,80,00,80,00,80,00,80,00,
11691942,02000026,true,Rx,0,8,7F,34,00,DC,4E,00,E0,AC,
11692221,02104136,true,Rx,0,8,BB,00,3F,FF,07,E0,00,00,
11692502,02804026,true,Rx,0,8,37,FF,77,F6,F2,00,0E,0C,
11692792,02C00020,true,Rx,0,8,00,00,00,00,00,02,75,81,
11694807,0100082C,true,Rx,0,8,0F,C0,89,B4,66,18,00,7A,
11695084,0110483C,true,Rx,0,8,08,E6,6A,00,44,66,FC,52,
11695364,0340412E,true,Rx,0,8,7F,80,00,0D,80,00,00,00,
11697939,0300410E,true,Rx,0,8,B8,B4,18,1B,87,E0,FC,00,
11704596,0100082C,true,Rx,0,8,0F,C0,89,B4,66,18,00,7A,
11704871,0110483C,true,Rx,0,8,08,E6,6A,00,44,66,FC,52,
11705162,0340412E,true,Rx,0,8,70,80,00,FD,80,00,00,00,
11705453,19000026,true,Rx,0,8,00,00,01,40,38,11,84,00,
11705743,01C04026,true,Rx,0,8,80,00,80,00,80,00,80,00,
11706023,02000026,true,Rx,0,8,7F,34,00,DC,4E,00,E0,AC,
11706302,02104136,true,Rx,0,8,BB,00,3F,FF,07,E0,00,00,
11706584,02804026,true,Rx,0,8,37,FF,77,CD,F6,86,0E,07,
11706882,02C00020,true,Rx,0,8,00,00,00,00,00,02,75,81,
11707162,19A00002,true,Rx,0,8,02,00,00,00,00,00,00,F7,
11707978,00800006,true,Rx,0,8,41,ED,0E,6C,41,ED,AE,6E,
11708268,0090411E,true,Rx,0,8,C2,00,60,00,00,00,00,00,
11708549,0300410E,true,Rx,0,8,38,B4,18,1B,07,E0,6C,00,
11708834,03800006,true,Rx,0,8,78,00,A1,3D,47,DC,03,32,
11714625,0100082C,true,Rx,0,8,0F,C0,89,B4,66,18,00,7A,
11714900,0110483C,true,Rx,0,8,08,E6,6A,00,44,66,FC,52,
11715191,0340412E,true,Rx,0,8,71,80,00,ED,80,00,00,00,
11717952,0300410E,true,Rx,0,8,B8,B4,98,1B,87,E0,FC,00,
11718242,19E00006,true,Rx,0,8,00,00,18,E0,6D,00,40,00,
11719676,01C04026,true,Rx,0,8,80,00,80,00,80,00,80,00,
11719955,02000026,true,Rx,0,8,7F,34,00,DC,4E,00,E0,AC,
11720234,02104136,true,Rx,0,8,BB,00,3F,FF,07,E0,00,00,
11720516,02804026,true,Rx,0,8,37,FF,77,90,F6,ED,0E,01,
11720808,02C00020,true,Rx,0,8,00,00,00,00,00,02,75,81,
11721087,19000026,true,Rx,0,8,00,FF,01,40,38,11,8C,00,
11724808,0100082C,true,Rx,0,8,0F,C0,89,B4,66,18,00,7A,
11725095,0110483C,true,Rx,0,8,08,E6,EA,00,44,66,FC,52,
11725375,0340412E,true,Rx,0,8,72,80,00,DD,80,00,00,00,
11727960,00800006,true,Rx,0,8,89,ED,0E,6C,41,ED,2E,6E,
11728251,0090411E,true,Rx,0,8,02,00,E0,00,00,00,00,00,
11728532,0300410E,true,Rx,0,8,B8,B4,18,1B,87,E0,FC,00,
11728812,03800006,true,Rx,0,8,38,00,A1,3D,47,DC,03,32,
11733634,01C04026,true,Rx,0,8,80,00,80,00,80,00,80,00,
11733920,02000026,true,Rx,0,8,7F,34,00,DC,4E,00,E0,AC,
11734200,02104136,true,Rx,0,8,BB,00,3F,FF,07,E0,00,00,
11734481,02804026,true,Rx,0,8,37,FF,77,47,F7,3C,0D,FF,
11734760,0100082C,true,Rx,0,8,0F,C0,89,B4,66,18,00,7A,
11735041,0110483C,true,Rx,0,8,08,E6,6A,00,44,66,FC,52,
11735331,02C00020,true,Rx,0,8,00,00,00,00,00,02,75,81,
11735611,0340412E,true,Rx,0,8,73,80,00,CD,80,00,00,00,
11735900,19000026,true,Rx,0,8,00,FF,01,40,38,11,84,00,
11736190,19A00002,true,Rx,0,8,12,00,00,00,00,00,00,F7,
11738014,0300410E,true,Rx,0,8,38,B4,18,1B,07,E0,6C,00,
11744603,0100082C,true,Rx,0,8,0F,C0,89,B4,76,18,00,7A,
11744878,0110483C,true,Rx,0,8,08,E6,6A,00,44,66,FC,52,
11745159,0340412E,true,Rx,0,8,74,80,00,BD,80,00,00,00,
11747695,01C04026,true,Rx,0,8,80,00,80,00,80,00,80,00,
11747974,02000026,true,Rx,0,8,7F,34,00,DC,4E,00,E0,AC,
11748244,00800006,true,Rx,0,8,C9,ED,0E,6C,41,ED,2E,6E,
11748535,0090411E,true,Rx,0,8,02,00,E0,00,00,00,00,00,
11748818,02104136,true,Rx,0,8,BB,00,3F,FF,07,E0,00,00,
11749097,02804026,true,Rx,0,8,37,FF,77,09,F7,30,0D,FF,
11749388,02C00020,true,Rx,0,8,00,00,00,00,00,02,75,81,
11749669,0300410E,true,Rx,0,8,B8,B4,98,1B,87,E0,FC,00,
11749948,03800006,true,Rx,0,8,38,00,A1,3D,47,DC,03,32,
11750238,19000026,true,Rx,0,8,00,FF,01,40,38,11,84,00,
11750509,1BA0493C,true,Rx,0,8,0B,01,01,01,02,03,03,01,
11754756,0100082C,true,Rx,0,8,0F,C0,89,B4,66,18,00,7A,
11755043,0110483C,true,Rx,0,8,08,E6,6A,00,44,66,FC,52,
11755324,0340412E,true,Rx,0,8,75,80,00,AD,80,00,00,00,
11758013,0300410E,true,Rx,0,8,B8,B4,18,1B,87,E0,FC,00,
11761693,01C04026,true,Rx,0,8,80,00,80,00,80,00,80,00,
11761980,02000026,true,Rx,0,8,7F,34,00,DC,4E,00,E0,AC,
11762259,02104136,true,Rx,0,8,BB,00,3F,FF,07,E0,00,00,
11762540,02804026,true,Rx,0,8,37,FF,77,04,F6,EA,0D,FA,
11762831,02C00020,true,Rx,0,8,00,00,00,00,00,02,75,81,
11763120,19A00002,true,Rx,0,8,6E,00,00,00,00,00,00,F7,
11764776,0100082C,true,Rx,0,8,0F,C0,89,B4,66,18,00,7A,
11765046,0110483C,true,Rx,0,8,08,E6,6A,00,44,66,FC,52,
11765336,0340412E,true,Rx,0,8,76,80,00,9D,80,00,00,00,
11765616,19000026,true,Rx,0,8,00,FF,01,40,38,11,84,00,
11766857,1B200002,true,Rx,0,8,00,00,00,00,00,00,0F,71,
11768019,00800006,true,Rx,0,8,01,ED,0E,6C,41,ED,AE,6E,
11768309,0090411E,true,Rx,0,8,42,00,60,00,00,00,00,00,
11768589,0300410E,true,Rx,0,8,38,B4,18,1B,07,E0,6C,00,
11768870,03800006,true,Rx,0,8,38,00,A1,3D,47,DC,03,32,
11769149,19E00006,true,Rx,0,8,00,00,18,C0,6D,00,40,00,
11774634,0100082C,true,Rx,0,8,0F,C0,89,B4,66,18,00,7A,
11774910,0110483C,true,Rx,0,8,08,E6,EA,00,44,66,FC,52,
11775190,0340412E,true,Rx,0,8,77,80,00,8D,80,00,00,00,
11775667,01C04026,true,Rx,0,8,80,00,80,00,80,00,80,00,
11775946,02000026,true,Rx,0,8,7F,34,00,DC,4E,00,E0,AC,
11776236,02104136,true,Rx,0,8,BB,00,3F,FF,07,E0,00,00,
11776507,02804026,true,Rx,0,8,37,FF,77,24,F6,B3,0D,EF,
11776793,02C00020,true,Rx,0,8,00,00,00,00,00,02,75,81,
11778042,0300410E,true,Rx,0,8,B8,B4,98,1B,87,E0,FC,00,
11779794,1A200020,true,Rx,0,8,4E,00,00,00,00,00,02,2E,
11780073,19000026,true,Rx,0,8,00,FF,01,40,38,11,84,00,
11784721,0100082C,true,Rx,0,8,0F,C0,89,B4,66,18,00,7A,
11784998,0110483C,true,Rx,0,8,08,E6,6A,00,44,66,FC,52,
11785277,0340412E,true,Rx,0,8,78,80,00,7D,80,00,00,00,
11788029,00800006,true,Rx,0,8,49,ED,0E,6C,41,ED,2E,6E,
11788308,0090411E,true,Rx,0,8,02,00,E0,00,00,00,00,00,
11788599,0300410E,true,Rx,0,8,38,B4,18,1B,07,E0,6C,00,
11788880,03800006,true,Rx,0,8,38,00,A1,3D,47,DC,03,32,
11789696,01C04026,true,Rx,0,8,80,00,80,00,80,00,80,00,
11789975,02000026,true,Rx,0,8,7F,34,00,DC,4E,00,E0,AC,
11790266,02104136,true,Rx,0,8,BB,00,3F,FF,07,E0,00,00,
11790536,02804026,true,Rx,0,8,37,FF,77,5B,F6,89,0D,E1,
11790830,02C00020,true,Rx,0,8,00,00,00,00,00,02,75,81,
11791121,19A00002,true,Rx,0,8,12,00,00,00,00,00,00,F7,
11794758,0100082C,true,Rx,0,8,0F,C0,89,B4,66,18,00,7A,
11795034,0110483C,true,Rx,0,8,08,E6,6A,00,44,66,FC,52,
11795314,0340412E,true,Rx,0,8,79,80,00,6D,80,00,00,00,
11795605,19000026,true,Rx,0,8,00,FF,01,40,38,11,84,00,
11798038,0300410E,true,Rx,0,8,B8,B4,18,1B,87,E0,FC,00,
11798329,1B600002,true,Rx,0,8,00,80,00,4C,00,1C,4C,00,
11803662,01C04026,true,Rx,0,8,80,00,80,00,80,00,80,00,
11803948,02000026,true,Rx,0,8,7F,34,00,DC,4E,00,E0,AC,
11804228,02104136,true,Rx,0,8,BB,00,3F,FF,07,E0,00,00,
11804509,02804026,true,Rx,0,8,37,FF,77,6B,F6,F0,0D,D3,
11804788,0100082C,true,Rx,0,8,0F,C0,89,B4,66,18,00,7A,
11805069,0110483C,true,Rx,0,8,08,E6,6A,00,44,66,FC,52,
11805359,02C00020,true,Rx,0,8,00,00,00,00,00,02,75,81,
11805640,0340412E,true,Rx,0,8,7A,80,00,5D,80,00,00,00,
11808073,00800006,true,Rx,0,8,89,ED,0E,6C,41,ED,AE,6E,
11808360,0090411E,true,Rx,0,8,C2,00,E0,00,00,00,00,00,
11808639,0300410E,true,Rx,0,8,B8,B4,98,1B,87,E0,FC,00,
11808920,03800006,true,Rx,0,8,78,00,A1,3D,47,DC,03,32,
11809910,19000026,true,Rx,0,8,00,FF,01,40,38,11,8C,00,
11814700,0100082C,true,Rx,0,8,0F,C0,89,B4,66,18,00,7A,
11814977,0110483C,true,Rx,0,8,08,E6,6A,00,44,66,FC,52,
11815256,0340412E,true,Rx,0,8,7B,80,00,4D,80,00,00,00,
11817678,01C04026,true,Rx,0,8,80,00,80,00,80,00,80,00,
11817959,02000026,true,Rx,0,8,7F,34,00,DC,4E,00,E0,AC,
11818248,02104136,true,Rx,0,8,BB,00,3F,FF,07,E0,00,00,
11818518,02804026,true,Rx,0,8,37,FF,77,52,F7,3E,0D,D3,
11818812,02C00020,true,Rx,0,8,00,00,00,00,00,02,75,81,
11819091,0300410E,true,Rx,0,8,38,B4,18,1B,07,E0,6C,00,
11819382,19A00002,true,Rx,0,8,02,00,00,00,00,00,00,F7,
11819673,19E00006,true,Rx,0,8,00,00,18,E0,6D,00,40,00,
11824674,0100082C,true,Rx,0,8,0F,C0,89,B4,66,18,00,7A,
11824961,0110483C,true,Rx,0,8,08,E6,EA,00,44,66,FC,52,
11825240,0340412E,true,Rx,0,8,7C,80,00,3D,80,00,00,00,
11825521,19000026,true,Rx,0,8,00,FF,01,40,38,11,84,00,
11828069,00800006,true,Rx,0,8,C1,ED,0E,6C,41,ED,2E,6E,
11828359,0090411E,true,Rx,0,8,02,00,60,00,00,00,00,00,
11828639,0300410E,true,Rx,0,8,B8,B4,18,1B,87,E0,FC,00,
11828919,03800006,true,Rx,0,8,38,00,A1,3D,47,DC,03,32,
11831688,01C04026,true,Rx,0,8,80,00,80,00,80,00,80,00,
11831958,02000026,true,Rx,0,8,7F,34,00,DC,4E,00,E0,AC,
11832248,02104136,true,Rx,0,8,BB,00,3F,FF,07,E0,00,00,
11832519,02804026,true,Rx,0,8,37,FF,77,1F,F7,63,0D,DB,
11832811,02C00020,true,Rx,0,8,00,00,00,00,00,02,75,81,
11834829,0100082C,true,Rx,0,8,0F,C0,89,B4,76,18,00,7A,
11835108,0110483C,true,Rx,0,8,08,E6,6A,00,44,66,FC,52,
11835389,0340412E,true,Rx,0,8,7D,80,00,2D,80,00,00,00,
11838091,0300410E,true,Rx,0,8,B8,B4,98,1B,87,E0,FC,00,
11839912,19000026,true,Rx,0,8,00,FF,01,40,38,11,84,00,
11844712,0100082C,true,Rx,0,8,0F,C0,89,B4,66,18,00,7A,
11844988,0110483C,true,Rx,0,8,08,E6,6A,00,44,66,FC,52,
11845278,0340412E,true,Rx,0,8,7E,80,00,1D,80,00,00,00,
11845662,01C04026,true,Rx,0,8,80,00,80,00,80,00,80,00,
11845942,02000026,true,Rx,0,8,7F,34,00,DC,4E,00,E0,AC,
11846231,02104136,true,Rx,0,8,BB,00,3F,FF,07,E0,00,00,
11846503,02804026,true,Rx,0,8,37,FF,76,EF,F7,60,0D,E6,
11846799,02C00020,true,Rx,0,8,00,00,00,00,00,02,75,81,
11847090,19A00002,true,Rx,0,8,12,00,00,00,00,00,00,F7,
11848111,00800006,true,Rx,0,8,09,ED,0E,6C,41,ED,2E,6E,
11848402,0090411E,true,Rx,0,8,02,00,E0,00,00,00,00,00,
11848682,0300410E,true,Rx,0,8,38,B4,18,1B,07,E0,6C,00,
11848956,03800006,true,Rx,0,8,38,00,A1,3D,47,DC,03,32,
11851891,1B200002,true,Rx,0,8,00,00,00,00,00,00,0F,71,
11854640,0100082C,true,Rx,0,8,0F,C0,89,B4,66,18,00,7A,
11854916,0110483C,true,Rx,0,8,08,E6,6A,00,44,66,FC,52,
11855206,0340412E,true,Rx,0,8,7F,80,00,0D,80,00,00,00,
11855487,19000026,true,Rx,0,8,00,FF,01,40,38,11,84,00,
11858106,0300410E,true,Rx,0,8,B8,B4,18,1B,87,E0,FC,00,
11859722,01C04026,true,Rx,0,8,80,00,80,00,80,00,80,00,
11860001,02000026,true,Rx,0,8,7F,34,00,DC,4E,00,E0,AC,
11860281,02104136,true,Rx,0,8,BB,00,3F,FF,07,E0,00,00,
11860552,02804026,true,Rx,0,8,37,FF,76,F4,F7,0F,0D,F4,
11860865,02C00020,true,Rx,0,8,00,00,00,00,00,02,75,81,
11864749,0100082C,true,Rx,0,8,0F,C0,89,B4,66,18,00,7A,
11865024,0110483C,true,Rx,0,8,08,E6,6A,00,44,66,FC,52,
11865313,0340412E,true,Rx,0,8,70,80,00,FD,80,00,00,00,
11868106,00800006,true,Rx,0,8,49,ED,0E,6C,41,ED,AE,6E,
11868388,0090411E,true,Rx,0,8,42,00,E0,00,00,00,00,00,
11868668,0300410E,true,Rx,0,8,38,B4,98,1B,07,E0,6C,00,
11868948,03800006,true,Rx,0,8,38,00,A1,3D,47,DC,03,32,
11869227,19E00006,true,Rx,0,8,00,00,18,C0,6D,00,40,00,
11869910,19000026,true,Rx,0,8,00,FF,01,40,38,11,8C,00,
11873636,01C04026,true,Rx,0,8,80,00,80,00,80,00,80,00,
11873922,02000026,true,Rx,0,8,7F,34,00,DC,4E,00,E0,AC,
11874202,02104136,true,Rx,0,8,BB,00,3F,FF,07,E0,00,00,
11874483,02804026,true,Rx,0,8,37,FF,77,1A,F6,CE,0D,FD,
11874774,02C00020,true,Rx,0,8,00,00,00,00,00,02,75,81,
11875053,0100082C,true,Rx,0,8,0F,C0,89,B4,66,19,00,7A,
11875333,0110483C,true,Rx,0,8,08,E6,EA,00,44,66,FC,52,
11875614,0340412E,true,Rx,0,8,71,80,00,ED,80,00,00,00,
11875902,19A00002,true,Rx,0,8,6E,00,00,00,00,00,00,F7,
11878146,0300410E,true,Rx,0,8,B8,B4,18,1B,87,E0,FC,00,
11884662,0100082C,true,Rx,0,8,0F,C0,89,B4,66,19,00,7B,
11884949,0110483C,true,Rx,0,8,08,E6,6A,00,44,66,FC,52,
11885228,0340412E,true,Rx,0,8,72,80,00,DD,80,00,00,00,
11885510,19000026,true,Rx,0,8,00,FF,01,40,38,11,84,00,
11885799,1AE0092C,true,Rx,0,8,00,00,22,E0,41,A0,00,00,
11886079,1B700030,true,Rx,0,8,7C,8E,22,00,15,C0,03,00,
11887693,01C04026,true,Rx,0,8,80,00,80,00,80,00,80,00,
11887973,02000026,true,Rx,0,8,7F,34,00,DC,4E,00,E0,AC,
11888253,00800006,true,Rx,0,8,81,ED,0E,6C,41,ED,2E,6E,
11888545,0090411E,true,Rx,0,8,02,00,60,00,00,00,00,00,
11888827,02104136,true,Rx,0,8,BB,00,3F,FF,07,E0,00,00,
11889106,02804026,true,Rx,0,8,37,FF,77,55,F6,9F,0E,01,
11889398,02C00020,true,Rx,0,8,00,00,00,00,00,02,75,81,
11889677,0300410E,true,Rx,0,8,B8,B4,18,1B,87,E0,FC,00,
11889956,03800006,true,Rx,0,8,38,00,A1,3D,47,DC,03,32,
11894696,0100082C,true,Rx,0,8,0F,C0,89,B4,66,19,00,7B,
11894981,0110483C,true,Rx,0,8,08,E6,6A,00,44,66,FC,52,
11895261,0340412E,true,Rx,0,8,73,80,00,CD,80,00,00,00,
11898137,0300410E,true,Rx,0,8,38,B4,98,1B,07,E0,6C,00,
11899917,19000026,true,Rx,0,8,00,FF,01,40,38,11,8C,00,
11901678,01C04026,true,Rx,0,8,80,00,80,00,80,00,80,00,
11901957,02000026,true,Rx,0,8,7F,34,00,DC,4E,00,E0,AC,
11902247,02104136,true,Rx,0,8,BB,00,3F,FF,07,E0,00,00,
11902518,02804026,true,Rx,0,8,37,FF,77,89,F6,C0,0E,04,
11902810,02C00020,true,Rx,0,8,00,00,00,00,00,02,75,81,
11903100,19A00002,true,Rx,0,8,12,00,00,00,00,00,00,F7,
11904863,0100082C,true,Rx,0,8,0F,C0,89,B4,66,19,00,7B,
11905143,0110483C,true,Rx,0,8,08,E6,6A,00,44,66,FC,52,
11905424,0340412E,true,Rx,0,8,74,80,00,BD,80,00,00,00,
11908145,00800006,true,Rx,0,8,C9,ED,0E,6C,41,ED,AE,6E,
11908436,0090411E,true,Rx,0,8,C2,00,E0,00,00,00,00,00,
11908716,0300410E,true,Rx,0,8,B8,B4,18,1B,87,E0,FC,00,
11908996,03800006,true,Rx,0,8,78,00,A1,3D,47,DC,03,32,
11914643,0100082C,true,Rx,0,8,0F,C0,89,B4,66,19,00,7B,
11914929,0110483C,true,Rx,0,8,08,E6,6A,00,44,66,FC,52,
11915208,0340412E,true,Rx,0,8,75,80,00,AD,80,00,00,00,
11915490,19000026,true,Rx,0,8,00,FF,01,40,38,11,84,00,
11915779,01C04026,true,Rx,0,8,80,00,80,00,80,00,80,00,
11916058,02000026,true,Rx,0,8,7F,34,00,DC,4E,00,E0,AC,
11916350,02104136,true,Rx,0,8,BB,00,3F,FF,07,E0,00,00,
11916619,02804026,true,Rx,0,8,37,FF,77,88,F7,1A,0E,01,
11916918,02C00020,true,Rx,0,8,00,00,00,00,00,02,75,81,
11918208,0300410E,true,Rx,0,8,B8,B4,18,1B,87,E0,FC,00,
11918489,19E00006,true,Rx,0,8,00,00,18,E0,6D,00,40,00,
11924614,0100082C,true,Rx,0,8,0F,C0,89,B4,76,19,00,7B,
11924890,0110483C,true,Rx,0,8,08,E6,EA,00,44,66,FC,52,
11925169,0340412E,true,Rx,0,8,76,80,00,9D,80,00,00,00,
11928157,00800006,true,Rx,0,8,09,ED,0E,6C,41,ED,2E,6E,
11928448,0090411E,true,Rx,0,8,02,00,E0,00,00,00,00,00,
11928727,0300410E,true,Rx,0,8,38,B4,98,1B,07,E0,6C,00,
11929006,03800006,true,Rx,0,8,38,00,A1,3D,47,DC,03,32,
11929689,01C04026,true,Rx,0,8,80,00,80,00,80,00,80,00,
11929968,02000026,true,Rx,0,8,7F,34,00,DC,4E,00,E0,AC,
11930259,02104136,true,Rx,0,8,BB,00,3F,FF,07,E0,00,00,
11930529,02804026,true,Rx,0,8,37,FF,77,64,F7,60,0D,FF,
11930827,02C00020,true,Rx,0,8,00,00,00,00,00,02,75,81,
11931106,19000026,true,Rx,0,8,00,FF,01,40,38,11,84,00,
11931397,19A00002,true,Rx,0,8,02,00,00,00,00,00,00,F7,
11934852,0100082C,true,Rx,0,8,0F,C0,89,B4,66,19,00,7B,
11935137,0110483C,true,Rx,0,8,08,E6,6A,00,44,66,FC,52,
11935420,0340412E,true,Rx,0,8,77,80,00,8D,80,00,00,00,
11936863,1B200002,true,Rx,0,8,00,00,00,00,00,00,0F,71,
11938173,0300410E,true,Rx,0,8,B8,B4,18,1B,87,E0,FC,00,
11943638,01C04026,true,Rx,0,8,80,00,80,00,80,00,80,00,
11943925,02000026,true,Rx,0,8,7F,34,00,DC,4E,00,E0,AC,
11944204,02104136,true,Rx,0,8,BB,00,3F,FF,07,E0,00,00,
11944486,02804026,true,Rx,0,8,37,FF,77,2B,F7,63,0D,FF,
11944766,0100082C,true,Rx,0,8,0F,C0,89,B4,66,19,00,7B,
11945046,0110483C,true,Rx,0,8,08,E6,6A,00,44,66,FC,52,
11945336,02C00020,true,Rx,0,8,00,00,00,00,00,02,75,81,
11945617,0340412E,true,Rx,0,8,78,80,00,7D,80,00,00,00,
11945905,19000026,true,Rx,0,8,00,FF,01,40,38,11,8C,00,
11948220,00800006,true,Rx,0,8,41,ED,0E,6C,41,ED,2E,6E,
11948512,0090411E,true,Rx,0,8,02,00,60,00,00,00,00,00,
11948792,0300410E,true,Rx,0,8,38,B4,18,1B,07,E0,6C,00,
11949071,03800006,true,Rx,0,8,38,00,A1,3D,47,DC,03,32,
11954648,0100082C,true,Rx,0,8,0F,C0,89,B4,66,19,00,7B,
11954933,0110483C,true,Rx,0,8,08,E6,6A,00,44,66,FC,52,
11955213,0340412E,true,Rx,0,8,79,80,00,6D,80,00,00,00,
11957656,01C04026,true,Rx,0,8,80,00,80,00,80,00,80,00,
11957935,02000026,true,Rx,0,8,7F,34,00,DC,4E,00,E0,AC,
11958225,02104136,true,Rx,0,8,BB,00,3F,FF,07,E0,00,00,
11958497,02804026,true,Rx,0,8,37,FF,76,E4,F7,63,0D,FF,
11958789,02C00020,true,Rx,0,8,00,00,00,00,00,02,75,81,
11959068,0300410E,true,Rx,0,8,B8,B4,98,1B,87,E0,FC,00,
11959360,19A00002,true,Rx,0,8,12,00,00,00,00,00,00,F7,
11959917,19000026,true,Rx,0,8,00,FF,01,40,38,11,84,00,
11964767,0100082C,true,Rx,0,8,0F,C0,89,B4,66,19,00,7B,
11965052,0110483C,true,Rx,0,8,08,E6,6A,00,44,66,FC,52,
11965334,0340412E,true,Rx,0,8,7A,80,00,5D,80,00,00,00,
11968196,00800006,true,Rx,0,8,89,ED,0E,6C,41,ED,AE,6E,
11968488,0090411E,true,Rx,0,8,42,00,E0,00,00,00,00,00,
11968768,0300410E,true,Rx,0,8,B8,B4,18,1B,87,E0,FC,00,
11969047,03800006,true,Rx,0,8,38,00,A1,3D,47,DC,03,32,
11969329,19E00006,true,Rx,0,8,00,00,18,C0,6D,00,40,00,
11969618,1B600002,true,Rx,0,8,00,80,00,4C,00,1C,4C,00,
11971713,01C04026,true,Rx,0,8,80,00,80,00,80,00,80,00,
11971992,02000026,true,Rx,0,8,7F,34,00,DC,4E,00,E0,AC,
11972283,02104136,true,Rx,0,8,BB,00,3F,FF,07,E0,00,00,
11972564,02804026,true,Rx,0,8,37,FF,76,94,F7,63,0D,FD,
11972866,02C00020,true,Rx,0,8,00,00,00,00,00,02,75,81,
11974873,0100082C,true,Rx,0,8,0F,C0,89,B4,66,19,00,7B,
11975142,0110483C,true,Rx,0,8,08,E6,EA,00,44,66,FC,52,
11975424,0340412E,true,Rx,0,8,7B,80,00,4D,80,00,00,00,
11975714,19000026,true,Rx,0,8,00,FF,01,40,38,11,8C,00,
11978221,0300410E,true,Rx,0,8,38,B4,18,1B,07,E0,6C,00,
11984640,0100082C,true,Rx,0,8,0F,C0,89,B4,66,19,00,7B,
11984926,0110483C,true,Rx,0,8,08,E6,6A,00,44,66,FC,52,
11985205,0340412E,true,Rx,0,8,7C,80,00,3D,80,00,00,00,
11985641,01C04026,true,Rx,0,8,80,00,80,00,80,00,80,00,
11985921,02000026,true,Rx,0,8,7F,34,00,DC,4E,00,E0,AC,
11986211,02104136,true,Rx,0,8,BB,00,3F,FF,07,E0,00,00,
11986492,02804026,true,Rx,0,8,37,FF,76,3E,F7,63,0D,FD,
11986778,02C00020,true,Rx,0,8,00,00,00,00,00,02,75,81,
11987058,19A00002,true,Rx,0,8,6E,00,00,00,00,00,00,F7,
11988244,00800006,true,Rx,0,8,C9,ED,0E,6C,41,ED,2E,6E,
11988536,0090411E,true,Rx,0,8,02,00,E0,00,00,00,00,00,
11988808,0300410E,true,Rx,0,8,B8,B4,98,1B,87,E0,FC,00,
11989097,03800006,true,Rx,0,8,38,00,A1,3D,47,DC,03,32,
11989986,19000026,true,Rx,0,8,00,FF,01,40,38,11,84,00,
11994710,0100082C,true,Rx,0,8,0F,C0,89,B4,66,19,00,7B,
11994996,0110483C,true,Rx,0,8,08,E6,6A,00,44,66,FC,52,
11995276,0340412E,true,Rx,0,8,7D,80,00,2D,80,00,00,00,
11998232,0300410E,true,Rx,0,8,B8,B4,18,1B,87,E0,FC,00,
11999643,1BA0493C,true,Rx,0,8,0C,03,01,01,02,02,01,09,
11999934,01C04026,true,Rx,0,8,80,00,80,00,80,00,80,00,
12000213,02000026,true,Rx,0,8,7F,34,00,DC,4E,00,E0,AC,
12000504,02104136,true,Rx,0,8,BB,00,3F,FF,07,E0,00,00,
12000787,02804026,true,Rx,0,8,37,FF,75,E5,F7,63,0D,FD,
12001066,02C00020,true,Rx,0,8,00,00,00,00,00,02,75,81,
12001336,1BE0493C,true,Rx,0,8,11,4D,57,32,31,34,32,37,
12004769,0100082C,true,Rx,0,8,0F,C0,89,B4,66,19,00,7B,
12005045,0110483C,true,Rx,0,8,08,E6,6A,00,44,66,FC,52,
12005337,0340412E,true,Rx,0,8,7E,80,00,1D,80,00,00,00,
12005616,19000026,true,Rx,0,8,00,FF,01,40,38,11,84,00,
12008255,00800006,true,Rx,0,8,01,ED,0E,6C,41,ED,AE,6E,
12008536,0090411E,true,Rx,0,8,C2,00,60,00,00,00,00,00,
12008834,0300410E,true,Rx,0,8,38,B4,18,1B,07,E0,6C,00,
12009105,03800006,true,Rx,0,8,78,00,A1,3D,47,DC,03,32,
12013642,01C04026,true,Rx,0,8,80,00,80,00,80,00,80,00,
12013929,02000026,true,Rx,0,8,7F,34,00,DC,4E,00,E0,AC,
12014208,02104136,true,Rx,0,8,BB,00,3F,FF,07,E0,00,00,
12014490,02804026,true,Rx,0,8,37,FF,75,89,F7,63,0D,FD,
12014769,0100082C,true,Rx,0,8,0F,C0,89,B4,76,19,00,7B,
12015048,0110483C,true,Rx,0,8,08,E6,6A,00,44,66,FC,52,
12015341,02C00020,true,Rx,0,8,00,00,00,00,00,02,75,81,
12015620,0340412E,true,Rx,0,8,7F,80,00,0D,80,00,00,00,
12015908,19A00002,true,Rx,0,8,12,00,00,00,00,00,00,F7,
12018286,0300410E,true,Rx,0,8,B8,B4,98,1B,87,E0,FC,00,
12018568,19E00006,true,Rx,0,8,00,00,18,E0,6D,00,40,00,
12019917,19000026,true,Rx,0,8,00,FF,01,40,38,11,8C,00,
12021872,1B200002,true,Rx,0,8,00,00,00,00,00,00,0F,71,
12024684,0100082C,true,Rx,0,8,0F,C0,89,B4,66,19,00,7B,
12024963,0110483C,true,Rx,0,8,08,E6,EA,00,44,66,FC,52,
12025254,0340412E,true,Rx,0,8,70,80,00,FD,80,00,00,00,
12027698,01C04026,true,Rx,0,8,80,00,80,00,80,00,80,00,
12027984,02000026,true,Rx,0,8,7F,34,00,DC,4E,00,E0,AC,
12028273,02104136,true,Rx,0,8,BB,00,3F,FF,07,E0,00,00,
12028545,00800006,true,Rx,0,8,49,ED,0E,6C,41,ED,2E,6E,
12028834,0090411E,true,Rx,0,8,02,00,E0,00,00,00,00,00,
12029115,02804026,true,Rx,0,8,37,FF,75,2D,F7,63,0D,FD,
12029406,02C00020,true,Rx,0,8,00,00,00,00,00,02,75,81,
12029685,0300410E,true,Rx,0,8,38,B4,18,1B,07,E0,6C,00,
12029964,03800006,true,Rx,0,8,38,00,A1,3D,47,DC,03,32,
12034666,0100082C,true,Rx,0,8,0F,C0,89,B4,66,19,00,7B,
12034952,0110483C,true,Rx,0,8,08,E6,6A,00,44,66,FC,52,
12035232,0340412E,true,Rx,0,8,71,80,00,ED,80,00,00,00,
12035512,19000026,true,Rx,0,8,00,FF,01,40,38,11,84,00,
12038286,0300410E,true,Rx,0,8,B8,B4,18,1B,87,E0,FC,00,
12041710,01C04026,true,Rx,0,8,80,00,80,00,80,00,80,00,
12041985,02000026,true,Rx,0,8,7F,34,00,DC,4E,00,E0,AC,
12042276,02104136,true,Rx,0,8,BB,00,3F,FF,07,E0,00,00,
12042548,02804026,true,Rx,0,8,37,FF,74,CF,F7,63,0D,FD,
12042837,02C00020,true,Rx,0,8,00,00,00,00,00,02,75,81,
12043128,19A00002,true,Rx,0,8,02,00,00,00,00,00,00,F7,
12044752,0100082C,true,Rx,0,8,0F,C0,89,B4,66,19,00,7B,
12045032,0110483C,true,Rx,0,8,08,E6,6A,00,44,66,FC,52,
12045312,0340412E,true,Rx,0,8,72,80,00,DD,80,00,00,00,
12048285,00800006,true,Rx,0,8,89,ED,0E,6C,41,ED,2E,6E,
12048571,0090411E,true,Rx,0,8,02,00,E0,00,00,00,00,00,
12048851,0300410E,true,Rx,0,8,B8,B4,98,1B,87,E0,FC,00,
12049131,03800006,true,Rx,0,8,38,00,A1,3D,47,DC,03,32,
12049916,19000026,true,Rx,0,8,00,FF,01,40,38,11,8C,00,
12054736,0100082C,true,Rx,0,8,0F,C0,89,B4,66,19,00,7B,
12055011,0110483C,true,Rx,0,8,08,E6,6A,00,44,66,FC,52,
12055292,0340412E,true,Rx,0,8,73,80,00,CD,80,00,00,00,
12055737,01C04026,true,Rx,0,8,80,00,80,00,80,00,80,00,
12056017,02000026,true,Rx,0,8,7F,34,00,DC,4E,00,E0,AC,
12056297,02104136,true,Rx,0,8,BB,00,3F,FF,07,E0,00,00,
12056578,02804026,true,Rx,0,8,37,FF,74,70,F7,63,0D,FD,
12056865,02C00020,true,Rx,0,8,00,00,00,00,00,02,75,81,
12058322,0300410E,true,Rx,0,8,38,B4,18,1B,07,E0,6C,00,
12064601,0100082C,true,Rx,0,8,0F,C0,89,B4,66,19,00,7B,
12064876,0110483C,true,Rx,0,8,08,E6,6A,00,44,66,FC,52,
12065167,0340412E,true,Rx,0,8,74,80,00,BD,80,00,00,00,
12065448,19000026,true,Rx,0,8,00,FF,01,40,38,11,84,00,
12068305,00800006,true,Rx,0,8,C1,ED,0E,6C,41,ED,AE,6E,
12068596,0090411E,true,Rx,0,8,42,00,60,00,00,00,00,00,
12068873,0300410E,true,Rx,0,8,B8,B4,18,1B,87,E0,FC,00,
12069154,03800006,true,Rx,0,8,38,00,A1,3D,47,DC,03,32,
12069444,19E00006,true,Rx,0,8,00,00,18,C0,6D,00,40,00,
12069744,01C04026,true,Rx,0,8,80,00,80,00,80,00,80,00,
12070025,02000026,true,Rx,0,8,7F,34,00,DC,4E,00,E0,AC,
12070314,02104136,true,Rx,0,8,BB,00,3F,FF,07,E0,00,00,
12070586,02804026,true,Rx,0,8,37,FF,74,12,F7,63,0D,FD,
12070874,02C00020,true,Rx,0,8,00,00,00,00,00,02,75,81,
12071163,19A00002,true,Rx,0,8,12,00,00,00,00,00,00,F7,
12074813,0100082C,true,Rx,0,8,0F,C0,89,B4,66,19,00,7B,
12075098,0110483C,true,Rx,0,8,08,E6,EA,00,44,66,FC,52,
12075380,0340412E,true,Rx,0,8,75,80,00,AD,80,00,00,00,
12078317,0300410E,true,Rx,0,8,B8,B4,98,1B,87,E0,FC,00,
12079922,19000026,true,Rx,0,8,00,FF,01,40,38,11,8C,00,
12083707,01C04026,true,Rx,0,8,80,00,80,00,80,00,80,00,
12083992,02000026,true,Rx,0,8,7F,34,00,DC,4E,00,E0,AC,
12084272,02104136,true,Rx,0,8,BB,00,3F,FF,07,E0,00,00,
12084553,02804026,true,Rx,0,8,37,FF,73,B3,F7,63,0D,FD,
12084833,0100082C,true,Rx,0,8,0F,C0,89,B4,66,19,00,7B,
12085112,0110483C,true,Rx,0,8,08,E6,6A,00,44,66,FC,52,
12085404,02C00020,true,Rx,0,8,00,00,00,00,00,02,75,81,
12085683,0340412E,true,Rx,0,8,76,80,00,9D,80,00,00,00,
12088346,00800006,true,Rx,0,8,09,ED,0E,6C,41,ED,2E,6E,
12088632,0090411E,true,Rx,0,8,02,00,E0,00,00,00,00,00,
12088921,0300410E,true,Rx,0,8,38,B4,18,1B,07,E0,6C,00,
12089202,03800006,true,Rx,0,8,38,00,A1,3D,47,DC,03,32,
12094648,0100082C,true,Rx,0,8,0F,C0,89,B4,66,19,00,7B,
12094923,0110483C,true,Rx,0,8,08,E6,6A,00,44,66,FC,52,
12095204,0340412E,true,Rx,0,8,77,80,00,8D,80,00,00,00,
12095494,19000026,true,Rx,0,8,00,FF,01,40,38,11,84,00,
12095774,1A200020,true,Rx,0,8,8E,00,02,2E,00,41,02,2E,
12096054,1B700030,true,Rx,0,8,6C,8E,22,00,15,C0,03,00,
12097689,01C04026,true,Rx,0,8,80,00,80,00,80,00,80,00,
12097969,02000026,true,Rx,0,8,7F,34,00,DC,4E,00,E0,AC,
12098249,02104136,true,Rx,0,8,BB,00,3F,FF,07,E0,00,00,
12098530,02804026,true,Rx,0,8,37,FF,73,54,F7,63,0D,FD,
12098811,02C00020,true,Rx,0,8,00,00,00,00,00,02,75,81,
12099092,0300410E,true,Rx,0,8,B8,B4,18,1B,87,E0,FC,00,
12099383,19A00002,true,Rx,0,8,6E,00,00,00,00,00,00,F7,
12104692,0100082C,true,Rx,0,8,0F,C0,89,B4,76,19,00,7B,
12104967,0110483C,true,Rx,0,8,08,E6,6A,00,44,66,FC,52,
12105258,0340412E,true,Rx,0,8,78,80,00,7D,80,00,00,00,
12106856,1B200002,true,Rx,0,8,00,00,00,00,00,00,0F,71,
12108342,00800006,true,Rx,0,8,49,ED,0E,6C,41,ED,AE,6E,
12108632,0090411E,true,Rx,0,8,C2,00,E0,00,00,00,00,00,
12108912,0300410E,true,Rx,0,8,38,B4,98,1B,07,E0,6C,00,
12109192,03800006,true,Rx,0,8,78,00,A1,3D,47,DC,03,32,
12109926,19000026,true,Rx,0,8,00,FF,01,40,38,11,8C,00,
12111700,01C04026,true,Rx,0,8,80,00,80,00,80,00,80,00,
12111979,02000026,true,Rx,0,8,7F,34,00,DC,4E,00,E0,AC,
12112270,02104136,true,Rx,0,8,BB,00,3F,FF,07,E0,00,00,
12112540,02804026,true,Rx,0,8,37,FF,72,F5,F7,63,0D,FD,
12112834,02C00020,true,Rx,0,8,00,00,00,00,00,02,75,81,
12114840,0100082C,true,Rx,0,8,0F,C0,89,B4,66,19,00,7B,
12115120,0110483C,true,Rx,0,8,08,E6,6A,00,44,66,FC,52,
12115401,0340412E,true,Rx,0,8,79,80,00,6D,80,00,00,00,
12118350,0300410E,true,Rx,0,8,B8,B4,18,1B,87,E0,FC,00,
12118640,19E00006,true,Rx,0,8,00,00,18,E0,6D,00,40,00,
12124597,0100082C,true,Rx,0,8,0F,C0,89,B4,66,19,00,7B,
12124872,0110483C,true,Rx,0,8,08,E6,EA,00,44,66,FC,52,
12125152,0340412E,true,Rx,0,8,7A,80,00,5D,80,00,00,00,
12125443,19000026,true,Rx,0,8,00,FF,01,40,38,11,84,00,
12125733,01C04026,true,Rx,0,8,80,00,80,00,80,00,80,00,
12126013,02000026,true,Rx,0,8,7F,34,00,DC,4E,00,E0,AC,
12126293,02104136,true,Rx,0,8,BB,00,3F,FF,07,E0,00,00,
12126573,02804026,true,Rx,0,8,37,FF,72,95,F7,63,0D,FD,
12126862,02C00020,true,Rx,0,8,00,00,00,00,00,02,75,81,
12127152,19A00002,true,Rx,0,8,12,00,00,00,00,00,00,F7,
12128392,00800006,true,Rx,0,8,81,ED,0E,6C,41,ED,2E,6E,
12128681,0090411E,true,Rx,0,8,02,00,60,00,00,00,00,00,
12128962,0300410E,true,Rx,0,8,B8,B4,18,1B,87,E0,FC,00,
12129241,03800006,true,Rx,0,8,38,00,A1,3D,47,DC,03,32,
12134655,0100082C,true,Rx,0,8,0F,C0,89,B4,66,19,00,7B,
12134931,0110483C,true,Rx,0,8,08,E6,6A,00,44,66,FC,52,
12135211,0340412E,true,Rx,0,8,7B,80,00,4D,80,00,00,00,
12138375,0300410E,true,Rx,0,8,38,B4,98,1B,07,E0,6C,00,
12138665,1B600002,true,Rx,0,8,00,80,00,4C,00,1C,4C,00,
12139686,01C04026,true,Rx,0,8,80,00,80,00,80,00,80,00,
12139965,02000026,true,Rx,0,8,7F,34,00,DC,4E,00,E0,AC,
12140255,02104136,true,Rx,0,8,BB,00,3F,FF,07,E0,00,00,
12140526,02804026,true,Rx,0,8,37,FF,72,36,F7,63,0D,FD,
12140818,02C00020,true,Rx,0,8,00,00,00,00,00,02,75,81,
12141097,19000026,true,Rx,0,8,00,FF,01,40,38,11,84,00,
12144807,0100082C,true,Rx,0,8,0F,C0,89,B4,66,19,00,7B,
12145084,0110483C,true,Rx,0,8,08,E6,6A,00,44,66,FC,52,
12145375,0340412E,true,Rx,0,8,7C,80,00,3D,80,00,00,00,
12148383,00800006,true,Rx,0,8,C9,ED,0E,6C,41,ED,2E,6E,
12148663,0090411E,true,Rx,0,8,02,00,E0,00,00,00,00,00,
12148951,0300410E,true,Rx,0,8,B8,B4,18,1B,87,E0,FC,00,
12149231,03800006,true,Rx,0,8,38,00,A1,3D,47,DC,03,32,
12153667,01C04026,true,Rx,0,8,80,00,80,00,80,00,80,00,
12153943,02000026,true,Rx,0,8,7F,34,00,DC,4E,00,E0,AC,
12154232,02104136,true,Rx,0,8,BB,00,3F,FF,07,E0,00,00,
12154514,02804026,true,Rx,0,8,37,FF,71,D7,F7,63,0D,FD,
12154793,0100082C,true,Rx,0,8,0F,C0,89,B4,66,19,00,7B,
12155074,0110483C,true,Rx,0,8,08,E6,6A,00,44,66,FC,52,
12155364,02C00020,true,Rx,0,8,00,00,00,00,00,02,75,81,
12155643,0340412E,true,Rx,0,8,7D,80,00,2D,80,00,00,00,
12155933,19000026,true,Rx,0,8,00,FF,01,40,38,11,8C,00,
12156222,19A00002,true,Rx,0,8,02,00,00,00,00,00,00,F7,
12158470,0300410E,true,Rx,0,8,B8,B4,18,1B,87,E0,FC,00,
12164625,0100082C,true,Rx,0,8,0F,C0,89,B4,66,19,00,7B,
12164910,0110483C,true,Rx,0,8,08,E6,6A,00,44,66,FC,52,
12165191,0340412E,true,Rx,0,8,7E,80,00,1D,80,00,00,00,
12167674,01C04026,true,Rx,0,8,80,00,80,00,80,00,80,00,
12167954,02000026,true,Rx,0,8,7F,34,00,DC,4E,00,E0,AC,
12168244,02104136,true,Rx,0,8,BB,00,3F,FF,07,E0,00,00,
12168525,00800006,true,Rx,0,8,09,ED,0E,6C,41,ED,AE,6E,
12168807,0090411E,true,Rx,0,8,42,00,E0,00,00,00,00,00,
12169087,02804026,true,Rx,0,8,37,FF,71,78,F7,63,0D,FD,
12169378,02C00020,true,Rx,0,8,00,00,00,00,00,02,75,81,
12169659,0300410E,true,Rx,0,8,38,B4,98,1B,07,E0,6C,00,
12169938,03800006,true,Rx,0,8,38,00,A1,3D,47,DC,03,32,
12170217,19000026,true,Rx,0,8,00,FF,01,40,38,11,84,00,
12170499,19E00006,true,Rx,0,8,00,00,18,C0,6D,00,40,00,
12174807,0100082C,true,Rx,0,8,0F,C0,89,B4,66,19,00,7B,
12175084,0110483C,true,Rx,0,8,08,E6,EA,00,44,66,FC,52,
12175364,0340412E,true,Rx,0,8,7F,80,00,0D,80,00,00,00,
12178414,0300410E,true,Rx,0,8,B8,B4,18,1B,87,E0,FC,00,
12181693,01C04026,true,Rx,0,8,80,00,80,00,80,00,80,00,
12181980,02000026,true,Rx,0,8,7F,34,00,DC,4E,00,E0,AC,
12182259,02104136,true,Rx,0,8,BB,00,3F,FF,07,E0,00,00,
12182540,02804026,true,Rx,0,8,37,FF,71,18,F7,63,0D,FD,
12182820,02C00020,true,Rx,0,8,00,00,00,00,00,02,75,81,
12183120,19A00002,true,Rx,0,8,12,00,00,00,00,00,00,F7,
12184806,0100082C,true,Rx,0,8,0F,C0,89,B4,66,19,00,7B,
12185087,0110483C,true,Rx,0,8,08,E6,6A,00,44,66,FC,52,
12185378,0340412E,true,Rx,0,8,70,80,00,FD,80,00,00,00,
12185657,19000026,true,Rx,0,8,00,FF,01,40,38,11,8C,00,
12188428,00800006,true,Rx,0,8,41,ED,0E,6C,41,ED,2E,6E,
12188723,0090411E,true,Rx,0,8,02,00,60,00,00,00,00,00,
12189004,0300410E,true,Rx,0,8,38,B4,18,1B,07,E0,6C,00,
12189283,03800006,true,Rx,0,8,38,00,A1,3D,47,DC,03,32,
12191893,1B200002,true,Rx,0,8,00,00,00,00,00,00,0F,71,
12194684,0100082C,true,Rx,0,8,0F,C0,89,B4,66,19,00,7B,
12194971,0110483C,true,Rx,0,8,08,E6,6A,00,44,66,FC,52,
12195250,0340412E,true,Rx,0,8,71,80,00,ED,80,00,00,00,
12195686,01C04026,true,Rx,0,8,80,00,80,00,80,00,80,00,
12195966,02000026,true,Rx,0,8,7F,34,00,DC,4E,00,E0,AC,
12196256,02104136,true,Rx,0,8,BB,00,3F,FF,07,E0,00,00,
12196528,02804026,true,Rx,0,8,37,FF,70,B9,F7,63,0D,FD,
12196824,02C00020,true,Rx,0,8,00,00,00,00,00,02,75,81,
12198465,0300410E,true,Rx,0,8,B8,B4,98,1B,87,E0,FC,00,
12199990,19000026,true,Rx,0,8,00,FF,01,40,38,11,84,00,
12204740,0100082C,true,Rx,0,8,0F,C0,89,B4,66,19,00,7B,
12205016,0110483C,true,Rx,0,8,08,E6,6A,00,44,66,FC,52,
12205306,0340412E,true,Rx,0,8,72,80,00,DD,80,00,00,00,
12208439,00800006,true,Rx,0,8,89,ED,0E,6C,41,ED,AE,6E,
12208728,0090411E,true,Rx,0,8,C2,00,E0,00,00,00,00,00,
12209007,0300410E,true,Rx,0,8,B8,B4,18,1B,87,E0,FC,00,
12209286,03800006,true,Rx,0,8,78,00,A1,3D,47,DC,03,32,
12209702,01C04026,true,Rx,0,8,80,00,80,00,80,00,80,00,
12209981,02000026,true,Rx,0,8,7F,34,00,DC,4E,00,E0,AC,
12210271,02104136,true,Rx,0,8,BB,00,3F,FF,07,E0,00,00,
12210552,02804026,true,Rx,0,8,37,FF,70,5A,F7,63,0D,FD,
12210838,02C00020,true,Rx,0,8,00,00,00,00,00,02,75,81,
12211119,19A00002,true,Rx,0,8,6E,00,00,00,00,00,00,F7,
12214869,0100082C,true,Rx,0,8,0F,C0,89,B4,66,19,00,7B,
12215145,0110483C,true,Rx,0,8,08,E6,6A,00,44,66,FC,52,
12215426,0340412E,true,Rx,0,8,73,80,00,CD,80,00,00,00,
12215717,19000026,true,Rx,0,8,00,FF,01,40,38,11,84,00,
12218459,0300410E,true,Rx,0,8,38,B4,18,1B,07,E0,6C,00,
12218749,19E00006,true,Rx,0,8,00,00,18,E0,6D,00,40,00,
12223650,01C04026,true,Rx,0,8,80,00,80,00,80,00,80,00,
12223925,02000026,true,Rx,0,8,7F,34,00,DC,4E,00,E0,AC,
12224216,02104136,true,Rx,0,8,BB,00,3F,FF,07,E0,00,00,
12224486,02804026,true,Rx,0,8,37,FF,70,00,F7,63,0D,FD,
12224775,0100082C,true,Rx,0,8,0F,C0,89,B4,66,19,00,7B,
12225046,0110483C,true,Rx,0,8,08,E6,EA,00,44,66,FC,52,
12225336,02C00020,true,Rx,0,8,00,00,00,00,00,02,75,81,
12225626,0340412E,true,Rx,0,8,74,80,00,BD,80,00,00,00,
12228487,00800006,true,Rx,0,8,C9,ED,0E,6C,41,ED,2E,6E,
12228774,0090411E,true,Rx,0,8,02,00,E0,00,00,00,00,00,
12229053,0300410E,true,Rx,0,8,B8,B4,98,1B,87,E0,FC,00,
12229333,03800006,true,Rx,0,8,38,00,A1,3D,47,DC,03,32,
12229922,19000026,true,Rx,0,8,00,FF,01,40,38,11,8C,00,
12234782,0100082C,true,Rx,0,8,0F,C0,89,B4,76,19,00,7B,
12235058,0110483C,true,Rx,0,8,08,E6,6A,00,44,66,FC,52,
12235339,0340412E,true,Rx,0,8,75,80,00,AD,80,00,00,00,
12237687,01C04026,true,Rx,0,8,80,00,80,00,80,00,80,00,
12237968,02000026,true,Rx,0,8,7F,34,00,DC,4E,00,E0,AC,
12238257,02104136,true,Rx,0,8,BB,00,3F,FF,07,E0,00,00,
12238527,02804026,true,Rx,0,8,37,FF,70,00,F7,63,0D,FD,
12238818,02C00020,true,Rx,0,8,00,00,00,00,00,02,75,81,
12239102,0300410E,true,Rx,0,8,B8,B4,18,1B,87,E0,FC,00,
12239393,19A00002,true,Rx,0,8,12,00,00,00,00,00,00,F7,
12244660,0100082C,true,Rx,0,8,0F,C0,89,B4,66,19,00,7B,
12244936,0110483C,true,Rx,0,8,08,E6,6A,00,44,66,FC,52,
12245226,0340412E,true,Rx,0,8,76,80,00,9D,80,00,00,00,
12245506,19000026,true,Rx,0,8,00,FF,01,40,38,11,84,00,
12248486,00800006,true,Rx,0,8,01,ED,0E,6C,41,ED,2E,6E,
12248783,0090411E,true,Rx,0,8,02,00,60,00,00,00,00,00,
12249063,0300410E,true,Rx,0,8,38,B4,18,1B,07,E0,6C,00,
12249343,03800006,true,Rx,0,8,38,00,A1,3D,47,DC,03,32,
12249829,1BA0493C,true,Rx,0,8,0D,01,02,01,01,01,01,01,
12250109,1BE0493C,true,Rx,0,8,01,00,2A,6D,E2,7B,FD,FB,
12251692,01C04026,true,Rx,0,8,80,00,80,00,80,00,80,00,
12251973,02000026,true,Rx,0,8,7F,34,00,DC,4E,00,E0,AC,
12252262,02104136,true,Rx,0,8,BB,00,3F,FF,07,E0,00,00,
12252543,02804026,true,Rx,0,8,37,FF,70,00,F7,63,0D,FD,
12252826,02C00020,true,Rx,0,8,00,00,00,00,00,02,75,81,
12254842,0100082C,true,Rx,0,8,0F,C0,89,B4,66,19,00,7B,
12255123,0110483C,true,Rx,0,8,08,E6,6A,00,44,66,FC,52,
12255403,0340412E,true,Rx,0,8,77,80,00,8D,80,00,00,00,
12258496,0300410E,true,Rx,0,8,B8,B4,98,1B,87,E0,FC,00,
12259926,19000026,true,Rx,0,8,00,FF,01,40,38,11,8C,00,
12264696,0100082C,true,Rx,0,8,0F,C0,89,B4,66,19,00,7B,
12264982,0110483C,true,Rx,0,8,08,E6,6A,00,44,66,FC,52,
12265262,0340412E,true,Rx,0,8,78,80,00,7D,80,00,00,00,
12265677,01C04026,true,Rx,0,8,80,00,80,00,80,00,80,00,
12265956,02000026,true,Rx,0,8,7F,34,00,DC,4E,00,E0,AC,
12266235,02104136,true,Rx,0,8,BB,00,3F,FF,07,E0,00,00,
12266518,02804026,true,Rx,0,8,37,FF,70,00,F7,63,0D,FD,
12266804,02C00020,true,Rx,0,8,00,00,00,00,00,02,75,81,
12267093,19A00002,true,Rx,0,8,02,00,00,00,00,00,00,F7,
12268528,00800006,true,Rx,0,8,49,ED,0E,6C,41,ED,AE,6E,
12268819,0090411E,true,Rx,0,8,42,00,E0,00,00,00,00,00,
12269098,0300410E,true,Rx,0,8,38,B4,18,1B,07,E0,6C,00,
12269379,03800006,true,Rx,0,8,38,00,A1,3D,47,DC,03,32,
12269659,19E00006,true,Rx,0,8,00,00,18,C0,6D,00,40,00,
12274714,0100082C,true,Rx,0,8,0F,C0,89,B4,66,19,00,7B,
12274991,0110483C,true,Rx,0,8,08,E6,EA,00,44,66,FC,52,
12275280,0340412E,true,Rx,0,8,79,80,00,6D,80,00,00,00,
12275561,19000026,true,Rx,0,8,00,FF,01,40,38,11,84,00,
12276862,1B200002,true,Rx,0,8,00,00,00,00,00,00,0F,71,
12278523,0300410E,true,Rx,0,8,B8,B4,18,1B,87,E0,FC,00,
12279698,01C04026,true,Rx,0,8,80,00,80,00,80,00,80,00,
12279977,02000026,true,Rx,0,8,7F,34,00,DC,4E,00,E0,AC,
12280258,02104136,true,Rx,0,8,BB,00,3F,FF,07,E0,00,00,
12280538,02804026,true,Rx,0,8,37,FF,70,00,F7,63,0D,FD,
12280830,02C00020,true,Rx,0,8,00,00,00,00,00,02,75,81,
12284774,0100082C,true,Rx,0,8,0F,C0,89,B4,66,18,00,7B,
12285050,0110483C,true,Rx,0,8,08,E6,6A,00,44,66,FC,52,
12285341,0340412E,true,Rx,0,8,7A,80,00,5D,80,00,00,00,
12288515,00800006,true,Rx,0,8,89,ED,0E,6C,41,ED,2E,6E,
12288805,0090411E,true,Rx,0,8,02,00,E0,00,00,00,00,00,
12289083,0300410E,true,Rx,0,8,B8,B4,98,1B,87,E0,FC,00,
12289364,03800006,true,Rx,0,8,38,00,A1,3D,47,DC,03,32,
12289932,19000026,true,Rx,0,8,00,FF,01,40,38,11,8C,00,
12293679,01C04026,true,Rx,0,8,80,00,80,00,80,00,80,00,
12293955,02000026,true,Rx,0,8,7F,34,00,DC,4E,00,E0,AC,
12294245,02104136,true,Rx,0,8,BB,00,3F,FF,07,E0,00,00,
12294517,02804026,true,Rx,0,8,37,FF,70,00,F7,63,0D,FD,
12294807,02C00020,true,Rx,0,8,00,00,00,00,00,02,75,81,
12295087,0100082C,true,Rx,0,8,0F,C0,89,B4,66,18,00,7B,
12295367,0110483C,true,Rx,0,8,08,E6,6A,00,44,66,FC,52,
12295648,0340412E,true,Rx,0,8,7B,80,00,4D,80,00,00,00,
12295946,19A00002,true,Rx,0,8,12,00,00,00,00,00,00,F7,
12298561,0300410E,true,Rx,0,8,38,B4,18,1B,07,E0,6C,00,
12304655,0100082C,true,Rx,0,8,0F,C0,89,B4,66,18,00,7B,
12304931,0110483C,true,Rx,0,8,08,E6,6A,00,44,66,FC,52,
12305221,0340412E,true,Rx,0,8,7C,80,00,3D,80,00,00,00,
12305501,19000026,true,Rx,0,8,00,FF,01,40,38,11,84,00,
12305792,1AE0092C,true,Rx,0,8,40,00,22,E0,41,A0,00,00,
12306071,1B700030,true,Rx,0,8,6C,8E,22,00,15,C0,03,00,
12307706,01C04026,true,Rx,0,8,80,00,80,00,80,00,80,00,
12307986,02000026,true,Rx,0,8,7F,34,00,DC,4D,00,E0,AC,
12308276,02104136,true,Rx,0,8,BB,00,3F,FF,07,E0,00,00,
12308546,02804026,true,Rx,0,8,37,FF,70,00,F7,63,0D,FD,
12308829,00800006,true,Rx,0,8,C1,ED,0E,6C,41,ED,AE,6E,
12309119,0090411E,true,Rx,0,8,C2,00,60,00,00,00,00,00,
12309411,02C00020,true,Rx,0,8,00,00,00,00,00,02,75,81,
12309691,0300410E,true,Rx,0,8,B8,B4,18,1B,87,E0,FC,00,
12309970,03800006,true,Rx,0,8,78,00,A1,3D,47,DC,03,32,
12310261,1B600002,true,Rx,0,8,00,80,00,5C,00,1C,4C,00,
12314797,0100082C,true,Rx,0,8,0F,C0,89,B4,66,18,00,7B,
12315082,0110483C,true,Rx,0,8,08,E6,6A,00,44,66,FC,52,
12315363,0340412E,true,Rx,0,8,7D,80,00,2D,80,00,00,00,
12318630,0300410E,true,Rx,0,8,B8,B4,98,1B,87,E0,FC,00,
12318915,19E00006,true,Rx,0,8,00,00,18,E0,6D,00,40,00,
12319937,19000026,true,Rx,0,8,00,FF,01,40,38,11,8C,00,
12321710,01C04026,true,Rx,0,8,80,00,80,00,80,00,80,00,
12321979,02000026,true,Rx,0,8,7F,34,00,DC,4D,00,E0,AC,
12322268,02104136,true,Rx,0,8,BB,00,3F,FF,07,E0,00,00,
12322550,02804026,true,Rx,0,8,37,FF,70,00,F7,63,0D,FD,
12322840,02C00020,true,Rx,0,8,00,00,00,00,00,02,75,81,
12323124,19A00002,true,Rx,0,8,6E,00,00,00,00,00,00,F7,
12324936,0100082C,true,Rx,0,8,0F,C0,89,B4,76,18,00,7B,
12325215,0110483C,true,Rx,0,8,08,E6,EA,00,44,66,FC,52,
12325496,0340412E,true,Rx,0,8,7E,80,00,1D,80,00,00,00,
12328558,00800006,true,Rx,0,8,09,ED,0E,6C,41,ED,2E,6E,
12328849,0090411E,true,Rx,0,8,02,00,E0,00,00,00,00,00,
12329136,0300410E,true,Rx,0,8,38,B4,18,1B,07,E0,6C,00,
12329408,03800006,true,Rx,0,8,38,00,A1,3D,47,DC,03,32,
12334663,0100082C,true,Rx,0,8,0F,C0,89,B4,66,18,00,7B,
12334949,0110483C,true,Rx,0,8,08,E6,6A,00,44,66,FC,52,
12335229,0340412E,true,Rx,0,8,7F,80,00,0D,80,00,00,00,
12335510,19000026,true,Rx,0,8,00,FF,01,40,38,11,84,00,
12335800,01C04026,true,Rx,0,8,80,00,80,00,80,00,80,00,
12336079,02000026,true,Rx,0,8,7F,34,00,DC,4D,00,E0,AC,
12336371,02104136,true,Rx,0,8,BB,00,3F,FF,07,E0,00,00,
12336640,02804026,true,Rx,0,8,37,FF,70,00,F7,63,0D,FD,
12336938,02C00020,true,Rx,0,8,00,00,00,00,00,02,75,81,
12338611,0300410E,true,Rx,0,8,B8,B4,18,1B,87,E0,FC,00,
12344619,0100082C,true,Rx,0,8,0F,C0,89,B4,66,18,00,7B,
12344895,0110483C,true,Rx,0,8,08,E6,6A,00,44,66,FC,52,
12345185,0340412E,true,Rx,0,8,70,80,00,FD,80,00,00,00,
12348586,00800006,true,Rx,0,8,49,ED,0E,6C,41,ED,2E,6E,
12348872,0090411E,true,Rx,0,8,02,00,E0,00,00,00,00,00,
12349151,0300410E,true,Rx,0,8,38,B4,98,1B,07,E0,6C,00,
12349433,03800006,true,Rx,0,8,38,00,A1,3D,47,DC,03,32,
12349722,01C04026,true,Rx,0,8,80,00,80,00,80,00,80,00,
12350002,02000026,true,Rx,0,8,7F,34,00,DC,4D,00,E0,AC,
12350282,02104136,true,Rx,0,8,BB,00,3F,FF,07,E0,00,00,
12350563,02804026,true,Rx,0,8,37,FF,70,00,F7,63,0D,FD,
12350851,02C00020,true,Rx,0,8,00,00,00,00,00,02,75,81,
12351141,19000026,true,Rx,0,8,00,FF,01,40,38,11,84,00,
12351432,19A00002,true,Rx,0,8,12,00,00,00,00,00,00,F7,
12354930,0100082C,true,Rx,0,8,0F,C0,89,B4,66,18,00,7B,
12355205,0110483C,true,Rx,0,8,08,E6,6A,00,44,66,FC,52,
12355487,0340412E,true,Rx,0,8,71,80,00,ED,80,00,00,00,
12358590,0300410E,true,Rx,0,8,B8,B4,18,1B,87,E0,FC,00,
12361837,1B200002,true,Rx,0,8,00,00,00,00,00,00,0F,71,
12363649,01C04026,true,Rx,0,8,80,00,80,00,80,00,80,00,
12363925,02000026,true,Rx,0,8,7F,34,00,DC,4D,00,E0,AC,
12364215,02104136,true,Rx,0,8,BB,00,3F,FF,07,E0,00,00,
12364486,02804026,true,Rx,0,8,37,FF,70,00,F7,63,0D,FD,
12364766,0100082C,true,Rx,0,8,0F,C0,89,B4,66,18,00,7B,
12365045,0110483C,true,Rx,0,8,08,E6,6A,00,44,66,FC,52,
12365336,02C00020,true,Rx,0,8,00,00,00,00,00,02,75,81,
12365617,0340412E,true,Rx,0,8,72,80,00,DD,80,00,00,00,
12365916,19000026,true,Rx,0,8,00,FF,01,40,38,11,8C,00,
12368636,00800006,true,Rx,0,8,81,ED,0E,6C,41,ED,AE,6E,
12368925,0090411E,true,Rx,0,8,42,00,60,00,00,00,00,00,
12369205,0300410E,true,Rx,0,8,B8,B4,18,1B,87,E0,FC,00,
12369486,03800006,true,Rx,0,8,38,00,A1,3D,47,DC,03,32,
12369766,19E00006,true,Rx,0,8,00,00,18,C0,6D,00,40,00,
12374695,0100082C,true,Rx,0,8,0F,C0,89,B4,66,18,00,7B,
12374970,0110483C,true,Rx,0,8,08,E6,EA,00,44,66,FC,52,
12375249,0340412E,true,Rx,0,8,73,80,00,CD,80,00,00,00,
12377671,01C04026,true,Rx,0,8,80,00,80,00,80,00,80,00,
12377941,02000026,true,Rx,0,8,7F,34,00,DC,4D,00,E0,AC,
12378231,02104136,true,Rx,0,8,BB,00,3F,FF,07,E0,00,00,
12378513,02804026,true,Rx,0,8,37,FF,70,00,F7,63,0D,FD,
12378794,02C00020,true,Rx,0,8,00,00,00,00,00,02,75,81,
12379074,0300410E,true,Rx,0,8,38,B4,98,1B,07,E0,6C,00,
12379366,19A00002,true,Rx,0,8,02,00,00,00,00,00,00,F7,
12379933,19000026,true,Rx,0,8,00,FF,01,40,38,11,84,00,
12384762,0100082C,true,Rx,0,8,0F,C0,89,B4,66,18,00,7B,
12385037,0110483C,true,Rx,0,8,08,E6,6A,00,44,66,FC,52,
12385317,0340412E,true,Rx,0,8,74,80,00,BD,80,00,00,00,
12388615,00800006,true,Rx,0,8,C9,ED,0E,6C,41,ED,2E,6E,
12388901,0090411E,true,Rx,0,8,02,00,E0,00,00,00,00,00,
12389180,0300410E,true,Rx,0,8,B8,B4,18,1B,87,E0,FC,00,
12389462,03800006,true,Rx,0,8,38,00,A1,3D,47,DC,03,32,
12391689,01C04026,true,Rx,0,8,80,00,80,00,80,00,80,00,
12391969,02000026,true,Rx,0,8,7F,34,00,DC,4D,00,E0,AC,
12392258,02104136,true,Rx,0,8,BB,00,3F,FF,07,E0,00,00,
12392530,02804026,true,Rx,0,8,37,FF,70,00,F7,63,0D,FD,
12392820,02C00020,true,Rx,0,8,00,00,00,00,00,02,75,81,
12394785,0100082C,true,Rx,0,8,0F,C0,89,B4,66,18,00,7B,
12395060,0110483C,true,Rx,0,8,08,E6,6A,00,44,66,FC,52,
12395351,0340412E,true,Rx,0,8,75,80,00,AD,80,00,00,00,
12395631,19000026,true,Rx,0,8,00,FF,01,40,38,11,8C,00,
12398663,0300410E,true,Rx,0,8,B8,B4,18,1B,87,E0,FC,00,
12404619,0100082C,true,Rx,0,8,0F,C0,89,B4,66,18,00,7B,
12404894,0110483C,true,Rx,0,8,08,E6,6A,00,44,66,FC,52,
12405184,0340412E,true,Rx,0,8,76,80,00,9D,80,00,00,00,
12405660,01C04026,true,Rx,0,8,80,00,80,00,80,00,80,00,
12405940,02000026,true,Rx,0,8,7F,34,00,DC,4D,00,E0,AC,
12406220,02104136,true,Rx,0,8,BB,00,3F,FF,07,E0,00,00,
12406501,02804026,true,Rx,0,8,37,FF,70,1B,F7,63,0D,FD,
12406797,02C00020,true,Rx,0,8,00,00,00,00,00,02,75,81,
12407088,19A00002,true,Rx,0,8,12,00,00,00,00,00,00,F7,
12408667,00800006,true,Rx,0,8,09,ED,0E,6C,41,ED,AE,6E,
12408957,0090411E,true,Rx,0,8,C2,00,E0,00,00,00,00,00,
12409237,0300410E,true,Rx,0,8,38,B4,98,1B,07,E0,6C,00,
12409518,03800006,true,Rx,0,8,78,00,A1,3D,47,DC,03,32,
12409920,1A200020,true,Rx,0,8,CE,00,02,2E,00,6A,02,2E,
12410211,19000026,true,Rx,0,8,00,FF,01,40,38,11,84,00,
12414806,0100082C,true,Rx,0,8,0F,C0,89,B4,76,18,00,7B,
12415091,0110483C,true,Rx,0,8,08,E6,6A,00,44,66,FC,52,
12415373,0340412E,true,Rx,0,8,77,80,00,8D,80,00,00,00,
12418659,0300410E,true,Rx,0,8,B8,B4,18,1B,87,E0,FC,00,
12418944,19E00006,true,Rx,0,8,00,00,18,E0,6D,00,40,00,
12419698,01C04026,true,Rx,0,8,80,00,80,00,80,00,80,00,
12419979,02000026,true,Rx,0,8,7F,34,00,DC,4D,00,E0,AC,
12420269,02104136,true,Rx,0,8,BB,00,3F,FF,07,E0,00,00,
12420539,02804026,true,Rx,0,8,37,FF,70,76,F7,63,0D,FD,
12420830,02C00020,true,Rx,0,8,00,00,00,00,00,02,75,81,
12424765,0100082C,true,Rx,0,8,0F,C0,89,B4,66,18,00,7B,
12425040,0110483C,true,Rx,0,8,08,E6,EA,00,44,66,FC,52,
12425330,0340412E,true,Rx,0,8,78,80,00,7D,80,00,00,00,
12425611,19000026,true,Rx,0,8,00,FF,01,40,38,11,84,00,
12428673,00800006,true,Rx,0,8,41,ED,0E,6C,41,ED,2E,6E,
12428959,0090411E,true,Rx,0,8,02,00,60,00,00,00,00,00,
12429239,0300410E,true,Rx,0,8,38,B4,18,1B,07,E0,6C,00,
12429520,03800006,true,Rx,0,8,38,00,A1,3D,47,DC,03,32,
12433638,01C04026,true,Rx,0,8,80,00,80,00,80,00,80,00,
12433915,02000026,true,Rx,0,8,7F,34,00,DC,4D,00,E0,AC,
12434194,02104136,true,Rx,0,8,BB,00,3F,FF,07,E0,00,00,
12434474,02804026,true,Rx,0,8,37,FF,70,D3,F7,63,0D,FD,
12434765,02C00020,true,Rx,0,8,00,00,00,00,00,02,75,81,
12435045,0100082C,true,Rx,0,8,0F,C0,89,B4,66,18,00,7B,
12435325,0110483C,true,Rx,0,8,08,E6,6A,00,44,66,FC,52,
12435606,0340412E,true,Rx,0,8,79,80,00,6D,80,00,00,00,
12435894,19A00002,true,Rx,0,8,6E,00,00,00,00,00,00,F7,
12438695,0300410E,true,Rx,0,8,B8,B4,98,1B,87,E0,FC,00,
12439938,19000026,true,Rx,0,8,00,FF,01,40,38,11,8C,00,
12444745,0100082C,true,Rx,0,8,0F,C0,89,B4,66,18,00,7B,
12445020,0110483C,true,Rx,0,8,08,E6,6A,00,44,66,FC,52,
12445299,0340412E,true,Rx,0,8,7A,80,00,5D,80,00,00,00,
12446856,1B200002,true,Rx,0,8,00,00,00,00,00,00,0F,71,
12447673,01C04026,true,Rx,0,8,80,00,80,00,80,00,80,00,
12447942,02000026,true,Rx,0,8,7F,34,00,DC,4D,00,E0,AC,
12448231,02104136,true,Rx,0,8,BB,00,3F,FF,07,E0,00,00,
12448513,02804026,true,Rx,0,8,37,FF,71,31,F7,63,0D,FD,
12448782,00800006,true,Rx,0,8,89,ED,0E,6C,41,ED,2E,6E,
12449068,0090411E,true,Rx,0,8,02,00,E0,00,00,00,00,00,
12449360,02C00020,true,Rx,0,8,00,00,00,00,00,02,75,81,
12449639,0300410E,true,Rx,0,8,B8,B4,18,1B,87,E0,FC,00,
12449918,03800006,true,Rx,0,8,38,00,A1,3D,47,DC,03,32,
12454716,0100082C,true,Rx,0,8,0F,C0,89,B4,66,18,00,7B,
12454992,0110483C,true,Rx,0,8,08,E6,6A,00,44,66,FC,52,
12455271,0340412E,true,Rx,0,8,7B,80,00,4D,80,00,00,00,
12455563,19000026,true,Rx,0,8,00,FF,01,40,38,11,84,00,
12458697,0300410E,true,Rx,0,8,38,B4,18,1B,07,E0,6C,00,
12461668,01C04026,true,Rx,0,8,80,00,80,00,80,00,80,00,
12461954,02000026,true,Rx,0,8,7F,34,00,DC,4D,00,E0,AC,
12462234,02104136,true,Rx,0,8,BB,00,3F,FF,07,E0,00,00,
12462515,02804026,true,Rx,0,8,37,FF,71,8F,F7,63,0D,FD,
12462804,02C00020,true,Rx,0,8,00,00,00,00,00,02,75,81,
12463095,19A00002,true,Rx,0,8,12,00,00,00,00,00,00,F7,
12464802,0100082C,true,Rx,0,8,0F,C0,89,B4,66,18,00,7B,
12465081,0110483C,true,Rx,0,8,08,E6,6A,00,44,66,FC,52,
12465363,0340412E,true,Rx,0,8,7C,80,00,3D,80,00,00,00,
12468698,00800006,true,Rx,0,8,C9,ED,0E,6C,41,ED,AE,6E,
12468983,0090411E,true,Rx,0,8,42,00,E0,00,00,00,00,00,
12469264,0300410E,true,Rx,0,8,B8,B4,98,1B,87,E0,FC,00,
12469544,03800006,true,Rx,0,8,38,00,A1,3D,47,DC,03,32,
12469824,19E00006,true,Rx,0,8,00,00,18,C0,6D,00,40,00,
12470114,19000026,true,Rx,0,8,00,FF,01,40,38,11,8C,00,
12474800,0100082C,true,Rx,0,8,0F,C0,89,B4,66,18,00,7B,
12475086,0110483C,true,Rx,0,8,08,E6,EA,00,44,66,FC,52,
12475367,0340412E,true,Rx,0,8,7D,80,00,2D,80,00,00,00,
12475688,01C04026,true,Rx,0,8,80,00,80,00,80,00,80,00,
12475967,02000026,true,Rx,0,8,7F,34,00,DC,4D,00,E0,AC,
12476248,02104136,true,Rx,0,8,BB,00,3F,FF,07,E0,00,00,
12476528,02804026,true,Rx,0,8,37,FF,71,ED,F7,63,0D,FD,
12476819,02C00020,true,Rx,0,8,00,00,00,00,00,02,75,81,
12478756,0300410E,true,Rx,0,8,B8,B4,18,1B,87,E0,FC,00,
12479041,1B600002,true,Rx,0,8,00,80,00,4C,00,1C,4C,00,
12484718,0100082C,true,Rx,0,8,0F,C0,89,B4,66,18,00,7B,
12485004,0110483C,true,Rx,0,8,08,E6,6A,00,44,66,FC,52,
12485284,0340412E,true,Rx,0,8,7E,80,00,1D,80,00,00,00,
12485565,19000026,true,Rx,0,8,00,FF,01,40,38,11,84,00,
12488730,00800006,true,Rx,0,8,01,ED,0E,6C,41,ED,2E,6E,
12489015,0090411E,true,Rx,0,8,02,00,60,00,00,00,00,00,
12489306,0300410E,true,Rx,0,8,38,B4,18,1B,07,E0,6C,00,
12489586,03800006,true,Rx,0,8,38,00,A1,3D,47,DC,03,32,
12489877,01C04026,true,Rx,0,8,80,00,80,00,80,00,80,00,
12490146,02000026,true,Rx,0,8,7F,34,00,DC,4D,00,E0,AC,
12490437,02104136,true,Rx,0,8,BB,00,3F,FF,07,E0,00,00,
12490707,02804026,true,Rx,0,8,37,FF,72,4C,F7,63,0D,FD,
12490995,02C00020,true,Rx,0,8,00,00,00,00,00,02,75,81,
12491285,19A00002,true,Rx,0,8,02,00,00,00,00,00,00,F7,
12494821,0100082C,true,Rx,0,8,0F,C0,89,B4,66,18,00,7B,
12495106,0110483C,true,Rx,0,8,08,E6,6A,00,44,66,FC,52,
12495388,0340412E,true,Rx,0,8,7F,80,00,0D,80,00,00,00,
12498736,0300410E,true,Rx,0,8,B8,B4,98,1B,87,E0,FC,00,
12499661,1BA0493C,true,Rx,0,8,0E,01,01,01,02,02,01,02,
12499952,19000026,true,Rx,0,8,00,FF,01,40,38,11,8C,00,
12500231,1BE0493C,true,Rx,0,8,02,4A,8B,00,3E,04,19,24,
12503679,01C04026,true,Rx,0,8,80,00,80,00,80,00,80,00,
12503956,02000026,true,Rx,0,8,7F,34,00,DC,4D,00,E0,AC,
12504245,02104136,true,Rx,0,8,BB,00,3F,FF,07,E0,00,00,
12504517,02804026,true,Rx,0,8,37,FF,72,AB,F7,63,0D,FD,
12504806,02C00020,true,Rx,0,8,00,00,00,00,00,02,75,81,
12505096,0100082C,true,Rx,0,8,0F,C0,89,B4,76,18,00,7B,
12505377,0110483C,true,Rx,0,8,08,E6,6A,00,44,66,FC,52,
12505657,0340412E,true,Rx,0,8,70,80,00,FD,80,00,00,00,
12508764,00800006,true,Rx,0,8,49,ED,0E,6C,41,ED,AE,6E,
12509060,0090411E,true,Rx,0,8,C2,00,E0,00,00,00,00,00,
12509341,0300410E,true,Rx,0,8,38,B4,18,1B,07,E0,6C,00,
12509621,03800006,true,Rx,0,8,78,00,A1,3D,47,DC,03,32,
12514726,0100082C,true,Rx,0,8,0F,C0,89,B4,66,18,00,7B,
12515001,0110483C,true,Rx,0,8,08,E6,6A,00,44,66,FC,52,
12515282,0340412E,true,Rx,0,8,71,80,00,ED,80,00,00,00,
12515572,19000026,true,Rx,0,8,00,FF,01,40,38,11,84,00,
12515852,1B700030,true,Rx,0,8,7C,8E,22,00,22,C0,03,00,
12517670,01C04026,true,Rx,0,8,80,00,80,00,80,00,80,00,
12517950,02000026,true,Rx,0,8,7F,34,00,DC,4D,00,E0,AC,
12518239,02104136,true,Rx,0,8,BB,00,3F,FF,07,E0,00,00,
12518511,02804026,true,Rx,0,8,37,FF,73,0A,F7,63,0D,FD,
12518803,02C00020,true,Rx,0,8,00,00,00,00,00,02,75,81,
12519083,0300410E,true,Rx,0,8,B8,B4,18,1B,87,E0,FC,00,
12519374,19A00002,true,Rx,0,8,12,00,00,00,00,00,00,F7,
12519664,19E00006,true,Rx,0,8,00,00,18,E0,6D,00,40,00,
12524698,0100082C,true,Rx,0,8,0F,C0,89,B4,66,18,00,7B,
12524973,0110483C,true,Rx,0,8,08,E6,EA,00,44,66,FC,52,
12525254,0340412E,true,Rx,0,8,72,80,00,DD,80,00,00,00,
12528758,00800006,true,Rx,0,8,89,ED,0E,6C,41,ED,2E,6E,
12529045,0090411E,true,Rx,0,8,02,00,E0,00,00,00,00,00,
12529325,0300410E,true,Rx,0,8,B8,B4,98,1B,87,E0,FC,00,
12529604,03800006,true,Rx,0,8,30,00,A1,3D,47,DC,03,32,
12529947,19000026,true,Rx,0,8,00,FF,01,40,38,11,8C,00,
12531723,01C04026,true,Rx,0,8,80,00,80,00,80,00,80,00,
12532002,02000026,true,Rx,0,8,7F,34,00,DC,4D,00,E0,AC,
12532293,02104136,true,Rx,0,8,BB,00,3F,FF,07,E0,00,00,
12532563,02804026,true,Rx,0,8,37,FF,73,6A,F7,63,0D,FD,
12532855,02C00020,true,Rx,0,8,00,00,00,00,00,02,75,81,
12533146,1B200002,true,Rx,0,8,00,00,00,00,00,00,0F,71,
12534928,0100082C,true,Rx,0,8,0F,C0,89,B4,66,18,00,7B,
12535198,0110483C,true,Rx,0,8,08,E6,6A,00,44,66,FC,52,
12535489,0340412E,true,Rx,0,8,73,80,00,CD,80,00,00,00,
12538778,0300410E,true,Rx,0,8,38,B4,18,1B,07,E0,6C,00,
12544620,0100082C,true,Rx,0,8,0F,C0,89,B4,66,18,00,7B,
12544895,0110483C,true,Rx,0,8,08,E6,6A,00,44,66,FC,52,
12545176,0340412E,true,Rx,0,8,74,80,00,BD,80,00,00,00,
12545466,19000026,true,Rx,0,8,00,FF,01,40,38,11,84,00,
12545756,01C04026,true,Rx,0,8,80,00,80,00,80,00,80,00,
12546026,02000026,true,Rx,0,8,7F,34,00,DC,4D,00,E0,AC,
12546317,02104136,true,Rx,0,8,BB,00,3F,FF,07,E0,00,00,
12546596,02804026,true,Rx,0,8,37,FF,73,C9,F7,63,0D,FD,
12546886,02C00020,true,Rx,0,8,00,00,00,00,00,02,75,81,
12547165,19A00002,true,Rx,0,8,6E,00,00,00,00,00,00,F7,
12548814,00800006,true,Rx,0,8,C1,ED,0E,6C,41,ED,2E,6E,
12549105,0090411E,true,Rx,0,8,02,00,60,00,00,00,00,00,
12549385,0300410E,true,Rx,0,8,B8,B4,18,1B,87,E0,FC,00,
12549665,03800006,true,Rx,0,8,30,00,A1,3D,47,DC,03,32,
12554699,0100082C,true,Rx,0,8,0F,C0,89,B4,66,18,00,7B,
12554975,0110483C,true,Rx,0,8,08,E6,6A,00,44,66,FC,52,
12555255,0340412E,true,Rx,0,8,75,80,00,AD,80,00,00,00,
12558810,0300410E,true,Rx,0,8,B8,B4,98,1B,87,E0,FC,00,
12559735,01C04026,true,Rx,0,8,80,00,80,00,80,00,80,00,
12560005,02000026,true,Rx,0,8,7F,34,00,DC,4D,00,E0,AC,
12560295,02104136,true,Rx,0,8,BB,00,3F,FF,07,E0,00,00,
12560567,02804026,true,Rx,0,8,37,FF,74,28,F7,63,0D,FD,
12560869,02C00020,true,Rx,0,8,00,00,00,00,00,02,75,81,
12561148,19000026,true,Rx,0,8,00,FF,01,40,38,11,84,00,
12564849,0100082C,true,Rx,0,8,0F,C0,89,B4,66,18,00,7B,
12565125,0110483C,true,Rx,0,8,08,E6,6A,00,44,66,FC,52,
12565406,0340412E,true,Rx,0,8,76,80,00,9D,80,00,00,00,
12568796,00800006,true,Rx,0,8,09,ED,0E,6C,41,ED,AE,6E,
12569083,0090411E,true,Rx,0,8,42,00,E0,00,00,00,00,00,
12569374,0300410E,true,Rx,0,8,38,B4,18,1B,07,E0,6C,00,
12569653,03800006,true,Rx,0,8,30,00,A1,3D,47,DC,03,32,
12569934,19E00006,true,Rx,0,8,00,00,18,C0,6D,00,40,00,
12573683,01C04026,true,Rx,0,8,80,00,80,00,80,00,80,00,
12573969,02000026,true,Rx,0,8,7F,34,00,DC,4D,00,E0,AC,
12574248,02104136,true,Rx,0,8,BB,00,3F,FF,07,E0,00,00,
12574530,02804026,true,Rx,0,8,37,FF,74,88,F7,63,0D,FD,
12574809,0100082C,true,Rx,0,8,0F,C0,89,B4,66,18,00,7B,
12575088,0110483C,true,Rx,0,8,08,E6,EA,00,44,66,FC,52,
12575380,02C00020,true,Rx,0,8,00,00,00,00,00,02,75,81,
12575660,0340412E,true,Rx,0,8,77,80,00,8D,80,00,00,00,
12575949,19000026,true,Rx,0,8,00,FF,01,40,38,11,8C,00,
12576239,19A00002,true,Rx,0,8,12,00,00,00,00,00,00,F7,
12578845,0300410E,true,Rx,0,8,B8,B4,18,1B,87,E0,FC,00,
12584652,0100082C,true,Rx,0,8,0F,C0,89,B4,66,18,00,7B,
12584937,0110483C,true,Rx,0,8,08,E6,6A,00,44,66,FC,52,
12585217,0340412E,true,Rx,0,8,78,80,00,7D,80,00,00,00,
12587711,01C04026,true,Rx,0,8,80,00,80,00,80,00,80,00,
12587990,02000026,true,Rx,0,8,7F,34,00,DC,4D,00,E0,AC,
12588271,02104136,true,Rx,0,8,BB,00,3F,FF,07,E0,00,00,
12588552,02804026,true,Rx,0,8,37,FF,74,E7,F7,63,0D,FD,
12588844,02C00020,true,Rx,0,8,00,00,00,00,00,02,75,81,
12589114,00800006,true,Rx,0,8,49,ED,0E,6C,41,ED,2E,6E,
12589405,0090411E,true,Rx,0,8,02,00,E0,00,00,00,00,00,
12589684,0300410E,true,Rx,0,8,38,B4,98,1B,07,E0,6C,00,
12589965,03800006,true,Rx,0,8,30,00,A1,3D,47,DC,03,32,
12590254,19000026,true,Rx,0,8,00,FF,01,40,38,11,84,00,
12594779,0100082C,true,Rx,0,8,0F,C0,89,B4,66,18,00,7B,
12595054,0110483C,true,Rx,0,8,08,E6,6A,00,44,66,FC,52,
12595347,0340412E,true,Rx,0,8,79,80,00,6D,80,00,00,00,
12598828,0300410E,true,Rx,0,8,B8,B4,18,1B,87,E0,FC,00,
12601727,01C04026,true,Rx,0,8,80,00,80,00,80,00,80,00,
12602004,02000026,true,Rx,0,8,7F,34,00,DC,4D,00,E0,AC,
12602293,02104136,true,Rx,0,8,BB,00,3F,FF,07,E0,00,00,
12602564,02804026,true,Rx,0,8,37,FF,75,46,F7,63,0D,FD,
12602854,02C00020,true,Rx,0,8,00,00,00,00,00,02,75,81,
12603144,19A00002,true,Rx,0,8,02,00,00,00,00,00,00,F7,
12604799,0100082C,true,Rx,0,8,0F,C0,89,B4,66,18,00,7B,
12605079,0110483C,true,Rx,0,8,08,E6,6A,00,44,66,FC,52,
12605360,0340412E,true,Rx,0,8,7A,80,00,5D,80,00,00,00,
12605650,19000026,true,Rx,0,8,00,FF,01,40,38,11,8C,00,
12608843,00800006,true,Rx,0,8,81,ED,0E,6C,41,ED,AE,6E,
12609140,0090411E,true,Rx,0,8,C2,00,60,00,00,00,00,00,
12609410,0300410E,true,Rx,0,8,B8,B4,18,1B,87,E0,FC,00,
12609691,03800006,true,Rx,0,8,70,00,A1,3D,47,DC,03,32,
12614721,0100082C,true,Rx,0,8,0F,C0,89,B4,66,18,00,7B,
12615007,0110483C,true,Rx,0,8,08,E6,6A,00,44,66,FC,52,
12615287,0340412E,true,Rx,0,8,7B,80,00,4D,80,00,00,00,
12615722,01C04026,true,Rx,0,8,80,00,80,00,80,00,80,00,
12616002,02000026,true,Rx,0,8,7F,34,00,DC,4D,00,E0,AC,
12616282,02104136,true,Rx,0,8,BB,00,3F,FF,07,E0,00,00,
12616562,02804026,true,Rx,0,8,37,FF,75,A5,F7,63,0D,FD,
12616850,02C00020,true,Rx,0,8,00,00,00,00,00,02,75,81,
12617139,1B200002,true,Rx,0,8,00,00,00,00,00,00,0F,71,
12618880,0300410E,true,Rx,0,8,38,B4,98,1B,07,E0,6C,00,
12619171,19E00006,true,Rx,0,8,00,00,18,E0,6D,00,40,00,
12619936,19000026,true,Rx,0,8,00,FF,01,40,38,11,84,00,
12624731,0100082C,true,Rx,0,8,0F,C0,89,B4,66,18,00,7B,
