Time Stamp,ID,Extended,Dir,Bus,LEN,D1,D2,D3,D4,D5,D6,D7,D8
4841944,0100082C,true,Rx,0,8,0F,C0,91,15,61,FC,00,83,
4842231,1A200020,true,Rx,0,8,AC,00,02,2D,00,00,02,2F,
4842512,1AE0092C,true,Rx,0,8,A0,00,22,20,01,A0,00,00,
4842801,1B700030,true,Rx,0,8,25,8E,22,00,00,00,03,00,
4851896,0100082C,true,Rx,0,8,0F,C0,91,15,65,FC,00,83,
4852171,0110483C,true,Rx,0,8,08,E0,A0,08,44,66,FC,53,
4861889,0100082C,true,Rx,0,8,0F,C0,91,15,65,FC,00,83,
4862165,0110483C,true,Rx,0,8,08,E0,20,00,44,66,FC,53,
4871893,0100082C,true,Rx,0,8,0F,C0,91,15,65,FC,00,83,
4872180,0110483C,true,Rx,0,8,08,E0,20,00,44,66,FC,52,
4876933,1BA0493C,true,Rx,0,8,07,01,03,00,02,01,01,01,
4881935,0100082C,true,Rx,0,8,0F,C0,91,15,65,FC,00,83,
4882211,0110483C,true,Rx,0,8,08,E0,20,00,44,66,FC,52,
4891918,0100082C,true,Rx,0,8,0F,C0,91,15,65,FC,00,83,
4892194,0110483C,true,Rx,0,8,08,E0,20,00,44,66,FC,52,
4901902,0100082C,true,Rx,0,8,0F,C0,91,15,65,FC,00,83,
4902179,0110483C,true,Rx,0,8,08,E0,A0,00,44,66,FC,52,
4911887,0100082C,true,Rx,0,8,0F,C0,91,15,65,FC,00,83,
4912174,0110483C,true,Rx,0,8,08,E0,20,00,44,66,FC,52,
4921892,0100082C,true,Rx,0,8,0F,C0,91,15,65,FC,00,83,
4922179,0110483C,true,Rx,0,8,08,E0,20,00,44,66,FC,52,
4928508,00800006,true,Rx,0,8,60,00,00,00,00,00,00,00,
4928804,0090411E,true,Rx,0,8,00,00,00,00,00,00,00,00,
4929095,0300410E,true,Rx,0,8,00,00,00,00,00,00,00,00,
4929396,03800006,true,Rx,0,8,00,00,00,00,00,00,00,00,
4929685,19E00006,true,Rx,0,8,00,00,00,C0,00,00,00,00,
4929986,1B600002,true,Rx,0,8,00,00,00,00,00,00,00,00,
4930411,0300410E,true,Rx,0,8,00,00,00,00,00,00,00,00,
4932067,0100082C,true,Rx,0,8,0F,C0,91,15,65,FC,00,83,
4932349,0110483C,true,Rx,0,8,08,E0,20,00,44,66,FC,52,
4932637,00800006,true,Rx,0,8,80,00,00,00,00,00,00,00,
4932938,0090411E,true,Rx,0,8,00,00,00,00,00,00,00,00,
4933227,0300410E,true,Rx,0,8,00,00,00,00,00,00,00,00,
4933529,03800006,true,Rx,0,8,00,00,00,00,00,00,00,00,
4934418,0300410E,true,Rx,0,8,00,00,00,00,00,00,00,00,
4940361,00800006,true,Rx,0,8,C1,E0,0D,E0,41,E0,06,30,
4940658,0090411E,true,Rx,0,8,00,00,00,00,00,00,00,00,
4940937,0300410E,true,Rx,0,8,B7,CA,00,00,87,CA,F0,00,
4941227,03800006,true,Rx,0,8,10,00,00,00,00,00,00,00,
4942012,0100082C,true,Rx,0,8,0F,C0,91,15,65,FC,00,83,
4942292,0110483C,true,Rx,0,8,08,E0,20,00,44,66,FC,52,
4950359,0300410E,true,Rx,0,8,37,CA,98,33,07,CA,6C,00,
4950646,19E00006,true,Rx,0,8,00,00,18,E0,67,00,40,00,
4951955,0100082C,true,Rx,0,8,0F,C0,91,15,65,FC,00,83,
4952236,0110483C,true,Rx,0,8,08,E0,A0,00,44,66,FC,52,
4960373,00800006,true,Rx,0,8,09,E6,0D,E6,41,E6,A6,74,
4960660,0090411E,true,Rx,0,8,C2,00,E0,00,00,00,00,00,
4960939,0300410E,true,Rx,0,8,B7,D4,18,33,87,D5,FC,00,
4961239,03800006,true,Rx,0,8,70,00,00,00,00,00,00,00,
4962014,0100082C,true,Rx,0,8,0F,C0,91,15,65,FC,00,83,
4962295,0110483C,true,Rx,0,8,08,E0,20,00,44,66,FC,52,
4970383,0300410E,true,Rx,0,8,37,D4,18,33,07,D5,6C,00,
4971895,0100082C,true,Rx,0,8,0F,C0,91,15,65,FC,00,83,
4972176,0110483C,true,Rx,0,8,08,E0,20,00,44,66,FC,52,
4980384,00800006,true,Rx,0,8,49,EC,0D,EC,41,EC,26,6B,
4980681,0090411E,true,Rx,0,8,02,00,E0,00,00,00,00,00,
4980950,0300410E,true,Rx,0,8,B7,DE,98,33,87,DE,FC,00,
4981251,03800006,true,Rx,0,8,30,00,00,00,00,00,00,00,
4982005,0100082C,true,Rx,0,8,0F,C0,91,15,65,FC,00,83,
4982284,0110483C,true,Rx,0,8,08,E0,20,00,44,66,FC,52,
4990404,0300410E,true,Rx,0,8,B7,DE,18,F1,87,DE,FC,00,
4991915,0100082C,true,Rx,0,8,0F,C0,91,15,65,FC,00,83,
4992196,0110483C,true,Rx,0,8,08,E0,20,00,44,66,FC,52,
5000412,00800006,true,Rx,0,8,89,EC,0D,EC,41,EC,A6,6B,
5000699,0090411E,true,Rx,0,8,42,00,E0,00,00,00,00,00,
5000978,0300410E,true,Rx,0,8,37,DE,98,F1,07,DE,6C,00,
5001279,03800006,true,Rx,0,8,30,00,00,00,00,00,00,00,
5001560,19E00006,true,Rx,0,8,00,00,18,C0,67,00,40,00,
5002025,0100082C,true,Rx,0,8,0F,C0,91,15,65,FC,00,83,
5002304,0110483C,true,Rx,0,8,08,E0,A0,00,44,66,FC,52,
5010415,0300410E,true,Rx,0,8,B7,DE,18,F1,87,DE,FC,00,
5011897,0100082C,true,Rx,0,8,0F,C0,91,15,65,FC,00,83,
5012177,0110483C,true,Rx,0,8,08,E0,20,00,44,66,FC,52,
5020436,00800006,true,Rx,0,8,C1,EC,0D,EC,41,EC,26,6E,
5020732,0090411E,true,Rx,0,8,02,00,60,00,00,00,00,00,
5021001,0300410E,true,Rx,0,8,B7,DE,18,F1,87,DE,FC,00,
5021302,03800006,true,Rx,0,8,30,00,00,00,00,00,00,00,
5021964,0100082C,true,Rx,0,8,0F,C0,91,15,65,FC,00,83,
5022244,0110483C,true,Rx,0,8,08,E0,20,00,44,66,FC,52,
5030446,0300410E,true,Rx,0,8,37,DE,98,F1,07,DE,6C,00,
5031895,0100082C,true,Rx,0,8,0F,C0,91,15,65,FC,00,83,
5032176,0110483C,true,Rx,0,8,08,E2,20,00,44,66,FC,52,
5040454,00800006,true,Rx,0,8,09,EC,0D,EC,41,EC,A6,6E,
5040740,0090411E,true,Rx,0,8,42,00,E0,00,00,00,00,00,
5041009,0300410E,true,Rx,0,8,B7,DE,18,F1,87,DE,FC,00,
5041310,03800006,true,Rx,0,8,30,00,00,00,00,00,00,00,
5042023,0100082C,true,Rx,0,8,0F,C0,91,15,65,FC,00,83,
5042303,0110483C,true,Rx,0,8,08,E2,20,00,44,66,FC,52,
5050464,0300410E,true,Rx,0,8,37,DE,18,F1,07,DE,6C,00,
5050749,19E00006,true,Rx,0,8,00,00,18,E0,67,00,40,00,
5051957,0100082C,true,Rx,0,8,0F,C0,91,15,65,FC,00,83,
5052236,0110483C,true,Rx,0,8,08,E2,A0,00,44,66,FC,52,
5052517,1B700030,true,Rx,0,8,25,8E,22,00,00,00,03,00,
5060472,00800006,true,Rx,0,8,49,EC,0D,EC,41,EC,26,6E,
5060758,0090411E,true,Rx,0,8,82,00,E0,00,00,00,00,00,
5061037,0300410E,true,Rx,0,8,B7,DE,98,F1,87,DE,FC,00,
5061330,03800006,true,Rx,0,8,70,00,00,00,00,00,00,00,
5062001,0100082C,true,Rx,0,8,0F,C0,91,15,65,FC,00,83,
5062280,0110483C,true,Rx,0,8,08,E2,20,00,44,66,FC,52,
5070483,0300410E,true,Rx,0,8,B7,DE,18,F1,87,DE,FC,00,
5070768,1B600002,true,Rx,0,8,00,80,00,40,00,1B,4C,00,
5071976,0100082C,true,Rx,0,8,0F,C0,91,15,65,FC,00,83,
5072265,0110483C,true,Rx,0,8,08,E2,20,00,44,66,FC,52,
5080494,00800006,true,Rx,0,8,81,EC,0D,EC,41,EC,26,6E,
5080780,0090411E,true,Rx,0,8,02,00,60,00,00,00,00,00,
5081059,0300410E,true,Rx,0,8,37,DE,18,F1,07,DE,6C,00,
5081361,03800006,true,Rx,0,8,30,00,00,00,00,00,00,00,
5081971,0100082C,true,Rx,0,8,0F,C0,91,15,65,FC,00,83,
5082250,0110483C,true,Rx,0,8,08,E2,20,00,44,66,FC,52,
5090505,0300410E,true,Rx,0,8,B7,DE,98,F1,87,DE,FC,00,
5091924,0100082C,true,Rx,0,8,0F,C0,91,15,65,FC,00,83,
5092204,0110483C,true,Rx,0,8,08,E2,20,00,44,66,FC,52,
5100513,00800006,true,Rx,0,8,C9,EC,0D,EC,41,EC,A6,6E,
5100799,0090411E,true,Rx,0,8,42,00,E0,00,00,00,00,00,
5101069,0300410E,true,Rx,0,8,B7,DE,18,F1,87,DE,FC,00,
5101370,03800006,true,Rx,0,8,30,00,00,00,00,00,00,00,
5101659,19E00006,true,Rx,0,8,00,00,18,C0,67,00,40,00,
5102032,0100082C,true,Rx,0,8,0F,C0,91,15,65,FC,00,83,
5102302,0110483C,true,Rx,0,8,08,E2,A0,00,44,66,FC,52,
5110519,0300410E,true,Rx,0,8,37,DE,18,F1,07,DE,6C,00,
5111898,0100082C,true,Rx,0,8,0F,C0,91,15,65,FC,00,83,
5112187,0110483C,true,Rx,0,8,08,E2,20,00,44,66,FC,52,
5120537,00800006,true,Rx,0,8,09,EC,0D,EC,41,EC,26,6E,
5120822,0090411E,true,Rx,0,8,02,00,E0,00,00,00,00,00,
5121103,0300410E,true,Rx,0,8,B7,DE,98,F1,87,DE,FC,00,
5121394,03800006,true,Rx,0,8,30,00,00,00,00,00,00,00,
5121982,0100082C,true,Rx,0,8,0F,C0,91,15,65,FC,00,83,
5122272,0110483C,true,Rx,0,8,08,E2,20,00,44,66,FC,52,
5126889,1BA0493C,true,Rx,0,8,08,02,01,12,01,01,01,02,
5130546,0300410E,true,Rx,0,8,37,DE,18,F1,07,DE,6C,00,
5131894,0100082C,true,Rx,0,8,0F,C0,91,15,65,FC,00,83,
5132173,0110483C,true,Rx,0,8,08,E2,20,00,44,66,FC,52,
5140554,00800006,true,Rx,0,8,41,EC,0D,EC,41,EC,A6,6E,
5140840,0090411E,true,Rx,0,8,42,00,60,00,00,00,00,00,
5141120,0300410E,true,Rx,0,8,B7,DE,18,F1,87,DE,FC,00,
5141421,03800006,true,Rx,0,8,30,00,00,00,00,00,00,00,
5142000,0100082C,true,Rx,0,8,0F,C0,91,15,65,FC,00,83,
5142289,0110483C,true,Rx,0,8,08,E2,20,00,44,66,FC,52,
5150555,0300410E,true,Rx,0,8,B7,DE,98,F1,87,DE,FC,00,
5150840,19E00006,true,Rx,0,8,00,00,18,E0,67,00,40,00,
5151956,0100082C,true,Rx,0,8,0F,C0,91,15,65,FC,00,83,
5152225,0110483C,true,Rx,0,8,08,E2,A0,00,44,66,FC,52,
5156910,1A200020,true,Rx,0,8,CE,00,02,2D,00,00,02,2F,
5160576,00800006,true,Rx,0,8,89,EC,0D,EC,41,EC,26,6E,
5160861,0090411E,true,Rx,0,8,82,00,E0,00,00,00,00,00,
5161142,0300410E,true,Rx,0,8,37,DE,18,F1,07,DE,6C,00,
5161443,03800006,true,Rx,0,8,70,00,00,00,00,00,00,00,
5162021,0100082C,true,Rx,0,8,0F,C0,91,15,65,FC,00,83,
5162300,0110483C,true,Rx,0,8,08,E2,20,00,44,66,FC,52,
5170585,0300410E,true,Rx,0,8,B7,DE,18,F1,87,DE,FC,00,
5171892,0100082C,true,Rx,0,8,0F,C0,91,15,65,FC,00,83,
5172182,0110483C,true,Rx,0,8,08,E2,20,00,44,66,FC,52,
5180596,00800006,true,Rx,0,8,C1,EC,0D,EC,41,EC,26,6E,
5180892,0090411E,true,Rx,0,8,02,00,60,00,00,00,00,00,
5181162,0300410E,true,Rx,0,8,B7,DE,18,F1,87,DE,FC,00,
5181463,03800006,true,Rx,0,8,30,00,00,00,00,00,00,00,
5182000,0100082C,true,Rx,0,8,0F,C0,91,15,65,FC,00,83,
5182280,0110483C,true,Rx,0,8,08,E2,20,00,44,66,FC,52,
5190606,0300410E,true,Rx,0,8,37,DE,98,F1,07,DE,6C,00,
5191923,0100082C,true,Rx,0,8,0F,C0,91,15,65,FC,00,83,
5192202,0110483C,true,Rx,0,8,08,E2,20,00,44,66,FC,52,
5200614,00800006,true,Rx,0,8,09,EC,0D,EC,41,EC,A6,6E,
5200901,0090411E,true,Rx,0,8,42,00,E0,00,00,00,00,00,
5201170,0300410E,true,Rx,0,8,B7,DE,18,F1,87,DE,FC,00,
5201471,03800006,true,Rx,0,8,30,00,00,00,00,00,00,00,
5201762,19E00006,true,Rx,0,8,00,00,18,C0,67,00,40,00,
5202051,0100082C,true,Rx,0,8,0F,C0,91,15,65,FC,00,83,
5202322,0110483C,true,Rx,0,8,08,E2,A0,00,44,66,FC,52,
5210616,0300410E,true,Rx,0,8,37,DE,18,F1,07,DE,6C,00,
5211892,0100082C,true,Rx,0,8,0F,C0,91,15,65,FC,00,83,
5212182,0110483C,true,Rx,0,8,08,E2,20,00,44,66,FC,52,
5220634,00800006,true,Rx,0,8,49,EC,0D,EC,41,EC,26,6E,
5220921,0090411E,true,Rx,0,8,02,00,E0,00,00,00,00,00,
5221190,0300410E,true,Rx,0,8,B7,DE,98,F1,87,DE,FC,00,
5221491,03800006,true,Rx,0,8,30,00,00,00,00,00,00,00,
5222018,0100082C,true,Rx,0,8,0F,C0,91,15,65,FC,00,83,
5222297,0110483C,true,Rx,0,8,08,E2,20,00,44,66,FC,52,
5230645,0300410E,true,Rx,0,8,B7,DE,18,F1,87,DE,FC,00,
5231910,0100082C,true,Rx,0,8,0F,C0,91,15,65,FC,00,83,
5232189,0110483C,true,Rx,0,8,08,E2,20,00,44,66,FC,52,
5240653,00800006,true,Rx,0,8,89,EC,0D,EC,41,EC,26,6E,
5240940,0090411E,true,Rx,0,8,02,00,E0,00,00,00,00,00,
5241219,0300410E,true,Rx,0,8,37,DE,98,F1,07,DE,6C,00,
5241520,03800006,true,Rx,0,8,30,00,00,00,00,00,00,00,
5241811,1B600002,true,Rx,0,8,00,80,00,40,00,1B,4C,00,
5242090,0100082C,true,Rx,0,8,0F,C0,91,15,65,FC,00,83,
5242372,0110483C,true,Rx,0,8,08,E2,20,00,44,66,FC,52,
5250658,0300410E,true,Rx,0,8,B7,DE,18,F1,87,DE,FC,00,
5250945,19E00006,true,Rx,0,8,00,00,18,E0,67,00,40,00,
5251966,0100082C,true,Rx,0,8,0F,C0,91,15,65,FC,00,83,
5252245,0110483C,true,Rx,0,8,08,E2,A0,00,44,66,FC,52,
5260671,00800006,true,Rx,0,8,C1,EC,0D,EC,41,EC,A6,6E,
5260968,0090411E,true,Rx,0,8,C2,00,60,00,00,00,00,00,
5261237,0300410E,true,Rx,0,8,B7,DE,18,F1,87,DE,FC,00,
5261538,03800006,true,Rx,0,8,70,00,00,00,00,00,00,00,
5262003,0100082C,true,Rx,0,8,0F,C0,91,15,65,FC,00,83,
5262283,0110483C,true,Rx,0,8,08,E2,20,00,44,66,FC,52,
5262565,1AE0092C,true,Rx,0,8,C0,00,22,E0,41,A0,00,00,
5262851,1B700030,true,Rx,0,8,25,8E,22,00,00,00,03,00,
5270681,0300410E,true,Rx,0,8,37,DE,98,F1,07,DE,6C,00,
5271905,0100082C,true,Rx,0,8,0F,C0,91,15,65,FC,00,83,
5272184,0110483C,true,Rx,0,8,08,E2,20,00,44,66,FC,52,
5280689,00800006,true,Rx,0,8,09,EC,0D,EC,41,EC,26,6E,
5280986,0090411E,true,Rx,0,8,02,00,E0,00,00,00,00,00,
5281255,0300410E,true,Rx,0,8,B7,DE,18,F1,87,DE,FC,00,
5281557,03800006,true,Rx,0,8,30,00,00,00,00,00,00,00,
5281980,0100082C,true,Rx,0,8,0F,C0,91,15,65,FC,00,83,
5282260,0110483C,true,Rx,0,8,08,E2,20,00,44,66,FC,52,
5290699,0300410E,true,Rx,0,8,37,DE,18,F1,07,DE,6C,00,
5291913,0100082C,true,Rx,0,8,0F,C0,91,15,65,FC,00,83,
5292192,0110483C,true,Rx,0,8,08,E2,20,00,44,66,FC,52,
5300707,00800006,true,Rx,0,8,49,EC,0D,EC,41,EC,A6,6E,
5300993,0090411E,true,Rx,0,8,42,00,E0,00,00,00,00,00,
5301272,0300410E,true,Rx,0,8,B7,DE,98,F1,87,DE,FC,00,
5301575,03800006,true,Rx,0,8,30,00,00,00,00,00,00,00,
5301854,19E00006,true,Rx,0,8,00,00,18,C0,67,00,40,00,
5302144,0100082C,true,Rx,0,8,0F,C0,91,15,65,FC,00,83,
5302425,0110483C,true,Rx,0,8,08,E2,A0,00,44,66,FC,52,
5310721,0300410E,true,Rx,0,8,B7,DE,18,F1,87,DE,FC,00,
5311903,0100082C,true,Rx,0,8,0F,C0,91,15,65,FC,00,83,
5312183,0110483C,true,Rx,0,8,08,E2,20,00,44,66,FC,52,
5320731,00800006,true,Rx,0,8,81,EC,0D,EC,41,EC,26,6E,
5321027,0090411E,true,Rx,0,8,02,00,60,00,00,00,00,00,
5321296,0300410E,true,Rx,0,8,37,DE,18,F1,07,DE,6C,00,
5321598,03800006,true,Rx,0,8,30,00,00,00,00,00,00,00,
5321970,0100082C,true,Rx,0,8,0F,C0,91,15,65,FC,00,83,
5322250,0110483C,true,Rx,0,8,08,E2,20,00,44,66,FC,52,
5330740,0300410E,true,Rx,0,8,B7,DE,98,F1,87,DE,FC,00,
5331903,0100082C,true,Rx,0,8,0F,C0,91,15,65,FC,00,83,
5332182,0110483C,true,Rx,0,8,08,E2,20,00,44,66,FC,52,
5340780,00800006,true,Rx,0,8,C9,EC,0D,EC,41,EC,A6,6E,
5341066,0090411E,true,Rx,0,8,42,00,E0,00,00,00,00,00,
5341346,0300410E,true,Rx,0,8,B7,DE,18,F1,87,DE,FC,00,
5341647,03800006,true,Rx,0,8,30,00,00,00,00,00,00,00,
5342009,0100082C,true,Rx,0,8,0F,C0,91,15,65,FC,00,83,
5342290,0110483C,true,Rx,0,8,08,E2,20,00,44,66,FC,52,
5350759,0300410E,true,Rx,0,8,37,DE,18,F1,07,DE,6C,00,
5351044,19E00006,true,Rx,0,8,00,00,18,E0,67,00,40,00,
5351953,0100082C,true,Rx,0,8,0F,C0,91,15,65,FC,00,83,
5352233,0110483C,true,Rx,0,8,08,E2,A0,00,44,66,FC,52,
5360771,00800006,true,Rx,0,8,09,EC,0D,EC,41,EC,26,6E,
5361067,0090411E,true,Rx,0,8,82,00,E0,00,00,00,00,00,
5361337,0300410E,true,Rx,0,8,B7,DE,98,F1,87,DE,FC,00,
5361638,03800006,true,Rx,0,8,70,00,00,00,00,00,00,00,
5362010,0100082C,true,Rx,0,8,0F,C0,91,15,65,FC,00,83,
5362290,0110483C,true,Rx,0,8,08,E2,20,00,44,66,FC,52,
5370780,0300410E,true,Rx,0,8,37,DE,18,F1,07,DE,6C,00,
5371911,0100082C,true,Rx,0,8,0F,C0,91,15,65,FC,00,83,
5372191,0110483C,true,Rx,0,8,08,E2,20,00,44,66,FC,52,
5376923,1BA0493C,true,Rx,0,8,09,00,00,01,01,01,01,01,
5377208,1BE0493C,true,Rx,0,8,01,00,2A,6D,D3,CB,FD,FB,
5380803,00800006,true,Rx,0,8,41,EC,0D,EC,41,EC,26,6E,
5381098,0090411E,true,Rx,0,8,02,00,60,00,00,00,00,00,
5381370,0300410E,true,Rx,0,8,B7,DE,18,F1,87,DE,FC,00,
5381670,03800006,true,Rx,0,8,30,00,00,00,00,00,00,00,
5381959,0100082C,true,Rx,0,8,0F,C0,91,15,65,FC,00,83,
5382240,0110483C,true,Rx,0,8,08,E2,20,00,44,66,FC,52,
5390803,0300410E,true,Rx,0,8,B7,DE,98,F1,87,DE,FC,00,
5391933,0100082C,true,Rx,0,8,0F,C0,91,15,65,FC,00,83,
5392214,0110483C,true,Rx,0,8,08,E2,20,00,44,66,FC,52,
5400811,00800006,true,Rx,0,8,89,EC,0D,EC,41,EC,A6,6E,
5401096,0090411E,true,Rx,0,8,42,00,E0,00,00,00,00,00,
5401368,0300410E,true,Rx,0,8,37,DE,18,F1,07,DE,6C,00,
5401668,03800006,true,Rx,0,8,30,00,00,00,00,00,00,00,
5401958,19E00006,true,Rx,0,8,00,00,18,C0,67,00,40,00,
5402248,0100082C,true,Rx,0,8,0F,C0,91,15,65,FC,00,83,
5402529,0110483C,true,Rx,0,8,08,E2,A0,00,44,66,FC,52,
5410815,0300410E,true,Rx,0,8,B7,DE,18,F1,87,DE,FC,00,
5411111,1B600002,true,Rx,0,8,00,80,00,40,00,1B,4C,00,
5411928,0100082C,true,Rx,0,8,0F,C0,91,15,65,FC,00,83,
5412208,0110483C,true,Rx,0,8,08,E2,20,00,44,66,FC,52,
5420839,00800006,true,Rx,0,8,C1,EC,0D,EC,41,EC,26,6E,
5421125,0090411E,true,Rx,0,8,02,00,60,00,00,00,00,00,
5421407,0300410E,true,Rx,0,8,B7,DE,18,F1,87,DE,FC,00,
5421706,03800006,true,Rx,0,8,30,00,00,00,00,00,00,00,
5421986,0100082C,true,Rx,0,8,0F,C0,91,15,65,FC,00,83,
5422266,0110483C,true,Rx,0,8,08,E2,20,00,44,66,FC,52,
5430839,0300410E,true,Rx,0,8,37,DE,98,F1,07,DE,6C,00,
5431908,0100082C,true,Rx,0,8,0F,C0,91,15,65,FC,00,83,
5432188,0110483C,true,Rx,0,8,08,E2,20,00,44,66,FC,52,
5440850,00800006,true,Rx,0,8,09,EC,0D,EC,41,EC,A6,6E,
5441135,0090411E,true,Rx,0,8,42,00,E0,00,00,00,00,00,
5441417,0300410E,true,Rx,0,8,B7,DE,18,F1,87,DE,FC,00,
5441707,03800006,true,Rx,0,8,30,00,00,00,00,00,00,00,
5441996,0100082C,true,Rx,0,8,0F,C0,91,15,65,FC,00,83,
5442277,0110483C,true,Rx,0,8,08,E2,20,00,44,66,FC,52,
5450860,0300410E,true,Rx,0,8,37,DE,18,F1,07,DE,6C,00,
5451145,19E00006,true,Rx,0,8,00,00,18,E0,67,00,40,00,
5451951,0100082C,true,Rx,0,8,0F,C0,91,15,65,FC,00,83,
5452232,0110483C,true,Rx,0,8,08,E2,A0,00,44,66,FC,52,
5460872,00800006,true,Rx,0,8,49,EC,0D,EC,41,EC,26,6E,
5461157,0090411E,true,Rx,0,8,82,00,E0,00,00,00,00,00,
5461429,0300410E,true,Rx,0,8,B7,DE,98,F1,87,DE,FC,00,
5461729,03800006,true,Rx,0,8,70,00,00,00,00,00,00,00,
5462019,0100082C,true,Rx,0,8,0F,C0,91,15,65,FC,00,83,
5462298,0110483C,true,Rx,0,8,08,E2,20,00,44,66,FC,52,
5470881,0300410E,true,Rx,0,8,B7,DE,18,F1,87,DE,FC,00,
5471960,0100082C,true,Rx,0,8,0F,C0,91,15,65,FC,00,83,
5472241,0110483C,true,Rx,0,8,08,E2,20,00,44,66,FC,52,
5472521,1A200020,true,Rx,0,8,0E,00,02,2D,00,00,02,2F,
5472812,1B700030,true,Rx,0,8,35,8E,22,00,00,00,03,00,
5480888,00800006,true,Rx,0,8,89,EC,0D,EC,41,EC,26,6E,
5481174,0090411E,true,Rx,0,8,02,00,E0,00,00,00,00,00,
5481456,0300410E,true,Rx,0,8,37,DE,98,F1,07,DE,6C,00,
5481756,03800006,true,Rx,0,8,30,00,00,00,00,00,00,00,
5482046,0100082C,true,Rx,0,8,0F,C0,91,15,65,FC,00,83,
5482327,0110483C,true,Rx,0,8,08,E2,20,00,44,66,FC,52,
5490898,0300410E,true,Rx,0,8,B7,DE,18,F1,87,DE,FC,00,
5491946,0100082C,true,Rx,0,8,0F,C0,91,15,65,FC,00,83,
5492227,0110483C,true,Rx,0,8,08,E2,20,00,44,66,FC,52,
5500917,00800006,true,Rx,0,8,C1,EC,0D,EC,41,EC,A6,6E,
5501203,0090411E,true,Rx,0,8,42,00,60,00,00,00,00,00,
5501474,0300410E,true,Rx,0,8,B7,DE,18,F1,87,DE,FC,00,
5501773,03800006,true,Rx,0,8,30,00,00,00,00,00,00,00,
5502064,0100082C,true,Rx,0,8,0F,C0,91,15,65,FC,00,83,
5502345,0110483C,true,Rx,0,8,08,E2,A0,00,44,66,FC,52,
5502624,19E00006,true,Rx,0,8,00,00,18,C0,67,00,40,00,
5510920,0300410E,true,Rx,0,8,37,DE,98,F1,07,DE,6C,00,
5511939,0100082C,true,Rx,0,8,0F,C0,91,15,65,FC,00,83,
5512218,0110483C,true,Rx,0,8,08,E2,20,00,44,66,FC,52,
5520928,00800006,true,Rx,0,8,09,EC,0D,EC,41,EC,26,6E,
5521225,0090411E,true,Rx,0,8,02,00,E0,00,00,00,00,00,
5521496,0300410E,true,Rx,0,8,B7,DE,18,F1,87,DE,FC,00,
5521796,03800006,true,Rx,0,8,30,00,00,00,00,00,00,00,
5522087,0100082C,true,Rx,0,8,0F,C0,91,15,65,FC,00,83,
5522367,0110483C,true,Rx,0,8,08,E2,20,00,44,66,FC,52,
5530938,0300410E,true,Rx,0,8,37,DE,18,F1,07,DE,6C,00,
5531936,0100082C,true,Rx,0,8,0F,C0,91,15,65,FC,00,83,
5532226,0110483C,true,Rx,0,8,08,E2,20,00,44,66,FC,52,
5540946,00800006,true,Rx,0,8,49,EC,0D,EC,41,EC,26,6E,
5541243,0090411E,true,Rx,0,8,02,00,E0,00,00,00,00,00,
5541513,0300410E,true,Rx,0,8,B7,DE,98,F1,87,DE,FC,00,
5541813,03800006,true,Rx,0,8,30,00,00,00,00,00,00,00,
5542104,0100082C,true,Rx,0,8,0F,C0,91,15,65,FC,00,83,
5542384,0110483C,true,Rx,0,8,08,E2,20,00,44,66,FC,52,
5550955,0300410E,true,Rx,0,8,B7,DE,18,F1,87,DE,FC,00,
5551242,19E00006,true,Rx,0,8,00,00,18,E0,67,00,40,00,
5551976,0100082C,true,Rx,0,8,0F,C0,91,15,65,FC,00,83,
5552255,0110483C,true,Rx,0,8,08,E2,A0,00,44,66,FC,52,
5560968,00800006,true,Rx,0,8,81,EC,0D,EC,41,EC,A6,6E,
5561265,0090411E,true,Rx,0,8,C2,00,60,00,00,00,00,00,
5561546,0300410E,true,Rx,0,8,37,DE,18,F1,07,DE,6C,00,
5561835,03800006,true,Rx,0,8,70,00,00,00,00,00,00,00,
5562126,0100082C,true,Rx,0,8,0F,C0,91,15,65,FC,00,83,
5562407,0110483C,true,Rx,0,8,08,E2,20,00,44,66,FC,52,
5570978,0300410E,true,Rx,0,8,B7,DE,98,F1,87,DE,FC,00,
5571925,0100082C,true,Rx,0,8,0F,C0,91,15,65,FC,00,83,
5572204,0110483C,true,Rx,0,8,08,E2,20,00,44,66,FC,52,
5580986,00800006,true,Rx,0,8,C9,EC,0D,EC,41,EC,26,6E,
5581273,0090411E,true,Rx,0,8,02,00,E0,00,00,00,00,00,
5581554,0300410E,true,Rx,0,8,B7,DE,18,F1,87,DE,FC,00,
5581855,03800006,true,Rx,0,8,30,00,00,00,00,00,00,00,
5582134,0100082C,true,Rx,0,8,0F,C0,91,15,65,FC,00,83,
5582414,0110483C,true,Rx,0,8,08,E2,20,00,44,66,FC,52,
5582705,1B600002,true,Rx,0,8,00,80,00,40,00,1B,4C,00,
5591000,0300410E,true,Rx,0,8,37,DE,18,F1,07,DE,6C,00,
5591936,0100082C,true,Rx,0,8,0F,C0,91,15,65,FC,00,83,
5592226,0110483C,true,Rx,0,8,08,E2,20,00,44,66,FC,52,
5601008,00800006,true,Rx,0,8,09,EC,0D,EC,41,EC,A6,6E,
5601295,0090411E,true,Rx,0,8,42,00,E0,00,00,00,00,00,
5601575,0300410E,true,Rx,0,8,B7,DE,98,F1,87,DE,FC,00,
5601876,03800006,true,Rx,0,8,30,00,00,00,00,00,00,00,
5602156,0100082C,true,Rx,0,8,0F,C0,91,15,65,FC,00,83,
5602436,0110483C,true,Rx,0,8,08,E2,A0,00,44,66,FC,52,
5602727,19E00006,true,Rx,0,8,00,00,18,C0,67,00,40,00,
5611023,0300410E,true,Rx,0,8,37,DE,18,F1,07,DE,6C,00,
5611917,0100082C,true,Rx,0,8,0F,C0,91,15,65,FC,00,83,
5612207,0110483C,true,Rx,0,8,08,E2,20,00,44,66,FC,52,
5621031,00800006,true,Rx,0,8,41,EC,0D,EC,41,EC,26,6E,
5621328,0090411E,true,Rx,0,8,02,00,60,00,00,00,00,00,
5621597,0300410E,true,Rx,0,8,B7,DE,18,F1,87,DE,FC,00,
5621898,03800006,true,Rx,0,8,30,00,00,00,00,00,00,00,
5622188,0100082C,true,Rx,0,8,0F,C0,91,15,65,FC,00,83,
5622468,0110483C,true,Rx,0,8,08,E2,20,00,44,66,FC,52,
5626958,1BA0493C,true,Rx,0,8,0A,01,01,01,01,02,06,01,
5627244,1BE0493C,true,Rx,0,8,05,00,00,00,00,00,07,8F,
5631045,0300410E,true,Rx,0,8,B7,DE,98,F1,87,DE,FC,00,
5631929,0100082C,true,Rx,0,8,0F,C0,91,15,65,FC,00,83,
5632208,0110483C,true,Rx,0,8,08,E2,20,00,44,66,FC,52,
5641052,00800006,true,Rx,0,8,89,EC,0D,EC,41,EC,A6,6E,
5641339,0090411E,true,Rx,0,8,42,00,E0,00,00,00,00,00,
5641608,0300410E,true,Rx,0,8,37,DE,18,F1,07,DE,6C,00,
5641909,03800006,true,Rx,0,8,30,00,00,00,00,00,00,00,
5642198,0100082C,true,Rx,0,8,0F,C0,91,15,65,FC,00,83,
5642479,0110483C,true,Rx,0,8,08,E2,20,00,44,66,FC,52,
5651062,0300410E,true,Rx,0,8,B7,DE,18,F1,87,DE,FC,00,
5651349,19E00006,true,Rx,0,8,00,00,18,E0,67,00,40,00,
5651958,0100082C,true,Rx,0,8,0F,C0,91,15,65,FC,00,83,
5652238,0110483C,true,Rx,0,8,08,E2,A0,00,44,66,FC,52,
5661074,00800006,true,Rx,0,8,C1,EC,0D,EC,41,EC,26,6E,
5661371,0090411E,true,Rx,0,8,82,00,60,00,00,00,00,00,
5661640,0300410E,true,Rx,0,8,B7,DE,18,F1,87,DE,FC,00,
5661941,03800006,true,Rx,0,8,70,00,00,00,00,00,00,00,
5662231,0100082C,true,Rx,0,8,0F,C0,91,15,65,FC,00,83,
5662513,0110483C,true,Rx,0,8,08,E2,20,00,44,66,FC,52,
5671084,0300410E,true,Rx,0,8,37,DE,98,F1,07,DE,6C,00,
5671926,0100082C,true,Rx,0,8,0F,C0,91,15,65,FC,00,83,
5672206,0110483C,true,Rx,0,8,08,E2,20,00,44,66,FC,52,
5681093,00800006,true,Rx,0,8,09,EC,0D,EC,41,EC,26,6E,
5681379,0090411E,true,Rx,0,8,02,00,E0,00,00,00,00,00,
5681660,0300410E,true,Rx,0,8,B7,DE,18,F1,87,DE,FC,00,
5681949,03800006,true,Rx,0,8,30,00,00,00,00,00,00,00,
5682239,0100082C,true,Rx,0,8,0F,C0,91,15,65,FC,00,83,
5682521,0110483C,true,Rx,0,8,08,E2,20,00,44,66,FC,52,
5682810,1AE0092C,true,Rx,0,8,00,00,22,E0,41,A0,00,00,
5683100,1B700030,true,Rx,0,8,25,8E,22,00,00,00,03,00,
5691100,0300410E,true,Rx,0,8,37,DE,18,F1,07,DE,6C,00,
5691944,0100082C,true,Rx,0,8,0F,C0,91,15,65,FC,00,83,
5692223,0110483C,true,Rx,0,8,08,E2,20,00,44,66,FC,52,
5701109,00800006,true,Rx,0,8,49,EC,0D,EC,41,EC,A6,6E,
5701396,0090411E,true,Rx,0,8,42,00,E0,00,00,00,00,00,
5701676,0300410E,true,Rx,0,8,B7,DE,98,F1,87,DE,FC,00,
5701956,0100082C,true,Rx,0,8,0F,C0,91,15,65,FC,00,83,
5702235,0110483C,true,Rx,0,8,08,E2,A0,00,44,66,FC,52,
5702537,03800006,true,Rx,0,8,30,00,00,00,00,00,00,00,
5702827,19E00006,true,Rx,0,8,00,00,18,C0,67,00,40,00,
5711113,0300410E,true,Rx,0,8,B7,DE,18,F1,87,DE,FC,00,
5711925,0100082C,true,Rx,0,8,0F,C0,91,15,65,FC,00,83,
5712205,0110483C,true,Rx,0,8,08,E2,20,00,44,66,FC,52,
5721132,00800006,true,Rx,0,8,89,EC,0D,EC,41,EC,26,6E,
5721419,0090411E,true,Rx,0,8,02,00,E0,00,00,00,00,00,
5721699,0300410E,true,Rx,0,8,37,DE,98,F1,07,DE,6C,00,
5721989,0100082C,true,Rx,0,8,0F,C0,91,15,65,FC,00,83,
5722268,0110483C,true,Rx,0,8,08,E2,20,00,44,66,FC,52,
5722560,03800006,true,Rx,0,8,30,00,00,00,00,00,00,00,
5731134,0300410E,true,Rx,0,8,B7,DE,18,F1,87,DE,FC,00,
5731936,0100082C,true,Rx,0,8,0F,C0,91,15,65,FC,00,84,
5732215,0110483C,true,Rx,0,8,08,E2,20,00,44,66,FC,52,
5741152,00800006,true,Rx,0,8,C1,EC,0D,EC,41,EC,A6,6E,
5741439,0090411E,true,Rx,0,8,42,00,60,00,00,00,00,00,
5741720,0300410E,true,Rx,0,8,B7,DE,18,F1,87,DE,FC,00,
5741999,0100082C,true,Rx,0,8,0F,C0,91,15,65,FC,00,84,
5742288,0110483C,true,Rx,0,8,08,E2,20,00,44,66,FC,52,
5742581,03800006,true,Rx,0,8,30,00,00,00,00,00,00,00,
5751161,0300410E,true,Rx,0,8,37,DE,98,F1,07,DE,6C,00,
5751448,19E00006,true,Rx,0,8,00,00,18,E0,67,00,40,00,
5751739,1B600002,true,Rx,0,8,00,80,00,40,00,1B,4C,00,
5752029,0100082C,true,Rx,0,8,0F,C0,91,15,65,FC,00,84,
5752298,0110483C,true,Rx,0,8,08,E2,A0,00,44,66,FC,52,
5761177,00800006,true,Rx,0,8,09,EC,0D,EC,41,EC,26,6E,
5761464,0090411E,true,Rx,0,8,82,00,E0,00,00,00,00,00,
5761734,0300410E,true,Rx,0,8,B7,DE,18,F1,87,DE,FC,00,
5762024,0100082C,true,Rx,0,8,0F,C0,91,15,65,FC,00,84,
5762304,0110483C,true,Rx,0,8,08,E2,20,00,44,66,FC,52,
5762595,03800006,true,Rx,0,8,70,00,00,00,00,00,00,00,
5771176,0300410E,true,Rx,0,8,37,DE,18,F1,07,DE,6C,00,
5771927,0100082C,true,Rx,0,8,0F,C0,91,15,65,FC,00,84,
5772206,0110483C,true,Rx,0,8,08,E2,20,00,44,66,FC,52,
5781186,00800006,true,Rx,0,8,49,EC,0D,EC,41,EC,26,6E,
5781473,0090411E,true,Rx,0,8,02,00,E0,00,00,00,00,00,
5781753,0300410E,true,Rx,0,8,B7,DE,98,F1,87,DE,FC,00,
5782043,0100082C,true,Rx,0,8,0F,C0,91,15,65,FC,00,84,
5782324,0110483C,true,Rx,0,8,08,E2,20,00,44,66,FC,52,
5782614,03800006,true,Rx,0,8,30,00,00,00,00,00,00,00,
5786979,1A200020,true,Rx,0,8,4E,00,02,2D,00,00,02,2F,
5791204,0300410E,true,Rx,0,8,B7,DE,18,F1,87,DE,FC,00,
5791944,0100082C,true,Rx,0,8,0F,C0,91,15,65,FC,00,84,
5792223,0110483C,true,Rx,0,8,08,E2,20,00,44,66,FC,52,
5801211,00800006,true,Rx,0,8,81,EC,0D,EC,41,EC,A6,6E,
5801499,0090411E,true,Rx,0,8,42,00,60,00,00,00,00,00,
5801779,0300410E,true,Rx,0,8,37,DE,18,F1,07,DE,6C,00,
5802068,0100082C,true,Rx,0,8,0F,C0,91,15,65,FC,00,84,
5802340,0110483C,true,Rx,0,8,08,E2,A0,00,44,66,FC,52,
5802639,03800006,true,Rx,0,8,30,00,00,00,00,00,00,00,
5802929,19E00006,true,Rx,0,8,00,00,18,C0,67,00,40,00,
5811214,0300410E,true,Rx,0,8,B7,DE,98,F1,87,DE,FC,00,
5811923,0100082C,true,Rx,0,8,0F,C0,91,15,65,FC,00,84,
5812203,0110483C,true,Rx,0,8,08,E2,20,00,44,66,FC,52,
5821232,00800006,true,Rx,0,8,C9,EC,0D,EC,41,EC,26,6E,
5821520,0090411E,true,Rx,0,8,02,00,E0,00,00,00,00,00,
5821789,0300410E,true,Rx,0,8,B7,DE,18,F1,87,DE,FC,00,
5822079,0100082C,true,Rx,0,8,0F,C0,91,15,65,FC,00,84,
5822361,0110483C,true,Rx,0,8,08,E2,20,00,44,66,FC,52,
5822660,03800006,true,Rx,0,8,30,00,00,00,00,00,00,00,
5831242,0300410E,true,Rx,0,8,37,DE,18,F1,07,DE,6C,00,
5831931,0100082C,true,Rx,0,8,0F,C0,91,15,65,FC,00,84,
5832212,0110483C,true,Rx,0,8,08,E2,20,00,44,66,FC,52,
5841250,00800006,true,Rx,0,8,09,EC,0D,EC,41,EC,26,6E,
5841538,0090411E,true,Rx,0,8,02,00,E0,00,00,00,00,00,
5841818,0300410E,true,Rx,0,8,B7,DE,98,F1,87,DE,FC,00,
5842097,0100082C,true,Rx,0,8,0F,C0,91,15,65,FC,00,84,
5842379,0110483C,true,Rx,0,8,08,E2,20,00,44,66,FC,52,
5842678,03800006,true,Rx,0,8,30,00,00,00,00,00,00,00,
5851260,0300410E,true,Rx,0,8,37,DE,18,F1,07,DE,6C,00,
5851549,19E00006,true,Rx,0,8,00,00,18,E0,67,00,40,00,
5851962,0100082C,true,Rx,0,8,0F,C0,91,15,65,FC,00,84,
5852232,0110483C,true,Rx,0,8,08,E2,A0,00,44,66,FC,52,
5861273,00800006,true,Rx,0,8,41,EC,0D,EC,41,EC,A6,6E,
5861561,0090411E,true,Rx,0,8,C2,00,60,00,00,00,00,00,
5861840,0300410E,true,Rx,0,8,B7,DE,18,F1,87,DE,FC,00,
5862131,0100082C,true,Rx,0,8,0F,C0,91,15,65,FC,00,84,
5862401,0110483C,true,Rx,0,8,08,E2,20,00,44,66,FC,52,
5862701,03800006,true,Rx,0,8,70,00,00,00,00,00,00,00,
5871273,0300410E,true,Rx,0,8,B7,DE,98,F1,87,DE,FC,00,
5871931,0100082C,true,Rx,0,8,0F,C0,91,15,65,FC,00,84,
5872211,0110483C,true,Rx,0,8,08,E2,20,00,44,66,FC,52,
5876929,1BA0493C,true,Rx,0,8,0B,01,01,01,02,03,03,01,
5881298,00800006,true,Rx,0,8,89,EC,0D,EC,41,EC,26,6E,
5881586,0090411E,true,Rx,0,8,02,00,E0,00,00,00,00,00,
5881865,0300410E,true,Rx,0,8,37,DE,18,F1,07,DE,6C,00,
5882146,0100082C,true,Rx,0,8,0F,C0,91,15,65,FC,00,84,
5882426,0110483C,true,Rx,0,8,08,E2,20,00,44,66,FC,52,
5882726,03800006,true,Rx,0,8,30,00,00,00,00,00,00,00,
5891296,0300410E,true,Rx,0,8,B7,DE,18,F1,87,DE,FC,00,
5891954,0100082C,true,Rx,0,8,0F,C0,91,15,65,FC,00,84,
5892235,0110483C,true,Rx,0,8,08,E2,20,00,44,66,FC,52,
5892525,1B700030,true,Rx,0,8,25,8E,22,00,00,00,03,00,
5901310,00800006,true,Rx,0,8,C1,EC,0D,EC,41,EC,A6,6E,
5901597,0090411E,true,Rx,0,8,42,00,60,00,00,00,00,00,
5901876,0300410E,true,Rx,0,8,B7,DE,18,F1,87,DE,FC,00,
5902157,0100082C,true,Rx,0,8,0F,C0,91,15,65,FC,00,84,
5902437,0110483C,true,Rx,0,8,08,E2,A0,00,44,66,FC,52,
5902737,03800006,true,Rx,0,8,30,00,00,00,00,00,00,00,
5903028,19E00006,true,Rx,0,8,00,00,18,C0,67,00,40,00,
5911325,0300410E,true,Rx,0,8,37,DE,98,F1,07,DE,6C,00,
5911929,0100082C,true,Rx,0,8,0F,C0,91,15,65,FC,00,84,
5912210,0110483C,true,Rx,0,8,08,E2,20,00,44,66,FC,52,
5921333,00800006,true,Rx,0,8,09,EC,0D,EC,41,EC,26,6E,
5921618,0090411E,true,Rx,0,8,02,00,E0,00,00,00,00,00,
5921898,0300410E,true,Rx,0,8,B7,DE,18,F1,87,DE,FC,00,
5922178,0100082C,true,Rx,0,8,0F,C0,91,15,65,FC,00,84,
5922459,0110483C,true,Rx,0,8,08,E2,20,00,44,66,FC,52,
5922758,03800006,true,Rx,0,8,30,00,00,00,00,00,00,00,
5923049,1B600002,true,Rx,0,8,00,80,00,5C,00,1B,4C,00,
5931338,0300410E,true,Rx,0,8,37,DE,18,F1,07,DE,6C,00,
5931932,0100082C,true,Rx,0,8,0F,C0,91,15,65,FC,00,84,
5932212,0110483C,true,Rx,0,8,08,E2,20,00,44,66,FC,52,
5941345,00800006,true,Rx,0,8,49,EC,0D,EC,41,EC,A6,6E,
5941631,0090411E,true,Rx,0,8,42,00,E0,00,00,00,00,00,
5941910,0300410E,true,Rx,0,8,B7,DE,98,F1,87,DE,FC,00,
5942201,0100082C,true,Rx,0,8,0F,C0,91,15,65,FC,00,84,
5942471,0110483C,true,Rx,0,8,08,E2,20,00,44,66,FC,52,
5942772,03800006,true,Rx,0,8,30,00,00,00,00,00,00,00,
5951355,0300410E,true,Rx,0,8,B7,DE,18,F1,87,DE,FC,00,
5951640,19E00006,true,Rx,0,8,00,00,18,E0,67,00,40,00,
5951981,0100082C,true,Rx,0,8,0F,C0,91,15,65,FC,00,84,
5952262,0110483C,true,Rx,0,8,08,E2,A0,00,44,66,FC,52,
5961369,00800006,true,Rx,0,8,89,EC,0D,EC,41,EC,26,6E,
5961654,0090411E,true,Rx,0,8,82,00,E0,00,00,00,00,00,
5961934,0300410E,true,Rx,0,8,37,DE,98,F1,07,DE,6C,00,
5962225,0100082C,true,Rx,0,8,0F,C0,91,15,65,FC,00,84,
5962505,0110483C,true,Rx,0,8,08,E2,20,00,44,66,FC,52,
5962796,03800006,true,Rx,0,8,70,00,00,00,00,00,00,00,
5971379,0300410E,true,Rx,0,8,B7,DE,18,F1,87,DE,FC,00,
5971931,0100082C,true,Rx,0,8,0F,C0,91,15,65,FC,00,84,
5972212,0110483C,true,Rx,0,8,08,E2,20,00,44,66,FC,52,
5981399,00800006,true,Rx,0,8,C1,EC,0D,EC,41,EC,26,6E,
5981685,0090411E,true,Rx,0,8,02,00,60,00,00,00,00,00,
5981976,0100082C,true,Rx,0,8,0F,C0,91,15,65,FC,00,84,
5982255,0110483C,true,Rx,0,8,08,E2,20,00,44,66,FC,52,
5982525,0300410E,true,Rx,0,8,B7,DE,18,F1,87,DE,FC,00,
5982826,03800006,true,Rx,0,8,30,00,00,00,00,00,00,00,
5991400,0300410E,true,Rx,0,8,37,DE,98,F1,07,DE,6C,00,
5991954,0100082C,true,Rx,0,8,0F,C0,91,15,65,FC,00,84,
5992233,0110483C,true,Rx,0,8,08,E2,20,00,44,66,FC,52,
6001407,00800006,true,Rx,0,8,09,EC,0D,EC,41,EC,A6,6E,
6001693,0090411E,true,Rx,0,8,42,00,E0,00,00,00,00,00,
6001984,0100082C,true,Rx,0,8,0F,C0,91,15,65,FC,00,84,
6002263,0110483C,true,Rx,0,8,08,E2,A0,00,44,66,FC,52,
6002533,0300410E,true,Rx,0,8,B7,DE,18,F1,87,DE,FC,00,
6002834,03800006,true,Rx,0,8,30,00,00,00,00,00,00,00,
6003124,19E00006,true,Rx,0,8,00,00,18,C0,67,00,40,00,
6011421,0300410E,true,Rx,0,8,37,DE,18,F1,07,DE,6C,00,
6011933,0100082C,true,Rx,0,8,0F,C0,91,15,65,FC,00,84,
6012213,0110483C,true,Rx,0,8,08,E2,20,00,44,66,FC,52,
6021430,00800006,true,Rx,0,8,49,EC,0D,EC,41,EC,26,6E,
6021716,0090411E,true,Rx,0,8,02,00,E0,00,00,00,00,00,
6021997,0100082C,true,Rx,0,8,0F,C0,91,15,65,FC,00,84,
6022286,0110483C,true,Rx,0,8,08,E2,20,00,44,66,FC,52,
6022556,0300410E,true,Rx,0,8,B7,DE,98,F1,87,DE,FC,00,
6022857,03800006,true,Rx,0,8,30,00,00,00,00,00,00,00,
6031441,0300410E,true,Rx,0,8,B7,DE,18,F1,87,DE,FC,00,
6031944,0100082C,true,Rx,0,8,0F,C0,91,15,65,FC,00,84,
6032223,0110483C,true,Rx,0,8,08,E2,20,00,44,66,FC,52,
6041450,00800006,true,Rx,0,8,81,EC,0D,EC,41,EC,A6,6E,
6041736,0090411E,true,Rx,0,8,42,00,60,00,00,00,00,00,
6042027,0100082C,true,Rx,0,8,0F,C0,91,15,65,FC,00,84,
6042306,0110483C,true,Rx,0,8,08,E2,20,00,44,66,FC,52,
6042587,0300410E,true,Rx,0,8,37,DE,18,F1,07,DE,6C,00,
6042877,03800006,true,Rx,0,8,30,00,00,00,00,00,00,00,
6051461,0300410E,true,Rx,0,8,B7,DE,98,F1,87,DE,FC,00,
6051747,19E00006,true,Rx,0,8,00,00,18,E0,67,00,40,00,
6052027,0100082C,true,Rx,0,8,0F,C0,91,15,65,FC,00,84,
6052306,0110483C,true,Rx,0,8,08,E2,A0,00,44,66,FC,52,
6061462,00800006,true,Rx,0,8,C9,EC,0D,EC,41,EC,26,6E,
6061758,0090411E,true,Rx,0,8,82,00,E0,00,00,00,00,00,
6062039,0100082C,true,Rx,0,8,0F,C0,91,15,65,FC,00,84,
6062319,0110483C,true,Rx,0,8,08,E2,20,00,44,66,FC,52,
6062600,0300410E,true,Rx,0,8,B7,DE,18,F1,87,DE,FC,00,
6062889,03800006,true,Rx,0,8,70,00,00,00,00,00,00,00,
6071483,0300410E,true,Rx,0,8,37,DE,18,F1,07,DE,6C,00,
6071934,0100082C,true,Rx,0,8,0F,C0,91,15,65,FC,00,84,
6072213,0110483C,true,Rx,0,8,08,E2,20,00,44,66,FC,52,
6081492,00800006,true,Rx,0,8,09,EC,0D,EC,41,EC,26,6E,
6081779,0090411E,true,Rx,0,8,02,00,E0,00,00,00,00,00,
6082069,0100082C,true,Rx,0,8,0F,C0,91,15,65,FC,00,84,
6082349,0110483C,true,Rx,0,8,08,E2,20,00,44,66,FC,52,
6082620,0300410E,true,Rx,0,8,B7,DE,98,F1,87,DE,FC,00,
6082919,03800006,true,Rx,0,8,30,00,00,00,00,00,00,00,
6091503,0300410E,true,Rx,0,8,37,DE,18,F1,07,DE,6C,00,
6091779,1B600002,true,Rx,0,8,00,80,00,4C,00,1B,4C,00,
6092069,0100082C,true,Rx,0,8,0F,C0,91,15,65,FC,00,84,
6092350,0110483C,true,Rx,0,8,08,E2,20,00,44,66,FC,52,
6101516,00800006,true,Rx,0,8,41,EC,0D,EC,41,EC,A6,6E,
6101802,0090411E,true,Rx,0,8,42,00,60,00,00,00,00,00,
6102082,0100082C,true,Rx,0,8,0F,C0,91,15,65,FC,00,84,
6102362,0110483C,true,Rx,0,8,08,E2,A0,00,44,66,FC,52,
6102643,0300410E,true,Rx,0,8,B7,DE,18,F1,87,DE,FC,00,
6102932,03800006,true,Rx,0,8,30,00,00,00,00,00,00,00,
6103222,19E00006,true,Rx,0,8,00,00,18,C0,67,00,40,00,
6103504,1A200020,true,Rx,0,8,8E,00,02,2D,00,00,02,2F,
6103792,1AE0092C,true,Rx,0,8,40,00,22,E0,41,A0,00,00,
6104082,1B700030,true,Rx,0,8,35,8E,22,00,00,00,03,00,
6111513,0300410E,true,Rx,0,8,B7,DE,98,F1,87,DE,FC,00,
6111934,0100082C,true,Rx,0,8,0F,C0,91,15,65,FC,00,84,
6112213,0110483C,true,Rx,0,8,08,E2,20,00,44,66,FC,52,
6121531,00800006,true,Rx,0,8,89,EC,0D,EC,41,EC,26,6E,
6121818,0090411E,true,Rx,0,8,02,00,E0,00,00,00,00,00,
6122097,0100082C,true,Rx,0,8,0F,C0,91,15,65,FC,00,84,
6122378,0110483C,true,Rx,0,8,08,E2,20,00,44,66,FC,52,
6122659,0300410E,true,Rx,0,8,37,DE,18,F1,07,DE,6C,00,
6122958,03800006,true,Rx,0,8,30,00,00,00,00,00,00,00,
6126991,1BA0493C,true,Rx,0,8,0C,03,01,01,02,02,01,09,
6127257,1BE0493C,true,Rx,0,8,11,4D,57,32,31,34,32,37,
6131544,0300410E,true,Rx,0,8,B7,DE,18,F1,87,DE,FC,00,
6131934,0100082C,true,Rx,0,8,0F,C0,91,15,65,FC,00,84,
6132213,0110483C,true,Rx,0,8,08,E2,20,00,44,66,FC,52,
6141552,00800006,true,Rx,0,8,C1,EC,0D,EC,41,EC,26,6E,
6141849,0090411E,true,Rx,0,8,02,00,60,00,00,00,00,00,
6142128,0100082C,true,Rx,0,8,0F,C0,91,15,65,FC,00,84,
6142409,0110483C,true,Rx,0,8,08,E2,20,00,44,66,FC,52,
6142689,0300410E,true,Rx,0,8,B7,DE,18,F1,87,DE,FC,00,
6142989,03800006,true,Rx,0,8,30,00,00,00,00,00,00,00,
6151561,0300410E,true,Rx,0,8,37,DE,98,F1,07,DE,6C,00,
6151848,19E00006,true,Rx,0,8,00,00,18,E0,67,00,40,00,
6152137,0100082C,true,Rx,0,8,0F,C0,91,15,65,FC,00,84,
6152408,0110483C,true,Rx,0,8,08,E2,A0,00,44,66,FC,52,
6161565,00800006,true,Rx,0,8,09,EC,0D,EC,41,EC,A6,6E,
6161862,0090411E,true,Rx,0,8,C2,00,E0,00,00,00,00,00,
6162141,0100082C,true,Rx,0,8,0F,C0,91,15,65,FC,00,84,
6162423,0110483C,true,Rx,0,8,08,E2,20,00,44,66,FC,52,
6162702,0300410E,true,Rx,0,8,B7,DE,18,F1,87,DE,FC,00,
6162992,03800006,true,Rx,0,8,70,00,00,00,00,00,00,00,
6171575,0300410E,true,Rx,0,8,37,DE,18,F1,07,DE,6C,00,
6171933,0100082C,true,Rx,0,8,0F,C0,91,15,65,FC,00,84,
6172212,0110483C,true,Rx,0,8,08,E2,20,00,44,66,FC,52,
6181582,00800006,true,Rx,0,8,49,EC,0D,EC,41,EC,26,6E,
6181879,0090411E,true,Rx,0,8,02,00,E0,00,00,00,00,00,
6182158,0100082C,true,Rx,0,8,0F,C0,91,15,65,FC,00,84,
6182440,0110483C,true,Rx,0,8,08,E2,20,00,44,66,FC,52,
6182719,0300410E,true,Rx,0,8,B7,DE,98,F1,87,DE,FC,00,
6183019,03800006,true,Rx,0,8,30,00,00,00,00,00,00,00,
6191603,0300410E,true,Rx,0,8,B7,DE,18,F1,87,DE,FC,00,
6191950,0100082C,true,Rx,0,8,0F,C0,91,15,65,FC,00,84,
6192230,0110483C,true,Rx,0,8,08,E2,20,00,44,66,FC,52,
6201602,00800006,true,Rx,0,8,89,EC,0D,EC,41,EC,A6,6E,
6201887,0090411E,true,Rx,0,8,42,00,E0,00,00,00,00,00,
6202177,0100082C,true,Rx,0,8,0F,C0,91,15,65,FC,00,84,
6202459,0110483C,true,Rx,0,8,08,E2,A0,00,44,66,FC,52,
6202738,0300410E,true,Rx,0,8,37,DE,98,F1,07,DE,6C,00,
6203038,03800006,true,Rx,0,8,30,00,00,00,00,00,00,00,
6203320,19E00006,true,Rx,0,8,00,00,18,C0,67,00,40,00,
6211617,0300410E,true,Rx,0,8,B7,DE,18,F1,87,DE,FC,00,
6211913,0100082C,true,Rx,0,8,0F,C0,91,15,65,FC,00,84,
6212192,0110483C,true,Rx,0,8,08,E2,20,00,44,66,FC,52,
6221635,00800006,true,Rx,0,8,C1,EC,0D,EC,41,EC,26,6E,
6221920,0090411E,true,Rx,0,8,02,00,60,00,00,00,00,00,
6222210,0100082C,true,Rx,0,8,0F,C0,91,15,65,FC,00,84,
6222492,0110483C,true,Rx,0,8,08,E2,20,00,44,66,FC,52,
6222771,0300410E,true,Rx,0,8,B7,DE,18,F1,87,DE,FC,00,
6223061,03800006,true,Rx,0,8,30,00,00,00,00,00,00,00,
6231638,0300410E,true,Rx,0,8,37,DE,98,F1,07,DE,6C,00,
6231923,0100082C,true,Rx,0,8,0F,C0,91,15,65,FC,00,84,
6232203,0110483C,true,Rx,0,8,08,E2,20,00,44,66,FC,52,
6241646,00800006,true,Rx,0,8,09,EC,0D,EC,41,EC,A6,6E,
6241931,0090411E,true,Rx,0,8,42,00,E0,00,00,00,00,00,
6242221,0100082C,true,Rx,0,8,0F,C0,91,15,65,FC,00,84,
6242502,0110483C,true,Rx,0,8,08,E2,20,00,44,66,FC,52,
6242772,0300410E,true,Rx,0,8,B7,DE,18,F1,87,DE,FC,00,
6243073,03800006,true,Rx,0,8,30,00,00,00,00,00,00,00,
6251655,0300410E,true,Rx,0,8,37,DE,18,F1,07,DE,6C,00,
6251940,0100082C,true,Rx,0,8,0F,C0,91,15,65,FC,00,84,
6252220,0110483C,true,Rx,0,8,08,E2,A0,00,44,66,FC,52,
6252512,19E00006,true,Rx,0,8,00,00,18,E0,67,00,40,00,
6261666,00800006,true,Rx,0,8,49,EC,0D,EC,41,EC,26,6E,
6261952,0090411E,true,Rx,0,8,82,00,E0,00,00,00,00,00,
6262241,0100082C,true,Rx,0,8,0F,C0,91,15,65,FC,00,84,
6262523,0110483C,true,Rx,0,8,08,E2,20,00,44,66,FC,52,
6262802,0300410E,true,Rx,0,8,B7,DE,98,F1,87,DE,FC,00,
6263093,03800006,true,Rx,0,8,70,00,00,00,00,00,00,00,
6263384,1B600002,true,Rx,0,8,00,80,00,4C,00,1B,4C,00,
6271680,0300410E,true,Rx,0,8,B7,DE,18,F1,87,DE,FC,00,
6271966,0100082C,true,Rx,0,8,0F,C0,91,15,65,FC,00,84,
6272246,0110483C,true,Rx,0,8,08,E2,20,00,44,66,FC,52,
6281688,00800006,true,Rx,0,8,81,EC,0D,EC,41,EC,26,6E,
6281974,0090411E,true,Rx,0,8,02,00,60,00,00,00,00,00,
6282264,0100082C,true,Rx,0,8,0F,C0,91,15,65,FC,00,84,
6282545,0110483C,true,Rx,0,8,08,E2,20,00,44,66,FC,52,
6282824,0300410E,true,Rx,0,8,37,DE,18,F1,07,DE,6C,00,
6283125,03800006,true,Rx,0,8,30,00,00,00,00,00,00,00,
6291697,0300410E,true,Rx,0,8,B7,DE,98,F1,87,DE,FC,00,
6291983,0100082C,true,Rx,0,8,0F,C0,91,15,65,FC,00,84,
6292263,0110483C,true,Rx,0,8,08,E2,20,00,44,66,FC,52,
6301705,00800006,true,Rx,0,8,C9,EC,0D,EC,41,EC,A6,6E,
6301990,0090411E,true,Rx,0,8,42,00,E0,00,00,00,00,00,
6302281,0100082C,true,Rx,0,8,0F,C0,91,15,65,FC,00,84,
6302562,0110483C,true,Rx,0,8,08,E2,A0,00,44,66,FC,52,
6302831,0300410E,true,Rx,0,8,B7,DE,18,F1,87,DE,FC,00,
6303132,03800006,true,Rx,0,8,30,00,00,00,00,00,00,00,
6303423,19E00006,true,Rx,0,8,00,00,18,C0,67,00,40,00,
6311718,0300410E,true,Rx,0,8,37,DE,18,F1,07,DE,6C,00,
6312004,0100082C,true,Rx,0,8,0F,C0,91,15,65,FC,00,84,
6312284,0110483C,true,Rx,0,8,08,E2,20,00,44,66,FC,52,
6312575,1B700030,true,Rx,0,8,25,8E,22,00,00,00,03,00,
6321731,00800006,true,Rx,0,8,09,EC,0D,EC,41,EC,26,6E,
6322016,0090411E,true,Rx,0,8,02,00,E0,00,00,00,00,00,
6322307,0100082C,true,Rx,0,8,0F,C0,91,15,65,FC,00,84,
6322589,0110483C,true,Rx,0,8,08,E2,20,00,44,66,FC,52,
6322858,0300410E,true,Rx,0,8,B7,DE,98,F1,87,DE,FC,00,
6323159,03800006,true,Rx,0,8,30,00,00,00,00,00,00,00,
6331742,0300410E,true,Rx,0,8,37,DE,18,F1,07,DE,6C,00,
6332027,0100082C,true,Rx,0,8,0F,C0,91,15,65,FC,00,84,
6332308,0110483C,true,Rx,0,8,08,E2,20,00,44,66,FC,52,
6341751,00800006,true,Rx,0,8,41,EC,0D,EC,41,EC,A6,6E,
6342036,0090411E,true,Rx,0,8,42,00,60,00,00,00,00,00,
6342328,0100082C,true,Rx,0,8,0F,C0,91,15,65,FC,00,84,
6342608,0110483C,true,Rx,0,8,08,E2,20,00,44,66,FC,52,
6342877,0300410E,true,Rx,0,8,B7,DE,18,F1,87,DE,FC,00,
6343178,03800006,true,Rx,0,8,30,00,00,00,00,00,00,00,
6351751,0300410E,true,Rx,0,8,B7,DE,98,F1,87,DE,FC,00,
6352047,0100082C,true,Rx,0,8,0F,C0,91,15,65,FC,00,84,
6352319,0110483C,true,Rx,0,8,08,E2,A0,00,44,66,FC,52,
6352608,19E00006,true,Rx,0,8,00,00,18,E0,67,00,40,00,
6361763,00800006,true,Rx,0,8,89,EC,0D,EC,41,EC,26,6E,
6362059,0090411E,true,Rx,0,8,82,00,E0,00,00,00,00,00,
6362341,0100082C,true,Rx,0,8,0F,C0,91,15,65,FC,00,84,
6362620,0110483C,true,Rx,0,8,08,E2,20,00,44,66,FC,52,
6362901,0300410E,true,Rx,0,8,37,DE,18,F1,07,DE,6C,00,
6363190,03800006,true,Rx,0,8,70,00,00,00,00,00,00,00,
6371774,0300410E,true,Rx,0,8,B7,DE,18,F1,87,DE,FC,00,
6372059,0100082C,true,Rx,0,8,0F,C0,91,15,65,FC,00,84,
6372341,0110483C,true,Rx,0,8,08,E2,20,00,44,66,FC,52,
6376953,1BA0493C,true,Rx,0,8,0D,01,02,01,01,01,01,01,
6377228,1BE0493C,true,Rx,0,8,01,00,2A,6D,D3,D5,02,04,
6381806,00800006,true,Rx,0,8,C1,EC,0D,EC,41,EC,26,6E,
6382092,0090411E,true,Rx,0,8,02,00,60,00,00,00,00,00,
6382383,0100082C,true,Rx,0,8,0F,C0,91,15,65,FC,00,84,
6382663,0110483C,true,Rx,0,8,08,E2,20,00,44,66,FC,52,
6382933,0300410E,true,Rx,0,8,B7,DE,18,F1,87,DE,FC,00,
6383233,03800006,true,Rx,0,8,30,00,00,00,00,00,00,00,
6391795,0300410E,true,Rx,0,8,37,DE,98,F1,07,DE,6C,00,
6392082,0100082C,true,Rx,0,8,0F,C0,91,15,65,FC,00,84,
6392362,0110483C,true,Rx,0,8,08,E2,20,00,44,66,FC,52,
6401803,00800006,true,Rx,0,8,09,EC,0D,EC,41,EC,A6,6E,
6402090,0090411E,true,Rx,0,8,42,00,E0,00,00,00,00,00,
6402380,0100082C,true,Rx,0,8,0F,C0,91,15,65,FC,00,84,
6402660,0110483C,true,Rx,0,8,08,E2,A0,00,44,66,FC,52,
6402930,0300410E,true,Rx,0,8,B7,DE,18,F1,87,DE,FC,00,
6403230,03800006,true,Rx,0,8,30,00,00,00,00,00,00,00,
6403521,19E00006,true,Rx,0,8,00,00,18,C0,67,00,40,00,
6411819,0300410E,true,Rx,0,8,37,DE,18,F1,07,DE,6C,00,
6412105,0100082C,true,Rx,0,8,0F,C0,91,15,65,FC,00,84,
6412386,0110483C,true,Rx,0,8,08,E2,20,00,44,66,FC,52,
6416957,1A200020,true,Rx,0,8,CE,00,02,2D,00,00,02,2F,
6421835,00800006,true,Rx,0,8,49,EC,0D,EC,41,EC,26,6E,
6422121,0090411E,true,Rx,0,8,02,00,E0,00,00,00,00,00,
6422402,0100082C,true,Rx,0,8,0F,C0,91,15,65,FC,00,84,
6422681,0110483C,true,Rx,0,8,08,E2,20,00,44,66,FC,52,
6422962,0300410E,true,Rx,0,8,B7,DE,98,F1,87,DE,FC,00,
6423261,03800006,true,Rx,0,8,30,00,00,00,00,00,00,00,
6431835,0300410E,true,Rx,0,8,B7,DE,18,F1,87,DE,FC,00,
6432122,0100082C,true,Rx,0,8,0F,C0,91,15,65,FC,00,84,
6432402,0110483C,true,Rx,0,8,08,E2,20,00,44,66,FC,52,
6432692,1B600002,true,Rx,0,8,00,80,00,4C,00,1B,4C,00,
6441847,00800006,true,Rx,0,8,89,EC,0D,EC,41,EC,26,6E,
6442134,0090411E,true,Rx,0,8,02,00,E0,00,00,00,00,00,
6442425,0100082C,true,Rx,0,8,0F,C0,91,15,65,FC,00,84,
6442704,0110483C,true,Rx,0,8,08,E2,20,00,44,66,FC,52,
6442984,0300410E,true,Rx,0,8,37,DE,98,F1,07,DE,6C,00,
6443274,03800006,true,Rx,0,8,30,00,00,00,00,00,00,00,
6451857,0300410E,true,Rx,0,8,B7,DE,18,F1,87,DE,FC,00,
6452144,0100082C,true,Rx,0,8,0F,C0,91,15,65,FC,00,84,
6452414,0110483C,true,Rx,0,8,08,E2,A0,00,44,66,FC,52,
6452704,19E00006,true,Rx,0,8,00,00,18,E0,67,00,40,00,
6461870,00800006,true,Rx,0,8,C1,EC,0D,EC,41,EC,A6,6E,
6462157,0090411E,true,Rx,0,8,C2,00,60,00,00,00,00,00,
6462448,0100082C,true,Rx,0,8,0F,C0,91,15,65,FC,00,84,
6462728,0110483C,true,Rx,0,8,08,E2,20,00,44,66,FC,52,
6462997,0300410E,true,Rx,0,8,B7,DE,18,F1,87,DE,FC,00,
6463297,03800006,true,Rx,0,8,70,00,00,00,00,00,00,00,
6471880,0300410E,true,Rx,0,8,37,DE,98,F1,07,DE,6C,00,
6472167,0100082C,true,Rx,0,8,0F,C0,91,15,65,FC,00,84,
6472447,0110483C,true,Rx,0,8,08,E2,20,00,44,66,FC,52,
6481890,00800006,true,Rx,0,8,09,EC,0D,EC,41,EC,26,6E,
6482176,0090411E,true,Rx,0,8,02,00,E0,00,00,00,00,00,
6482467,0100082C,true,Rx,0,8,0F,C0,91,15,65,FC,00,84,
6482748,0110483C,true,Rx,0,8,08,E2,20,00,44,66,FC,52,
6483017,0300410E,true,Rx,0,8,B7,DE,18,F1,87,DE,FC,00,
6483318,03800006,true,Rx,0,8,30,00,00,00,00,00,00,00,
6491901,0300410E,true,Rx,0,8,37,DE,18,F1,07,DE,6C,00,
6492187,0100082C,true,Rx,0,8,0F,C0,91,15,65,FC,00,84,
6492467,0110483C,true,Rx,0,8,08,E2,20,00,44,66,FC,52,
6501909,00800006,true,Rx,0,8,49,EC,0D,EC,41,EC,A6,6E,
6502195,0090411E,true,Rx,0,8,42,00,E0,00,00,00,00,00,
6502475,0100082C,true,Rx,0,8,0F,C0,91,15,65,FC,00,84,
6502756,0110483C,true,Rx,0,8,08,E2,A0,00,44,66,FC,52,
6503035,0300410E,true,Rx,0,8,B7,DE,98,F1,87,DE,FC,00,
6503326,03800006,true,Rx,0,8,30,00,00,00,00,00,00,00,
6503617,19E00006,true,Rx,0,8,00,00,18,C0,67,00,40,00,
6511923,0100082C,true,Rx,0,8,0F,C0,91,15,65,FC,00,84,
6512199,0110483C,true,Rx,0,8,08,E2,20,00,44,66,FC,52,
6512479,0300410E,true,Rx,0,8,B7,DE,18,F1,87,DE,FC,00,
6521933,00800006,true,Rx,0,8,81,EC,0D,EC,41,EC,26,6E,
6522219,0090411E,true,Rx,0,8,02,00,60,00,00,00,00,00,
6522509,0100082C,true,Rx,0,8,0F,C0,91,15,65,FC,00,84,
6522790,0110483C,true,Rx,0,8,08,E2,20,00,44,66,FC,52,
6523059,0300410E,true,Rx,0,8,37,DE,18,F1,07,DE,6C,00,
6523360,03800006,true,Rx,0,8,30,00,00,00,00,00,00,00,
6523651,1AE0092C,true,Rx,0,8,80,00,22,E0,41,A0,00,00,
6523940,1B700030,true,Rx,0,8,25,8E,22,00,00,00,03,00,
6531919,0100082C,true,Rx,0,8,0F,C0,91,15,65,FC,00,84,
6532205,0110483C,true,Rx,0,8,08,E2,20,00,44,66,FC,52,
6532475,0300410E,true,Rx,0,8,B7,DE,98,F1,87,DE,FC,00,
6541959,0100082C,true,Rx,0,8,0F,C0,91,15,65,FC,00,84,
6542234,00800006,true,Rx,0,8,C9,EC,0D,EC,41,EC,A6,6E,
6542514,0090411E,true,Rx,0,8,42,00,E0,00,00,00,00,00,
6542795,0110483C,true,Rx,0,8,08,E2,20,00,44,66,FC,52,
6543074,0300410E,true,Rx,0,8,B7,DE,18,F1,87,DE,FC,00,
6543376,03800006,true,Rx,0,8,30,00,00,00,00,00,00,00,
6551949,0100082C,true,Rx,0,8,0F,C0,91,15,65,FC,00,84,
6552224,0110483C,true,Rx,0,8,08,E2,A0,00,44,66,FC,52,
6552505,0300410E,true,Rx,0,8,37,DE,18,F1,07,DE,6C,00,
6552786,19E00006,true,Rx,0,8,00,00,18,E0,67,00,40,00,
6561951,0100082C,true,Rx,0,8,0F,C0,91,15,65,FC,00,84,
6562226,00800006,true,Rx,0,8,09,EC,0D,EC,41,EC,26,6E,
6562517,0090411E,true,Rx,0,8,82,00,E0,00,00,00,00,00,
6562797,0110483C,true,Rx,0,8,08,E2,20,00,44,66,FC,52,
6563077,0300410E,true,Rx,0,8,B7,DE,98,F1,87,DE,FC,00,
6563369,03800006,true,Rx,0,8,70,00,00,00,00,00,00,00,
6571919,0100082C,true,Rx,0,8,0F,C0,91,15,65,FC,00,84,
6572205,0110483C,true,Rx,0,8,08,E2,20,00,44,66,FC,52,
6572475,0300410E,true,Rx,0,8,37,DE,18,F1,07,DE,6C,00,
6581918,0100082C,true,Rx,0,8,0F,C0,91,15,65,FC,00,84,
6582203,00800006,true,Rx,0,8,41,EC,0D,EC,41,EC,26,6E,
6582494,0090411E,true,Rx,0,8,02,00,60,00,00,00,00,00,
6582775,0110483C,true,Rx,0,8,08,E2,20,00,44,66,FC,52,
6583054,0300410E,true,Rx,0,8,B7,DE,18,F1,87,DE,FC,00,
6583347,03800006,true,Rx,0,8,30,00,00,00,00,00,00,00,
6591939,0100082C,true,Rx,0,8,0F,C0,91,15,65,FC,00,84,
6592225,0110483C,true,Rx,0,8,08,E2,20,00,44,66,FC,52,
6592496,0300410E,true,Rx,0,8,B7,DE,98,F1,87,DE,FC,00,
6601929,0100082C,true,Rx,0,8,0F,C0,91,15,65,FC,00,84,
6602205,00800006,true,Rx,0,8,89,EC,0D,EC,41,EC,A6,6E,
6602497,0090411E,true,Rx,0,8,42,00,E0,00,00,00,00,00,
6602776,0110483C,true,Rx,0,8,08,E2,A0,00,44,66,FC,52,
6603046,0300410E,true,Rx,0,8,37,DE,18,F1,07,DE,6C,00,
6603348,03800006,true,Rx,0,8,30,00,00,00,00,00,00,00,
6603637,19E00006,true,Rx,0,8,00,00,18,C0,67,00,40,00,
6603917,1B600002,true,Rx,0,8,00,80,00,4C,00,1B,4C,00,
6611917,0100082C,true,Rx,0,8,0F,C0,91,15,65,FC,00,84,
6612203,0110483C,true,Rx,0,8,08,E2,20,00,44,66,FC,52,
6612485,0300410E,true,Rx,0,8,B7,DE,18,F1,87,DE,FC,00,
6621925,0100082C,true,Rx,0,8,0F,C0,91,15,65,FC,00,84,
6622210,00800006,true,Rx,0,8,C1,EC,0D,EC,41,EC,26,6E,
6622502,0090411E,true,Rx,0,8,02,00,60,00,00,00,00,00,
6622782,0110483C,true,Rx,0,8,08,E2,20,00,44,66,FC,52,
6623051,0300410E,true,Rx,0,8,B7,DE,18,F1,87,DE,FC,00,
6623353,03800006,true,Rx,0,8,30,00,00,00,00,00,00,00,
6626980,1BA0493C,true,Rx,0,8,0E,01,01,01,02,02,01,02,
6627256,1BE0493C,true,Rx,0,8,02,4A,8B,00,3E,04,19,24,
6631938,0100082C,true,Rx,0,8,0F,C0,91,15,65,FC,00,84,
6632224,0110483C,true,Rx,0,8,08,E2,20,00,44,66,FC,52,
6632506,0300410E,true,Rx,0,8,37,DE,98,F1,07,DE,6C,00,
6641946,0100082C,true,Rx,0,8,0F,C0,91,15,65,FC,00,84,
6642232,00800006,true,Rx,0,8,09,EC,0D,EC,41,EC,A6,6E,
6642514,0090411E,true,Rx,0,8,42,00,E0,00,00,00,00,00,
6642793,0110483C,true,Rx,0,8,08,E2,20,00,44,66,FC,52,
6643072,0300410E,true,Rx,0,8,B7,DE,18,F1,87,DE,FC,00,
6643374,03800006,true,Rx,0,8,30,00,00,00,00,00,00,00,
6651935,0100082C,true,Rx,0,8,0F,C0,91,15,65,FC,00,84,
6652210,0110483C,true,Rx,0,8,08,E2,A0,00,44,66,FC,52,
6652482,0300410E,true,Rx,0,8,37,DE,18,F1,07,DE,6C,00,
6652772,19E00006,true,Rx,0,8,00,00,18,E0,67,00,40,00,
6661929,0100082C,true,Rx,0,8,0F,C0,91,15,65,FC,00,84,
6662204,00800006,true,Rx,0,8,49,EC,0D,EC,41,EC,26,6E,
6662496,0090411E,true,Rx,0,8,82,00,E0,00,00,00,00,00,
6662775,0110483C,true,Rx,0,8,08,E2,20,00,44,66,FC,52,
6663044,0300410E,true,Rx,0,8,B7,DE,98,F1,87,DE,FC,00,
6663347,03800006,true,Rx,0,8,70,00,00,00,00,00,00,00,
6671929,0100082C,true,Rx,0,8,0F,C0,91,15,65,FC,00,84,
6672204,0110483C,true,Rx,0,8,08,E2,20,00,44,66,FC,52,
6672475,0300410E,true,Rx,0,8,B7,DE,18,F1,87,DE,FC,00,
6681937,0100082C,true,Rx,0,8,0F,C0,91,15,65,FC,00,84,
6682213,00800006,true,Rx,0,8,89,EC,0D,EC,41,EC,26,6E,
6682494,0090411E,true,Rx,0,8,02,00,E0,00,00,00,00,00,
6682784,0110483C,true,Rx,0,8,08,E2,20,00,44,66,FC,52,
6683063,0300410E,true,Rx,0,8,37,DE,98,F1,07,DE,6C,00,
6683355,03800006,true,Rx,0,8,30,00,00,00,00,00,00,00,
6691938,0100082C,true,Rx,0,8,0F,C0,91,15,65,FC,00,84,
6692223,0110483C,true,Rx,0,8,08,E2,20,00,44,66,FC,52,
6692495,0300410E,true,Rx,0,8,B7,DE,18,F1,87,DE,FC,00,
6701935,0100082C,true,Rx,0,8,0F,C0,91,15,65,FC,00,84,
6702221,00800006,true,Rx,0,8,C1,EC,0D,EC,41,EC,A6,6E,
6702502,0090411E,true,Rx,0,8,42,00,60,00,00,00,00,00,
6702782,0110483C,true,Rx,0,8,08,E2,A0,00,44,66,FC,52,
6703061,0300410E,true,Rx,0,8,B7,DE,18,F1,87,DE,FC,00,
6703353,03800006,true,Rx,0,8,30,00,00,00,00,00,00,00,
6703642,19E00006,true,Rx,0,8,00,00,18,C0,67,00,40,00,
6711929,0100082C,true,Rx,0,8,0F,C0,91,15,65,FC,00,84,
6712204,0110483C,true,Rx,0,8,08,E2,20,00,44,66,FC,52,
6712486,0300410E,true,Rx,0,8,37,DE,98,F1,07,DE,6C,00,
6721927,0100082C,true,Rx,0,8,0F,C0,91,15,65,FC,00,84,
6722203,00800006,true,Rx,0,8,09,EC,0D,EC,41,EC,26,6E,
6722495,0090411E,true,Rx,0,8,02,00,E0,00,00,00,00,00,
6722774,0110483C,true,Rx,0,8,08,E2,20,00,44,66,FC,52,
6723053,0300410E,true,Rx,0,8,B7,DE,18,F1,87,DE,FC,00,
6723345,03800006,true,Rx,0,8,30,00,00,00,00,00,00,00,
6731949,0100082C,true,Rx,0,8,0F,C0,91,15,65,FC,00,84,
6732234,0110483C,true,Rx,0,8,08,E2,20,00,44,66,FC,52,
6732507,0300410E,true,Rx,0,8,37,DE,18,F1,07,DE,6C,00,
6732796,1A200020,true,Rx,0,8,0E,00,02,2D,00,00,02,2F,
6733087,1B700030,true,Rx,0,8,35,8E,22,00,00,00,03,00,
6741955,0100082C,true,Rx,0,8,0F,C0,91,15,65,FC,00,84,
6742230,00800006,true,Rx,0,8,49,EC,0D,EC,41,EC,26,6E,
6742522,0090411E,true,Rx,0,8,02,00,E0,00,00,00,00,00,
6742802,0110483C,true,Rx,0,8,08,E2,20,00,44,66,FC,52,
6743072,0300410E,true,Rx,0,8,B7,DE,98,F1,87,DE,FC,00,
6743373,03800006,true,Rx,0,8,30,00,00,00,00,00,00,00,
6751944,0100082C,true,Rx,0,8,0F,C0,91,15,65,FC,00,84,
6752220,0110483C,true,Rx,0,8,08,E2,A0,00,44,66,FC,52,
6752491,0300410E,true,Rx,0,8,B7,DE,18,F1,87,DE,FC,00,
6752781,19E00006,true,Rx,0,8,00,00,18,E0,67,00,40,00,
6761927,0100082C,true,Rx,0,8,0F,C0,91,15,65,FC,00,84,
6762212,00800006,true,Rx,0,8,81,EC,0D,EC,41,EC,A6,6E,
6762494,0090411E,true,Rx,0,8,C2,00,60,00,00,00,00,00,
6762784,0110483C,true,Rx,0,8,08,E2,20,00,44,66,FC,52,
6763054,0300410E,true,Rx,0,8,37,DE,18,F1,07,DE,6C,00,
6763355,03800006,true,Rx,0,8,70,00,00,00,00,00,00,00,
6771928,0100082C,true,Rx,0,8,0F,C0,91,15,65,FC,00,85,
6772203,0110483C,true,Rx,0,8,08,E2,20,00,44,66,FC,52,
6772485,0300410E,true,Rx,0,8,B7,DE,98,F1,87,DE,FC,00,
6772764,1B600002,true,Rx,0,8,00,80,00,4C,00,1B,4C,00,
6781929,0100082C,true,Rx,0,8,0F,C0,91,15,65,FC,00,85,
6782205,00800006,true,Rx,0,8,C9,EC,0D,EC,41,EC,26,6E,
6782486,0090411E,true,Rx,0,8,02,00,E0,00,00,00,00,00,
6782776,0110483C,true,Rx,0,8,08,E2,20,00,44,66,FC,52,
6783046,0300410E,true,Rx,0,8,B7,DE,18,F1,87,DE,FC,00,
6783347,03800006,true,Rx,0,8,30,00,00,00,00,00,00,00,
6791949,0100082C,true,Rx,0,8,0F,C0,91,15,65,FC,00,85,
6792225,0110483C,true,Rx,0,8,08,E2,20,00,44,66,FC,52,
6792506,0300410E,true,Rx,0,8,37,DE,18,F1,07,DE,6C,00,
6801937,0100082C,true,Rx,0,8,0F,C0,91,15,65,FC,00,85,
6802214,00800006,true,Rx,0,8,09,EC,0D,EC,41,EC,A6,6E,
6802494,0090411E,true,Rx,0,8,42,00,E0,00,00,00,00,00,
6802774,0110483C,true,Rx,0,8,08,E2,A0,00,44,66,FC,52,
6803054,0300410E,true,Rx,0,8,B7,DE,98,F1,87,DE,FC,00,
6803355,03800006,true,Rx,0,8,30,00,00,00,00,00,00,00,
6803635,19E00006,true,Rx,0,8,00,00,18,C0,67,00,40,00,
6811932,0100082C,true,Rx,0,8,0F,C0,91,15,65,FC,00,85,
6812219,0110483C,true,Rx,0,8,08,E2,20,00,44,66,FC,52,
6812489,0300410E,true,Rx,0,8,37,DE,18,F1,07,DE,6C,00,
6821922,0100082C,true,Rx,0,8,0F,C0,91,15,65,FC,00,85,
6822209,0110483C,true,Rx,0,8,08,E2,20,00,44,66,FC,52,
6822490,00800006,true,Rx,0,8,41,EC,0D,EC,41,EC,26,6E,
6822779,0090411E,true,Rx,0,8,02,00,60,00,00,00,00,00,
6823060,0300410E,true,Rx,0,8,B7,DE,18,F1,87,DE,FC,00,
6823350,03800006,true,Rx,0,8,30,00,00,00,00,00,00,00,
6831932,0100082C,true,Rx,0,8,0F,C0,91,15,65,FC,00,85,
6832208,0110483C,true,Rx,0,8,08,E2,20,00,44,66,FC,52,
6832478,0300410E,true,Rx,0,8,B7,DE,98,F1,87,DE,FC,00,
6841953,0100082C,true,Rx,0,8,0F,C0,91,15,65,FC,00,85,
6842229,0110483C,true,Rx,0,8,08,E2,20,00,44,66,FC,52,
6842510,00800006,true,Rx,0,8,89,EC,0D,EC,41,EC,A6,6E,
6842799,0090411E,true,Rx,0,8,42,00,E0,00,00,00,00,00,
6843069,0300410E,true,Rx,0,8,37,DE,18,F1,07,DE,6C,00,
6843371,03800006,true,Rx,0,8,30,00,00,00,00,00,00,00,
6851933,0100082C,true,Rx,0,8,0F,C0,91,15,65,FC,00,85,
6852209,0110483C,true,Rx,0,8,08,E2,A0,00,44,66,FC,52,
6852490,0300410E,true,Rx,0,8,B7,DE,18,F1,87,DE,FC,00,
6852779,19E00006,true,Rx,0,8,00,00,18,E0,67,00,40,00,
6861923,0100082C,true,Rx,0,8,0F,C0,91,15,65,FC,00,85,
6862210,0110483C,true,Rx,0,8,08,E2,20,00,44,66,FC,52,
6862490,00800006,true,Rx,0,8,C1,EC,0D,EC,41,EC,26,6E,
6862790,0090411E,true,Rx,0,8,82,00,60,00,00,00,00,00,
6863061,0300410E,true,Rx,0,8,B7,DE,18,F1,87,DE,FC,00,
6863363,03800006,true,Rx,0,8,70,00,00,00,00,00,00,00,
6871934,0100082C,true,Rx,0,8,0F,C0,91,15,65,FC,00,85,
6872210,0110483C,true,Rx,0,8,08,E2,20,00,44,66,FC,52,
6872491,0300410E,true,Rx,0,8,37,DE,98,F1,07,DE,6C,00,
6876968,1BA0493C,true,Rx,0,8,0F,01,01,01,01,01,00,00,
6881928,0100082C,true,Rx,0,8,0F,C0,91,15,65,FC,00,85,
6882205,0110483C,true,Rx,0,8,08,E2,20,00,44,66,FC,52,
6882486,00800006,true,Rx,0,8,09,EC,0D,EC,41,EC,26,6E,
6882775,0090411E,true,Rx,0,8,02,00,E0,00,00,00,00,00,
6883056,0300410E,true,Rx,0,8,B7,DE,18,F1,87,DE,FC,00,
6883357,03800006,true,Rx,0,8,30,00,00,00,00,00,00,00,
6891949,0100082C,true,Rx,0,8,0F,C0,91,15,65,FC,00,85,
6892225,0110483C,true,Rx,0,8,08,E2,20,00,44,66,FC,52,
6892506,0300410E,true,Rx,0,8,37,DE,18,F1,07,DE,6C,00,
6901937,0100082C,true,Rx,0,8,0F,C0,91,15,65,FC,00,85,
6902213,0110483C,true,Rx,0,8,08,E2,A0,00,44,66,FC,52,
6902494,00800006,true,Rx,0,8,49,EC,0D,EC,41,EC,A6,6E,
6902774,0090411E,true,Rx,0,8,42,00,E0,00,00,00,00,00,
6903054,0300410E,true,Rx,0,8,B7,DE,98,F1,87,DE,FC,00,
6903355,03800006,true,Rx,0,8,30,00,00,00,00,00,00,00,
6903635,19E00006,true,Rx,0,8,00,00,18,C0,67,00,40,00,
6911929,0100082C,true,Rx,0,8,0F,C0,91,15,65,FC,00,85,
6912205,0110483C,true,Rx,0,8,08,E2,20,00,44,66,FC,52,
6912486,0300410E,true,Rx,0,8,B7,DE,18,F1,87,DE,FC,00,
6921937,0100082C,true,Rx,0,8,0F,C0,91,15,65,FC,00,85,
6922213,0110483C,true,Rx,0,8,08,E2,20,00,44,66,FC,52,
6922494,00800006,true,Rx,0,8,89,EC,0D,EC,41,EC,26,6E,
6922785,0090411E,true,Rx,0,8,02,00,E0,00,00,00,00,00,
6923064,0300410E,true,Rx,0,8,37,DE,98,F1,07,DE,6C,00,
6923365,03800006,true,Rx,0,8,30,00,00,00,00,00,00,00,
6931927,0100082C,true,Rx,0,8,0F,C0,91,15,65,FC,00,85,
6932214,0110483C,true,Rx,0,8,08,E2,20,00,44,66,FC,52,
6932484,0300410E,true,Rx,0,8,B7,DE,18,F1,87,DE,FC,00,
6941978,0100082C,true,Rx,0,8,0F,C0,91,15,65,FC,00,85,
6942264,0110483C,true,Rx,0,8,08,E2,20,00,44,66,FC,52,
6942544,00800006,true,Rx,0,8,C1,EC,0D,EC,41,EC,26,6E,
6942835,0090411E,true,Rx,0,8,02,00,60,00,00,00,00,00,
6943115,0300410E,true,Rx,0,8,B7,DE,18,F1,87,DE,FC,00,
6943416,03800006,true,Rx,0,8,30,00,00,00,00,00,00,00,
6943696,1AE0092C,true,Rx,0,8,C0,00,22,E0,41,A0,00,00,
6943986,1B600002,true,Rx,0,8,00,80,00,5C,00,1B,4C,00,
6944265,1B700030,true,Rx,0,8,25,8E,22,00,00,00,03,00,
6951941,0100082C,true,Rx,0,8,0F,C0,91,15,65,FC,00,85,
6952216,0110483C,true,Rx,0,8,08,E2,A0,00,44,66,FC,52,
6952497,0300410E,true,Rx,0,8,37,DE,98,F1,07,DE,6C,00,
6952778,19E00006,true,Rx,0,8,00,00,18,E0,67,00,40,00,
6961934,0100082C,true,Rx,0,8,0F,C0,91,15,65,FC,00,85,
6962209,0110483C,true,Rx,0,8,08,E2,20,00,44,66,FC,52,
6962491,00800006,true,Rx,0,8,09,EC,0D,EC,41,EC,A6,6E,
6962782,0090411E,true,Rx,0,8,C2,00,E0,00,00,00,00,00,
6963051,0300410E,true,Rx,0,8,B7,DE,18,F1,87,DE,FC,00,
6963352,03800006,true,Rx,0,8,70,00,00,00,00,00,00,00,
6971934,0100082C,true,Rx,0,8,0F,C0,91,15,65,FC,00,85,
6972210,0110483C,true,Rx,0,8,08,E2,20,00,44,66,FC,52,
6972490,0300410E,true,Rx,0,8,37,DE,18,F1,07,DE,6C,00,
6981934,0100082C,true,Rx,0,8,0F,C0,91,15,65,FC,00,85,
6982209,0110483C,true,Rx,0,8,08,E2,20,00,44,66,FC,52,
6982491,00800006,true,Rx,0,8,49,EC,0D,EC,41,EC,26,6E,
6982771,0090411E,true,Rx,0,8,02,00,E0,00,00,00,00,00,
6983051,0300410E,true,Rx,0,8,B7,DE,98,F1,87,DE,FC,00,
6983352,03800006,true,Rx,0,8,30,00,00,00,00,00,00,00,
6991966,0100082C,true,Rx,0,8,0F,C0,91,15,65,FC,00,85,
6992241,0110483C,true,Rx,0,8,08,E2,20,00,44,66,FC,52,
6992522,0300410E,true,Rx,0,8,B7,DE,18,F1,87,DE,FC,00,
7001944,0100082C,true,Rx,0,8,0F,C0,91,15,65,FC,00,85,
7002219,0110483C,true,Rx,0,8,08,E2,A0,00,44,66,FC,52,
7002500,00800006,true,Rx,0,8,81,EC,0D,EC,41,EC,A6,6E,
7002791,0090411E,true,Rx,0,8,42,00,60,00,00,00,00,00,
7003070,0300410E,true,Rx,0,8,37,DE,18,F1,07,DE,6C,00,
7003361,03800006,true,Rx,0,8,30,00,00,00,00,00,00,00,
7003651,19E00006,true,Rx,0,8,00,00,18,C0,67,00,40,00,
7011927,0100082C,true,Rx,0,8,0F,C0,91,15,65,FC,00,85,
7012213,0110483C,true,Rx,0,8,08,E2,20,00,44,66,FC,52,
7012483,0300410E,true,Rx,0,8,B7,DE,98,F1,87,DE,FC,00,
7021935,0100082C,true,Rx,0,8,0F,C0,91,15,65,FC,00,85,
7022210,0110483C,true,Rx,0,8,08,E2,20,00,44,66,FC,52,
7022490,00800006,true,Rx,0,8,C9,EC,0D,EC,41,EC,26,6E,
7022781,0090411E,true,Rx,0,8,02,00,E0,00,00,00,00,00,
7023050,0300410E,true,Rx,0,8,B7,DE,18,F1,87,DE,FC,00,
7023353,03800006,true,Rx,0,8,30,00,00,00,00,00,00,00,
7031945,0100082C,true,Rx,0,8,0F,C0,91,15,65,FC,00,85,
7032220,0110483C,true,Rx,0,8,08,E2,20,00,44,66,FC,52,
7032500,0300410E,true,Rx,0,8,37,DE,18,F1,07,DE,6C,00,
7041954,0100082C,true,Rx,0,8,0F,C0,91,15,65,FC,00,85,
7042240,0110483C,true,Rx,0,8,08,E2,20,00,44,66,FC,52,
7042520,00800006,true,Rx,0,8,09,EC,0D,EC,41,EC,26,6E,
7042811,0090411E,true,Rx,0,8,02,00,E0,00,00,00,00,00,
7043080,0300410E,true,Rx,0,8,B7,DE,98,F1,87,DE,FC,00,
7043383,03800006,true,Rx,0,8,30,00,00,00,00,00,00,00,
7047010,1A200020,true,Rx,0,8,4E,00,02,2D,00,00,02,2F,
7051940,0100082C,true,Rx,0,8,0F,C0,91,15,65,FC,00,85,
7052216,0110483C,true,Rx,0,8,08,E2,A0,00,44,66,FC,52,
7052496,0300410E,true,Rx,0,8,37,DE,18,F1,07,DE,6C,00,
7052777,19E00006,true,Rx,0,8,00,00,18,E0,67,00,40,00,
7061934,0100082C,true,Rx,0,8,0F,C0,91,15,65,FC,00,85,
7062209,0110483C,true,Rx,0,8,08,E2,20,00,44,66,FC,52,
7062500,00800006,true,Rx,0,8,41,EC,0D,EC,41,EC,A6,6E,
7062790,0090411E,true,Rx,0,8,C2,00,60,00,00,00,00,00,
7063059,0300410E,true,Rx,0,8,B7,DE,18,F1,87,DE,FC,00,
7063362,03800006,true,Rx,0,8,70,00,00,00,00,00,00,00,
7071934,0100082C,true,Rx,0,8,0F,C0,91,15,65,FC,00,85,
7072209,0110483C,true,Rx,0,8,08,E2,20,00,44,66,FC,52,
7072489,0300410E,true,Rx,0,8,B7,DE,98,F1,87,DE,FC,00,
7081942,0100082C,true,Rx,0,8,0F,C0,91,15,65,FC,00,85,
7082228,0110483C,true,Rx,0,8,08,E2,20,00,44,66,FC,52,
7082499,00800006,true,Rx,0,8,89,EC,0D,EC,41,EC,26,6E,
7082789,0090411E,true,Rx,0,8,02,00,E0,00,00,00,00,00,
7083068,0300410E,true,Rx,0,8,37,DE,18,F1,07,DE,6C,00,
7083360,03800006,true,Rx,0,8,30,00,00,00,00,00,00,00,
7091953,0100082C,true,Rx,0,8,0F,C0,91,15,65,FC,00,85,
7092228,0110483C,true,Rx,0,8,08,E2,20,00,44,66,FC,52,
7092510,0300410E,true,Rx,0,8,B7,DE,18,F1,87,DE,FC,00,
7101940,0100082C,true,Rx,0,8,0F,C0,91,15,65,FC,00,85,
7102215,0110483C,true,Rx,0,8,08,E2,A0,00,44,66,FC,52,
7102517,00800006,true,Rx,0,8,C1,EC,0D,EC,41,EC,A6,6E,
7102807,0090411E,true,Rx,0,8,42,00,60,00,00,00,00,00,
7103076,0300410E,true,Rx,0,8,B7,DE,18,F1,87,DE,FC,00,
7103378,03800006,true,Rx,0,8,30,00,00,00,00,00,00,00,
7103668,19E00006,true,Rx,0,8,00,00,18,C0,67,00,40,00,
7111944,0100082C,true,Rx,0,8,0F,C0,91,15,65,FC,00,85,
7112219,0110483C,true,Rx,0,8,08,E2,20,00,44,66,FC,52,
7112522,0300410E,true,Rx,0,8,37,DE,98,F1,07,DE,6C,00,
7112811,1B600002,true,Rx,0,8,00,80,00,4C,00,1B,4C,00,
7121935,0100082C,true,Rx,0,8,0F,C0,91,15,65,FC,00,85,
7122210,0110483C,true,Rx,0,8,08,E2,20,00,44,66,FC,52,
7122533,00800006,true,Rx,0,8,09,EC,0D,EC,41,EC,26,6E,
7122823,0090411E,true,Rx,0,8,02,00,E0,00,00,00,00,00,
7123102,0300410E,true,Rx,0,8,B7,DE,18,F1,87,DE,FC,00,
7123394,03800006,true,Rx,0,8,30,00,00,00,00,00,00,00,
7127011,1BA0493C,true,Rx,0,8,10,01,00,00,00,00,00,00,
7131932,0100082C,true,Rx,0,8,0F,C0,91,15,65,FC,00,85,
7132218,0110483C,true,Rx,0,8,08,E2,20,00,44,66,FC,52,
7132541,0300410E,true,Rx,0,8,37,DE,18,F1,07,DE,6C,00,
7141961,0100082C,true,Rx,0,8,0F,C0,91,15,65,FC,00,85,
7142236,0110483C,true,Rx,0,8,08,E2,20,00,44,66,FC,52,
7142548,00800006,true,Rx,0,8,49,EC,0D,EC,41,EC,A6,6E,
7142838,0090411E,true,Rx,0,8,42,00,E0,00,00,00,00,00,
7143117,0300410E,true,Rx,0,8,B7,DE,98,F1,87,DE,FC,00,
7143409,03800006,true,Rx,0,8,30,00,00,00,00,00,00,00,
7151970,0100082C,true,Rx,0,8,0F,C0,91,15,65,FC,00,85,
7152256,0110483C,true,Rx,0,8,08,E2,A0,00,44,66,FC,52,
7152538,1B700030,true,Rx,0,8,35,8E,22,00,00,00,03,00,
7152818,0300410E,true,Rx,0,8,B7,DE,18,F1,87,DE,FC,00,
7153107,19E00006,true,Rx,0,8,00,00,18,E0,67,00,40,00,
7161968,0100082C,true,Rx,0,8,0F,C0,91,15,65,FC,00,85,
7162244,0110483C,true,Rx,0,8,08,E2,20,00,44,66,FC,52,
7162577,00800006,true,Rx,0,8,89,EC,0D,EC,41,EC,26,6E,
7162856,0090411E,true,Rx,0,8,82,00,E0,00,00,00,00,00,
7163136,0300410E,true,Rx,0,8,37,DE,98,F1,07,DE,6C,00,
7163437,03800006,true,Rx,0,8,70,00,00,00,00,00,00,00,
7171948,0100082C,true,Rx,0,8,0F,C0,91,15,65,FC,00,85,
7172223,0110483C,true,Rx,0,8,08,E2,20,00,44,66,FC,52,
7172587,0300410E,true,Rx,0,8,B7,DE,18,F1,87,DE,FC,00,
7181935,0100082C,true,Rx,0,8,0F,C0,91,15,65,FC,00,85,
7182220,0110483C,true,Rx,0,8,08,E2,20,00,44,66,FC,52,
7182605,00800006,true,Rx,0,8,C1,EC,0D,EC,41,EC,26,6E,
7182895,0090411E,true,Rx,0,8,02,00,60,00,00,00,00,00,
7183175,0300410E,true,Rx,0,8,B7,DE,18,F1,87,DE,FC,00,
7183476,03800006,true,Rx,0,8,30,00,00,00,00,00,00,00,
7191955,0100082C,true,Rx,0,8,0F,C0,91,15,65,FC,00,85,
7192230,0110483C,true,Rx,0,8,08,E2,20,00,44,66,FC,52,
7192615,0300410E,true,Rx,0,8,37,DE,98,F1,07,DE,6C,00,
7201942,0100082C,true,Rx,0,8,0F,C0,91,15,65,FC,00,85,
7202217,0110483C,true,Rx,0,8,08,E2,A0,00,44,66,FC,52,
7202622,00800006,true,Rx,0,8,09,EC,0D,EC,41,EC,A6,6E,
7202912,0090411E,true,Rx,0,8,42,00,E0,00,00,00,00,00,
7203182,0300410E,true,Rx,0,8,B7,DE,18,F1,87,DE,FC,00,
7203483,03800006,true,Rx,0,8,30,00,00,00,00,00,00,00,
7203763,19E00006,true,Rx,0,8,00,00,18,C0,67,00,40,00,
7211935,0100082C,true,Rx,0,8,0F,C0,91,15,65,FC,00,85,
7212221,0110483C,true,Rx,0,8,08,E2,20,00,44,66,FC,52,
7212636,0300410E,true,Rx,0,8,37,DE,18,F1,07,DE,6C,00,
7221933,0100082C,true,Rx,0,8,0F,C0,91,15,65,FC,00,85,
7222218,0110483C,true,Rx,0,8,08,E2,20,00,44,66,FC,52,
7222645,00800006,true,Rx,0,8,49,EC,0D,EC,41,EC,26,6E,
7222934,0090411E,true,Rx,0,8,02,00,E0,00,00,00,00,00,
7223204,0300410E,true,Rx,0,8,B7,DE,98,F1,87,DE,FC,00,
7223506,03800006,true,Rx,0,8,30,00,00,00,00,00,00,00,
7231945,0100082C,true,Rx,0,8,0F,C0,91,15,65,FC,00,85,
7232220,0110483C,true,Rx,0,8,08,E2,20,00,44,66,FC,52,
7232646,0300410E,true,Rx,0,8,B7,DE,18,F1,87,DE,FC,00,
7241964,0100082C,true,Rx,0,8,0F,C0,91,15,65,FC,00,85,
7242240,0110483C,true,Rx,0,8,08,E2,20,00,44,66,FC,52,
7242665,00800006,true,Rx,0,8,81,EC,0D,EC,41,EC,A6,6E,
7242955,0090411E,true,Rx,0,8,42,00,60,00,00,00,00,00,
7243235,0300410E,true,Rx,0,8,37,DE,18,F1,07,DE,6C,00,
7243527,03800006,true,Rx,0,8,30,00,00,00,00,00,00,00,
7251944,0100082C,true,Rx,0,8,0F,C0,91,15,65,FC,00,85,
7252221,0110483C,true,Rx,0,8,08,E2,A0,00,44,66,FC,52,
7252666,0300410E,true,Rx,0,8,B7,DE,98,F1,87,DE,FC,00,
7252955,19E00006,true,Rx,0,8,00,00,18,E0,67,00,40,00,
7261947,0100082C,true,Rx,0,8,0F,C0,91,15,65,FC,00,85,
7262224,0110483C,true,Rx,0,8,08,E2,20,00,44,66,FC,52,
7262679,00800006,true,Rx,0,8,C9,EC,0D,EC,41,EC,26,6E,
7262970,0090411E,true,Rx,0,8,82,00,E0,00,00,00,00,00,
7263249,0300410E,true,Rx,0,8,B7,DE,18,F1,87,DE,FC,00,
7263540,03800006,true,Rx,0,8,70,00,00,00,00,00,00,00,
7271937,0100082C,true,Rx,0,8,0F,C0,91,15,65,FC,00,85,
7272214,0110483C,true,Rx,0,8,08,E2,20,00,44,66,FC,52,
7272690,0300410E,true,Rx,0,8,37,DE,18,F1,07,DE,6C,00,
7281987,0100082C,true,Rx,0,8,0F,C0,91,15,65,FC,00,85,
7282263,0110483C,true,Rx,0,8,08,E2,20,00,44,66,FC,52,
7282708,00800006,true,Rx,0,8,09,EC,0D,EC,41,EC,26,6E,
7282989,0090411E,true,Rx,0,8,02,00,E0,00,00,00,00,00,
7283268,0300410E,true,Rx,0,8,B7,DE,98,F1,87,DE,FC,00,
7283569,03800006,true,Rx,0,8,30,00,00,00,00,00,00,00,
7283850,1B600002,true,Rx,0,8,00,80,00,4C,00,1B,4C,00,
7291959,0100082C,true,Rx,0,8,0F,C0,91,15,65,FC,00,85,
7292236,0110483C,true,Rx,0,8,08,E2,20,00,44,66,FC,52,
7292712,0300410E,true,Rx,0,8,37,DE,18,F1,07,DE,6C,00,
7301947,0100082C,true,Rx,0,8,0F,C0,91,15,65,FC,00,85,
7302223,0110483C,true,Rx,0,8,08,E2,A0,00,44,66,FC,52,
7302720,00800006,true,Rx,0,8,41,EC,0D,EC,41,EC,A6,6E,
7303011,0090411E,true,Rx,0,8,42,00,60,00,00,00,00,00,
7303290,0300410E,true,Rx,0,8,B7,DE,18,F1,87,DE,FC,00,
7303591,03800006,true,Rx,0,8,30,00,00,00,00,00,00,00,
7303871,19E00006,true,Rx,0,8,00,00,18,C0,67,00,40,00,
7311940,0100082C,true,Rx,0,8,0F,C0,91,15,65,FC,00,85,
7312216,0110483C,true,Rx,0,8,08,E2,20,00,44,66,FC,52,
7312733,0300410E,true,Rx,0,8,B7,DE,98,F1,87,DE,FC,00,
7321938,0100082C,true,Rx,0,8,0F,C0,91,15,65,FC,00,85,
7322215,0110483C,true,Rx,0,8,08,E2,20,00,44,66,FC,52,
7322743,00800006,true,Rx,0,8,89,EC,0D,EC,41,EC,26,6E,
7323024,0090411E,true,Rx,0,8,02,00,E0,00,00,00,00,00,
7323303,0300410E,true,Rx,0,8,37,DE,18,F1,07,DE,6C,00,
7323604,03800006,true,Rx,0,8,30,00,00,00,00,00,00,00,
7331949,0100082C,true,Rx,0,8,0F,C0,91,15,65,FC,00,85,
7332226,0110483C,true,Rx,0,8,08,E2,20,00,44,66,FC,52,
7332753,0300410E,true,Rx,0,8,B7,DE,18,F1,87,DE,FC,00,
7341968,0100082C,true,Rx,0,8,0F,C0,91,15,65,FC,00,85,
7342244,0110483C,true,Rx,0,8,08,E2,20,00,44,66,FC,52,
7342771,00800006,true,Rx,0,8,C1,EC,0D,EC,41,EC,26,6E,
7343062,0090411E,true,Rx,0,8,02,00,60,00,00,00,00,00,
7343332,0300410E,true,Rx,0,8,B7,DE,18,F1,87,DE,FC,00,
7343633,03800006,true,Rx,0,8,30,00,00,00,00,00,00,00,
7351968,0100082C,true,Rx,0,8,0F,C0,91,15,65,FC,00,85,
7352245,0110483C,true,Rx,0,8,08,E2,A0,00,44,66,FC,52,
7352772,0300410E,true,Rx,0,8,37,DE,98,F1,07,DE,6C,00,
7353063,19E00006,true,Rx,0,8,00,00,18,E0,67,00,40,00,
7361980,0100082C,true,Rx,0,8,0F,C0,91,15,65,FC,00,85,
7362256,0110483C,true,Rx,0,8,08,E2,20,00,44,66,FC,52,
7362537,1A200020,true,Rx,0,8,8E,00,02,2D,00,00,02,2F,
7362817,00800006,true,Rx,0,8,09,EC,0D,EC,41,EC,A6,6E,
7363107,0090411E,true,Rx,0,8,C2,00,E0,00,00,00,00,00,
7363387,0300410E,true,Rx,0,8,B7,DE,18,F1,87,DE,FC,00,
7363678,03800006,true,Rx,0,8,70,00,00,00,00,00,00,00,
7363968,1AE0092C,true,Rx,0,8,00,00,22,E0,41,A0,00,00,
7364256,1B700030,true,Rx,0,8,25,8E,22,00,00,00,03,00,
7371943,0100082C,true,Rx,0,8,0F,C0,91,15,65,FC,00,85,
7372220,0110483C,true,Rx,0,8,08,E2,20,00,44,66,FC,52,
7372790,0300410E,true,Rx,0,8,37,DE,18,F1,07,DE,6C,00,
7376989,1BA0493C,true,Rx,0,8,11,00,00,00,00,00,00,00,
7377264,1BE0493C,true,Rx,0,8,01,00,2A,6D,D3,E0,FD,FB,
7381945,0100082C,true,Rx,0,8,0F,C0,91,15,65,FC,00,85,
7382221,0110483C,true,Rx,0,8,08,E2,20,00,44,66,FC,52,
7382801,00800006,true,Rx,0,8,49,EC,0D,EC,41,EC,26,6E,
7383091,0090411E,true,Rx,0,8,02,00,E0,00,00,00,00,00,
7383361,0300410E,true,Rx,0,8,B7,DE,98,F1,87,DE,FC,00,
7383662,03800006,true,Rx,0,8,30,00,00,00,00,00,00,00,
7391955,0100082C,true,Rx,0,8,0F,C0,91,15,65,FC,00,85,
7392241,0110483C,true,Rx,0,8,08,E2,20,00,44,66,FC,52,
7392811,0300410E,true,Rx,0,8,B7,DE,18,F1,87,DE,FC,00,
7401953,0100082C,true,Rx,0,8,0F,C0,91,15,65,FC,00,85,
7402229,0110483C,true,Rx,0,8,08,E2,A0,00,44,66,FC,52,
7402819,00800006,true,Rx,0,8,89,EC,0D,EC,41,EC,A6,6E,
7403109,0090411E,true,Rx,0,8,42,00,E0,00,00,00,00,00,
7403389,0300410E,true,Rx,0,8,37,DE,98,F1,07,DE,6C,00,
7403680,03800006,true,Rx,0,8,30,00,00,00,00,00,00,00,
7403969,19E00006,true,Rx,0,8,00,00,18,C0,67,00,40,00,
7411946,0100082C,true,Rx,0,8,0F,C0,91,15,65,FC,00,85,
7412222,0110483C,true,Rx,0,8,08,E2,20,00,44,66,FC,52,
7412833,0300410E,true,Rx,0,8,B7,DE,18,F1,87,DE,FC,00,
7421945,0100082C,true,Rx,0,8,0F,C0,91,15,65,FC,00,85,
7422220,0110483C,true,Rx,0,8,08,E2,20,00,44,66,FC,52,
7422851,00800006,true,Rx,0,8,C1,EC,0D,EC,41,EC,26,6E,
7423141,0090411E,true,Rx,0,8,02,00,60,00,00,00,00,00,
7423411,0300410E,true,Rx,0,8,B7,DE,18,F1,87,DE,FC,00,
7423712,03800006,true,Rx,0,8,30,00,00,00,00,00,00,00,
7431944,0100082C,true,Rx,0,8,0F,C0,91,15,65,FC,00,85,
7432219,0110483C,true,Rx,0,8,08,E2,20,00,44,66,FC,52,
7432850,0300410E,true,Rx,0,8,37,DE,98,F1,07,DE,6C,00,
7441974,0100082C,true,Rx,0,8,0F,C0,91,15,65,FC,00,85,
7442259,0110483C,true,Rx,0,8,08,E2,20,00,44,66,FC,52,
7442860,00800006,true,Rx,0,8,09,EC,0D,EC,41,EC,A6,6E,
7443149,0090411E,true,Rx,0,8,42,00,E0,00,00,00,00,00,
7443420,0300410E,true,Rx,0,8,B7,DE,18,F1,87,DE,FC,00,
7443721,03800006,true,Rx,0,8,30,00,00,00,00,00,00,00,
7451953,0100082C,true,Rx,0,8,0F,C0,91,15,65,FC,00,85,
7452228,0110483C,true,Rx,0,8,08,E2,A0,00,44,66,FC,52,
7452870,0300410E,true,Rx,0,8,37,DE,18,F1,07,DE,6C,00,
7453159,19E00006,true,Rx,0,8,00,00,18,E0,67,00,40,00,
7453441,1B600002,true,Rx,0,8,00,80,00,4C,00,1B,4C,00,
7461948,0100082C,true,Rx,0,8,0F,C0,91,15,65,FC,00,85,
7462224,0110483C,true,Rx,0,8,08,E2,20,00,44,66,FC,52,
7462875,00800006,true,Rx,0,8,49,EC,0D,EC,41,EC,26,6E,
7463165,0090411E,true,Rx,0,8,82,00,E0,00,00,00,00,00,
7463447,0300410E,true,Rx,0,8,B7,DE,98,F1,87,DE,FC,00,
7463736,03800006,true,Rx,0,8,70,00,00,00,00,00,00,00,
7471949,0100082C,true,Rx,0,8,0F,C0,91,15,65,FC,00,85,
7472235,0110483C,true,Rx,0,8,08,E2,20,00,44,66,FC,52,
7472887,0300410E,true,Rx,0,8,B7,DE,18,F1,87,DE,FC,00,
7481939,0100082C,true,Rx,0,8,0F,C0,91,15,65,FC,00,85,
7482224,0110483C,true,Rx,0,8,08,E2,20,00,44,66,FC,52,
7482906,00800006,true,Rx,0,8,81,EC,0D,EC,41,EC,26,6E,
7483196,0090411E,true,Rx,0,8,02,00,60,00,00,00,00,00,
7483467,0300410E,true,Rx,0,8,37,DE,18,F1,07,DE,6C,00,
7483767,03800006,true,Rx,0,8,30,00,00,00,00,00,00,00,
7491960,0100082C,true,Rx,0,8,0F,C0,91,15,65,FC,00,85,
7492245,0110483C,true,Rx,0,8,08,E2,20,00,44,66,FC,52,
7492908,0300410E,true,Rx,0,8,B7,DE,98,F1,87,DE,FC,00,
7501950,0100082C,true,Rx,0,8,0F,C0,91,15,65,FC,00,85,
7502225,0110483C,true,Rx,0,8,08,E2,A0,00,44,66,FC,52,
7502919,00800006,true,Rx,0,8,C9,EC,0D,EC,41,EC,A6,6E,
7503208,0090411E,true,Rx,0,8,42,00,E0,00,00,00,00,00,
7503480,0300410E,true,Rx,0,8,B7,DE,18,F1,87,DE,FC,00,
7503780,03800006,true,Rx,0,8,30,00,00,00,00,00,00,00,
7504064,19E00006,true,Rx,0,8,00,00,18,C0,67,00,40,00,
7511947,0100082C,true,Rx,0,8,0F,C0,91,15,65,FC,00,85,
7512223,0110483C,true,Rx,0,8,08,E2,20,00,44,66,FC,52,
7512926,0300410E,true,Rx,0,8,37,DE,18,F1,07,DE,6C,00,
7521955,0100082C,true,Rx,0,8,0F,C0,91,15,65,FC,00,85,
7522230,0110483C,true,Rx,0,8,08,E2,20,00,44,66,FC,52,
7522944,00800006,true,Rx,0,8,09,EC,0D,EC,41,EC,26,6E,
7523233,0090411E,true,Rx,0,8,02,00,E0,00,00,00,00,00,
7523505,0300410E,true,Rx,0,8,B7,DE,98,F1,87,DE,FC,00,
7523805,03800006,true,Rx,0,8,30,00,00,00,00,00,00,00,
7531954,0100082C,true,Rx,0,8,0F,C0,91,15,65,FC,00,85,
7532229,0110483C,true,Rx,0,8,08,E2,20,00,44,66,FC,52,
7532953,0300410E,true,Rx,0,8,37,DE,18,F1,07,DE,6C,00,
7541974,0100082C,true,Rx,0,8,0F,C0,91,15,65,FC,00,85,
7542249,0110483C,true,Rx,0,8,08,E2,20,00,44,66,FC,52,
7542962,00800006,true,Rx,0,8,41,EC,0D,EC,41,EC,A6,6E,
7543252,0090411E,true,Rx,0,8,42,00,60,00,00,00,00,00,
7543523,0300410E,true,Rx,0,8,B7,DE,18,F1,87,DE,FC,00,
7543823,03800006,true,Rx,0,8,30,00,00,00,00,00,00,00,
7551953,0100082C,true,Rx,0,8,0F,C0,91,15,65,FC,00,85,
7552229,0110483C,true,Rx,0,8,08,E2,A0,00,44,66,FC,52,
7552963,0300410E,true,Rx,0,8,B7,DE,98,F1,87,DE,FC,00,
7553252,19E00006,true,Rx,0,8,00,00,18,E0,67,00,40,00,
7561945,0100082C,true,Rx,0,8,0F,C0,91,15,65,FC,00,85,
7562231,0110483C,true,Rx,0,8,08,E2,20,00,44,66,FC,52,
7562975,00800006,true,Rx,0,8,89,EC,0D,EC,41,EC,26,6E,
7563265,0090411E,true,Rx,0,8,82,00,E0,00,00,00,00,00,
7563546,0300410E,true,Rx,0,8,37,DE,18,F1,07,DE,6C,00,
7563836,03800006,true,Rx,0,8,70,00,00,00,00,00,00,00,
7571954,0100082C,true,Rx,0,8,0F,C0,91,15,65,FC,00,85,
7572240,0110483C,true,Rx,0,8,08,E2,20,00,44,66,FC,52,
7572523,1B700030,true,Rx,0,8,25,8E,22,00,00,00,03,00,
7572987,0300410E,true,Rx,0,8,B7,DE,18,F1,87,DE,FC,00,
7581948,0100082C,true,Rx,0,8,0F,C0,91,15,65,FC,00,85,
7582223,0110483C,true,Rx,0,8,08,E2,20,00,44,66,FC,52,
7583009,00800006,true,Rx,0,8,C1,EC,0D,EC,41,EC,26,6E,
7583299,0090411E,true,Rx,0,8,02,00,60,00,00,00,00,00,
7583570,0300410E,true,Rx,0,8,B7,DE,18,F1,87,DE,FC,00,
7583869,03800006,true,Rx,0,8,30,00,00,00,00,00,00,00,
7591968,0100082C,true,Rx,0,8,0F,C0,91,15,65,FC,00,85,
7592243,0110483C,true,Rx,0,8,08,E2,20,00,44,66,FC,52,
7593018,0300410E,true,Rx,0,8,37,DE,98,F1,07,DE,6C,00,
7601955,0100082C,true,Rx,0,8,0F,C0,91,15,65,FC,00,85,
7602230,0110483C,true,Rx,0,8,08,E2,A0,00,44,66,FC,52,
7603016,00800006,true,Rx,0,8,09,EC,0D,EC,41,EC,A6,6E,
7603306,0090411E,true,Rx,0,8,42,00,E0,00,00,00,00,00,
7603587,0300410E,true,Rx,0,8,B7,DE,18,F1,87,DE,FC,00,
7603877,03800006,true,Rx,0,8,30,00,00,00,00,00,00,00,
7604162,19E00006,true,Rx,0,8,00,00,18,C0,67,00,40,00,
7611951,0100082C,true,Rx,0,8,0F,C0,91,15,65,FC,00,85,
7612226,0110483C,true,Rx,0,8,08,E2,20,00,44,66,FC,52,
7613032,0300410E,true,Rx,0,8,37,DE,18,F1,07,DE,6C,00,
7621960,0100082C,true,Rx,0,8,0F,C0,91,15,65,FC,00,85,
7622235,0110483C,true,Rx,0,8,08,E2,20,00,44,66,FC,52,
7623041,00800006,true,Rx,0,8,49,EC,0D,EC,41,EC,26,6E,
7623323,0090411E,true,Rx,0,8,02,00,E0,00,00,00,00,00,
7623602,0300410E,true,Rx,0,8,B7,DE,98,F1,87,DE,FC,00,
7623902,03800006,true,Rx,0,8,30,00,00,00,00,00,00,00,
7624187,1B600002,true,Rx,0,8,00,80,00,4C,00,1B,4C,00,
7627142,1BA0493C,true,Rx,0,8,12,00,00,00,00,00,00,00,
7631943,0100082C,true,Rx,0,8,0F,C0,91,15,65,FC,00,85,
7632229,0110483C,true,Rx,0,8,08,E2,20,00,44,66,FC,52,
7633045,0300410E,true,Rx,0,8,B7,DE,18,F1,87,DE,FC,00,
7641973,0100082C,true,Rx,0,8,0F,C0,91,15,65,FC,00,85,
7642248,0110483C,true,Rx,0,8,08,E2,20,00,44,66,FC,52,
7643064,00800006,true,Rx,0,8,89,EC,0D,EC,41,EC,26,6E,
7643347,0090411E,true,Rx,0,8,02,00,E0,00,00,00,00,00,
7643626,0300410E,true,Rx,0,8,37,DE,98,F1,07,DE,6C,00,
7643927,03800006,true,Rx,0,8,30,00,00,00,00,00,00,00,
7651953,0100082C,true,Rx,0,8,0F,C0,91,15,65,FC,00,85,
7652228,0110483C,true,Rx,0,8,08,E2,A0,00,44,66,FC,52,
7653064,0300410E,true,Rx,0,8,B7,DE,18,F1,87,DE,FC,00,
7653357,19E00006,true,Rx,0,8,00,00,18,E0,67,00,40,00,
7661945,0100082C,true,Rx,0,8,0F,C0,91,15,65,FC,00,85,
7662230,0110483C,true,Rx,0,8,08,E2,20,00,44,66,FC,52,
7663087,00800006,true,Rx,0,8,C1,EC,0D,EC,41,EC,A6,6E,
7663369,0090411E,true,Rx,0,8,C2,00,60,00,00,00,00,00,
7663648,0300410E,true,Rx,0,8,B7,DE,18,F1,87,DE,FC,00,
7663949,03800006,true,Rx,0,8,70,00,00,00,00,00,00,00,
7671944,0100082C,true,Rx,0,8,0F,C0,91,15,65,FC,00,85,
7672230,0110483C,true,Rx,0,8,08,E2,20,00,44,66,FC,52,
7673088,0300410E,true,Rx,0,8,37,DE,98,F1,07,DE,6C,00,
7676999,1A200020,true,Rx,0,8,CE,00,02,2D,00,00,02,2F,
7681948,0100082C,true,Rx,0,8,0F,C0,91,15,65,FC,00,85,
7682234,0110483C,true,Rx,0,8,08,E2,20,00,44,66,FC,52,
7683102,00800006,true,Rx,0,8,09,EC,0D,EC,41,EC,26,6E,
