Time Stamp,ID,Extended,Dir,Bus,LEN,D1,D2,D3,D4,D5,D6,D7,D8
119783103,0100082C,true,Rx,0,8,00,C0,80,62,62,04,00,95,
119783389,0110483C,true,Rx,0,8,00,C0,00,00,80,66,D8,54,
119783679,1A200020,true,Rx,0,8,2C,00,02,33,00,00,02,31,
119783959,1AE0092C,true,Rx,0,8,20,00,22,20,01,A0,00,00,
119784240,1B700030,true,Rx,0,8,2C,8F,22,00,00,00,03,00,
119793202,0100082C,true,Rx,0,8,00,C0,80,62,62,04,00,95,
119793477,0110483C,true,Rx,0,8,08,E0,20,08,44,66,FC,54,
119803163,0100082C,true,Rx,0,8,00,C0,80,62,62,04,00,95,
119803450,0110483C,true,Rx,0,8,08,E0,A0,00,44,66,FC,54,
119813169,0100082C,true,Rx,0,8,00,C0,80,62,62,04,00,95,
119813455,0110483C,true,Rx,0,8,08,E0,20,00,44,66,FC,55,
119823174,0100082C,true,Rx,0,8,00,C0,80,62,62,04,00,95,
119823460,0110483C,true,Rx,0,8,08,E0,20,00,44,66,FC,55,
119833190,0100082C,true,Rx,0,8,00,C0,80,62,62,04,00,95,
119833465,0110483C,true,Rx,0,8,08,E0,20,00,44,66,FC,55,
119843175,0100082C,true,Rx,0,8,00,C0,80,62,62,04,00,95,
119843461,0110483C,true,Rx,0,8,08,E0,20,00,44,66,FC,55,
119853200,0100082C,true,Rx,0,8,00,C0,80,62,62,04,00,95,
119853486,0110483C,true,Rx,0,8,08,E0,A0,00,44,66,FC,54,
119863175,0100082C,true,Rx,0,8,00,C0,80,62,62,04,00,95,
119863460,0110483C,true,Rx,0,8,08,E0,20,00,44,66,FC,54,
119873170,0100082C,true,Rx,0,8,00,C0,80,62,62,04,00,95,
119873455,0110483C,true,Rx,0,8,08,E0,20,00,44,66,FC,55,
119883216,0100082C,true,Rx,0,8,00,C0,80,62,62,04,00,95,
119883501,0110483C,true,Rx,0,8,08,E0,20,00,44,66,FC,55,
119888162,1BA0493C,true,Rx,0,8,13,00,00,00,00,00,00,00,
119893174,0100082C,true,Rx,0,8,00,C0,80,62,62,04,00,95,
119893450,0110483C,true,Rx,0,8,08,E0,20,00,44,66,FC,55,
119903242,0100082C,true,Rx,0,8,00,C0,80,62,62,04,00,95,
119903527,0110483C,true,Rx,0,8,08,E0,A0,00,44,66,FC,55,
119913195,0100082C,true,Rx,0,8,00,C0,80,62,62,04,00,95,
119913471,0110483C,true,Rx,0,8,08,E0,20,00,44,66,FC,55,
119923201,0100082C,true,Rx,0,8,00,C0,80,62,62,04,00,95,
119923486,0110483C,true,Rx,0,8,08,E0,20,00,44,66,FC,55,
119933185,0100082C,true,Rx,0,8,00,C0,80,62,62,04,00,95,
119933470,0110483C,true,Rx,0,8,08,E0,20,00,44,66,FC,54,
119943200,0100082C,true,Rx,0,8,00,C0,80,62,66,04,00,D6,
119943486,0110483C,true,Rx,0,8,08,E0,20,00,44,66,FC,54,
119953205,0100082C,true,Rx,0,8,00,C0,80,62,66,04,00,D6,
119953491,0110483C,true,Rx,0,8,08,E0,A0,00,44,66,FC,54,
119963200,0100082C,true,Rx,0,8,00,C0,80,62,66,04,00,D6,
119963475,0110483C,true,Rx,0,8,08,E0,20,00,44,66,FC,55,
119973174,0100082C,true,Rx,0,8,00,C0,80,62,66,04,00,D6,
119973450,0110483C,true,Rx,0,8,08,E0,20,00,44,66,FC,55,
119983210,0100082C,true,Rx,0,8,00,C0,80,62,66,04,00,D6,
119983496,0110483C,true,Rx,0,8,08,E2,20,00,44,66,FC,55,
119993195,0100082C,true,Rx,0,8,00,C0,80,62,66,04,00,D6,
119993470,0110483C,true,Rx,0,8,08,E2,20,00,44,66,FC,54,
119993761,1B700030,true,Rx,0,8,25,8F,22,00,00,00,03,00,
120003213,0100082C,true,Rx,0,8,00,C0,80,62,66,04,00,D6,
120003499,0110483C,true,Rx,0,8,08,E2,A0,00,44,66,FC,54,
120013187,0100082C,true,Rx,0,8,00,C0,80,62,66,04,00,D6,
120013462,0110483C,true,Rx,0,8,08,E2,20,00,44,66,FC,54,
120023193,0100082C,true,Rx,0,8,00,C0,80,62,66,04,00,D6,
120023478,0110483C,true,Rx,0,8,08,E2,20,00,44,66,FC,54,
120033188,0100082C,true,Rx,0,8,00,C0,80,62,66,04,00,D6,
120033474,0110483C,true,Rx,0,8,08,E2,20,00,44,66,FC,55,
120043203,0100082C,true,Rx,0,8,00,C0,80,62,66,04,00,D6,
120043478,0110483C,true,Rx,0,8,08,E2,20,00,44,66,FC,55,
120053187,0100082C,true,Rx,0,8,00,C0,80,62,66,04,00,D6,
120053462,0110483C,true,Rx,0,8,08,E2,A0,00,44,66,FC,55,
120063211,0100082C,true,Rx,0,8,00,C0,80,62,66,04,00,D6,
120063486,0110483C,true,Rx,0,8,08,E2,20,00,44,66,FC,55,
120073175,0100082C,true,Rx,0,8,00,C0,80,62,66,04,00,D6,
120073450,0110483C,true,Rx,0,8,08,E2,20,00,44,66,FC,54,
120083210,0100082C,true,Rx,0,8,00,C0,80,62,66,04,00,D6,
120083485,0110483C,true,Rx,0,8,08,E2,20,00,44,66,FC,54,
120093184,0100082C,true,Rx,0,8,00,C0,80,62,66,04,00,D6,
120093460,0110483C,true,Rx,0,8,08,E2,20,00,44,66,FC,54,
120098163,1A200020,true,Rx,0,8,4E,00,02,33,00,00,02,31,
120103215,0100082C,true,Rx,0,8,00,C0,80,62,66,04,00,D6,
120103502,0110483C,true,Rx,0,8,08,E2,A0,00,44,66,FC,55,
120113190,0100082C,true,Rx,0,8,00,C0,80,62,66,04,00,D6,
120113466,0110483C,true,Rx,0,8,08,E2,20,00,44,66,FC,55,
120123215,0100082C,true,Rx,0,8,00,C0,80,62,66,04,00,D6,
120123491,0110483C,true,Rx,0,8,08,E2,20,00,44,66,FC,55,
120133200,0100082C,true,Rx,0,8,00,C0,80,62,66,04,00,D6,
120133486,0110483C,true,Rx,0,8,08,E2,20,00,44,66,FC,55,
120138178,1BA0493C,true,Rx,0,8,14,00,00,00,00,00,00,00,
120138443,1BE0493C,true,Rx,0,8,12,32,33,31,39,36,35,36,
120143218,0100082C,true,Rx,0,8,00,C0,80,62,66,04,00,D6,
120143504,0110483C,true,Rx,0,8,08,E2,20,00,44,66,FC,55,
120153190,0100082C,true,Rx,0,8,00,C0,80,62,66,04,00,D6,
120153477,0110483C,true,Rx,0,8,08,E2,A0,00,44,66,FC,54,
120163215,0100082C,true,Rx,0,8,00,C0,80,62,66,04,00,D6,
120163491,0110483C,true,Rx,0,8,08,E2,20,00,44,66,FC,54,
120173189,0100082C,true,Rx,0,8,00,C0,80,62,66,04,00,D6,
120173466,0110483C,true,Rx,0,8,08,E2,20,00,44,66,FC,54,
120183225,0100082C,true,Rx,0,8,00,C0,80,62,66,04,00,D6,
120183512,0110483C,true,Rx,0,8,08,E2,20,00,44,66,FC,55,
120193189,0100082C,true,Rx,0,8,00,C0,80,62,66,04,00,D6,
120193466,0110483C,true,Rx,0,8,08,E2,20,00,44,66,FC,55,
120203246,0100082C,true,Rx,0,8,00,C0,80,62,66,04,00,D6,
120203523,0110483C,true,Rx,0,8,08,E2,A0,00,44,66,FC,55,
120203812,1AE0092C,true,Rx,0,8,40,00,22,E0,41,A0,00,00,
120204094,1B700030,true,Rx,0,8,25,8F,22,00,00,00,03,00,
120213187,0100082C,true,Rx,0,8,00,C0,80,62,66,04,00,D6,
120213473,0110483C,true,Rx,0,8,08,E2,20,00,44,66,FC,55,
120223221,0100082C,true,Rx,0,8,00,C0,80,62,66,04,00,D6,
120223497,0110483C,true,Rx,0,8,08,E2,20,00,44,66,FC,54,
120233204,0100082C,true,Rx,0,8,00,C0,80,62,66,04,00,D6,
120233481,0110483C,true,Rx,0,8,08,E2,20,00,44,66,FC,54,
120243199,0100082C,true,Rx,0,8,00,C0,80,62,66,04,00,D6,
120243486,0110483C,true,Rx,0,8,08,E2,20,00,44,66,FC,54,
120253184,0100082C,true,Rx,0,8,00,C0,80,62,66,04,00,D6,
120253471,0110483C,true,Rx,0,8,08,E2,A0,00,44,66,FC,55,
120263210,0100082C,true,Rx,0,8,00,C0,80,62,66,04,00,D6,
120263487,0110483C,true,Rx,0,8,08,E2,20,00,44,66,FC,55,
120273184,0100082C,true,Rx,0,8,00,C0,80,62,66,04,00,D6,
120273460,0110483C,true,Rx,0,8,08,E2,20,00,44,66,FC,55,
120283211,0100082C,true,Rx,0,8,00,C0,80,62,66,04,00,D6,
120283496,0110483C,true,Rx,0,8,08,E2,20,00,44,66,FC,55,
120293185,0100082C,true,Rx,0,8,00,C0,80,62,66,04,00,D6,
120293460,0110483C,true,Rx,0,8,08,E2,20,00,44,66,FC,55,
120303221,0100082C,true,Rx,0,8,00,C0,80,62,66,04,00,D6,
120303506,0110483C,true,Rx,0,8,08,E2,A0,00,44,66,FC,54,
120313184,0100082C,true,Rx,0,8,00,C0,80,62,66,04,00,D6,
120313460,0110483C,true,Rx,0,8,08,E2,20,00,44,66,FC,54,
120323211,0100082C,true,Rx,0,8,00,C0,80,62,66,04,00,D6,
120323486,0110483C,true,Rx,0,8,08,E2,20,00,44,66,FC,54,
120333205,0100082C,true,Rx,0,8,00,C0,80,62,66,04,00,D6,
120333480,0110483C,true,Rx,0,8,08,E2,20,00,44,66,FC,55,
120343219,0100082C,true,Rx,0,8,00,C0,80,62,66,04,00,D6,
120343494,0110483C,true,Rx,0,8,08,E2,20,00,44,66,FC,55,
120353192,0100082C,true,Rx,0,8,00,C0,80,62,66,04,00,D6,
120353478,0110483C,true,Rx,0,8,08,E2,A0,00,44,66,FC,55,
120363208,0100082C,true,Rx,0,8,00,C0,80,62,66,04,00,D6,
120363494,0110483C,true,Rx,0,8,08,E2,20,00,44,66,FC,55,
120373192,0100082C,true,Rx,0,8,00,C0,80,62,66,04,00,D6,
120373467,0110483C,true,Rx,0,8,08,E2,20,00,44,66,FC,54,
120383226,0100082C,true,Rx,0,8,00,C0,80,62,66,04,00,D6,
120383502,0110483C,true,Rx,0,8,08,E2,20,00,44,66,FC,54,
120388224,1BA0493C,true,Rx,0,8,01,03,02,09,01,03,04,02,
120388500,1BE0493C,true,Rx,0,8,01,00,2A,96,CB,F2,02,04,
120393233,0100082C,true,Rx,0,8,00,C0,80,62,66,04,00,D6,
120393509,0110483C,true,Rx,0,8,08,E2,20,00,44,66,FC,54,
120403217,0100082C,true,Rx,0,8,00,C0,80,62,66,04,00,D6,
120403502,0110483C,true,Rx,0,8,08,E2,A0,00,44,66,FC,55,
120413210,0100082C,true,Rx,0,8,00,C0,80,62,66,04,00,D6,
120413496,0110483C,true,Rx,0,8,08,E2,20,00,44,66,FC,55,
120413776,1A200020,true,Rx,0,8,8E,00,02,33,00,00,02,31,
120414057,1B700030,true,Rx,0,8,25,8F,22,00,00,00,03,00,
120423211,0100082C,true,Rx,0,8,00,C0,80,62,66,04,00,D6,
120423497,0110483C,true,Rx,0,8,08,E2,20,00,44,66,FC,55,
120433216,0100082C,true,Rx,0,8,00,C0,80,62,66,04,00,D6,
120433501,0110483C,true,Rx,0,8,08,E2,20,00,44,66,FC,55,
120443210,0100082C,true,Rx,0,8,00,C0,80,62,66,04,00,D6,
120443496,0110483C,true,Rx,0,8,08,E2,20,00,44,66,FC,54,
120453195,0100082C,true,Rx,0,8,00,C0,80,62,66,04,00,D6,
120453471,0110483C,true,Rx,0,8,08,E2,A0,00,44,66,FC,54,
120463221,0100082C,true,Rx,0,8,00,C0,80,62,66,04,00,D6,
120463496,0110483C,true,Rx,0,8,08,E2,20,00,44,66,FC,54,
120473185,0100082C,true,Rx,0,8,00,C0,80,62,66,04,00,D6,
120473470,0110483C,true,Rx,0,8,08,E2,20,00,44,66,FC,55,
120483220,0100082C,true,Rx,0,8,00,C0,80,62,66,04,00,D6,
120483506,0110483C,true,Rx,0,8,08,E2,20,00,44,66,FC,55,
120493184,0100082C,true,Rx,0,8,00,C0,80,62,66,04,00,D6,
120493470,0110483C,true,Rx,0,8,08,E2,20,00,44,66,FC,55,
120503220,0100082C,true,Rx,0,8,00,C0,80,62,66,04,00,D6,
120503506,0110483C,true,Rx,0,8,08,E2,A0,00,44,66,FC,55,
120513236,0100082C,true,Rx,0,8,00,C0,80,62,66,04,00,D6,
120513521,0110483C,true,Rx,0,8,08,E2,20,00,44,66,FC,55,
120523220,0100082C,true,Rx,0,8,00,C0,80,62,66,04,00,D6,
120523506,0110483C,true,Rx,0,8,08,E2,20,00,44,66,FC,54,
120533195,0100082C,true,Rx,0,8,00,C0,80,62,66,04,00,D6,
120533481,0110483C,true,Rx,0,8,08,E2,20,00,44,66,FC,54,
120543220,0100082C,true,Rx,0,8,00,C0,80,62,66,04,00,D6,
120543506,0110483C,true,Rx,0,8,08,E2,20,00,44,66,FC,54,
120553195,0100082C,true,Rx,0,8,00,C0,80,62,66,04,00,D6,
120553480,0110483C,true,Rx,0,8,08,E2,A0,00,44,66,FC,55,
120563219,0100082C,true,Rx,0,8,00,C0,80,62,66,04,00,D6,
120563495,0110483C,true,Rx,0,8,08,E2,20,00,44,66,FC,55,
120573192,0100082C,true,Rx,0,8,00,C0,80,62,66,04,00,D6,
120573468,0110483C,true,Rx,0,8,08,E2,20,00,44,66,FC,55,
120583221,0100082C,true,Rx,0,8,00,C0,80,62,66,04,00,D6,
120583507,0110483C,true,Rx,0,8,08,E2,20,00,44,66,FC,55,
120593195,0100082C,true,Rx,0,8,00,C0,80,62,66,04,00,D6,
120593471,0110483C,true,Rx,0,8,08,E2,20,00,44,66,FC,54,
120603220,0100082C,true,Rx,0,8,00,C0,80,62,66,04,00,D6,
120603497,0110483C,true,Rx,0,8,08,E2,A0,00,44,66,FC,54,
120613204,0100082C,true,Rx,0,8,00,C0,80,62,66,04,00,D6,
120613481,0110483C,true,Rx,0,8,08,E2,20,00,44,66,FC,55,
120623272,0100082C,true,Rx,0,8,00,C0,80,62,66,04,00,D6,
120623559,0110483C,true,Rx,0,8,08,E2,20,00,44,66,FC,55,
120623848,1AE0092C,true,Rx,0,8,80,00,22,E0,41,A0,00,00,
120624129,1B700030,true,Rx,0,8,35,8F,22,00,00,00,03,00,
120633213,0100082C,true,Rx,0,8,00,C0,80,62,66,04,00,D6,
120633489,0110483C,true,Rx,0,8,08,E2,20,00,44,66,FC,55,
120638233,1BA0493C,true,Rx,0,8,02,01,05,02,03,01,01,02,
120638508,1BE0493C,true,Rx,0,8,02,4A,8C,00,3E,04,19,24,
120643220,0100082C,true,Rx,0,8,00,C0,80,62,66,04,00,D6,
120643497,0110483C,true,Rx,0,8,08,E2,20,00,44,66,FC,55,
120653205,0100082C,true,Rx,0,8,00,C0,80,62,66,04,00,D6,
120653481,0110483C,true,Rx,0,8,08,E2,A0,00,44,66,FC,55,
120663220,0100082C,true,Rx,0,8,00,C0,80,62,66,04,00,D6,
120663497,0110483C,true,Rx,0,8,08,E2,20,00,44,66,FC,54,
120673193,0100082C,true,Rx,0,8,00,C0,80,62,66,04,00,D6,
120673469,0110483C,true,Rx,0,8,08,E2,20,00,44,66,FC,54,
120683228,0100082C,true,Rx,0,8,00,C0,80,62,66,04,00,D6,
120683504,0110483C,true,Rx,0,8,08,E2,20,00,44,66,FC,54,
120693191,0100082C,true,Rx,0,8,00,C0,80,62,66,04,00,D6,
120693478,0110483C,true,Rx,0,8,08,E2,20,00,44,66,FC,55,
120703247,0100082C,true,Rx,0,8,00,C0,80,62,66,04,00,D6,
120703523,0110483C,true,Rx,0,8,08,E2,A0,00,44,66,FC,55,
120713199,0100082C,true,Rx,0,8,00,C0,80,62,66,04,00,D6,
120713476,0110483C,true,Rx,0,8,08,E2,20,00,44,66,FC,55,
120723226,0100082C,true,Rx,0,8,00,C0,80,62,66,04,00,D6,
120723502,0110483C,true,Rx,0,8,08,E2,20,00,44,66,FC,55,
120728204,1A200020,true,Rx,0,8,CE,00,02,33,00,00,02,31,
120733205,0100082C,true,Rx,0,8,00,C0,80,62,66,04,00,D6,
120733492,0110483C,true,Rx,0,8,08,E2,20,00,44,66,FC,55,
120743242,0100082C,true,Rx,0,8,00,C0,80,62,66,04,00,D6,
120743527,0110483C,true,Rx,0,8,08,E2,20,00,44,66,FC,54,
120753206,0100082C,true,Rx,0,8,00,C0,80,62,66,04,00,D6,
120753481,0110483C,true,Rx,0,8,08,E2,A0,00,44,66,FC,54,
120763221,0100082C,true,Rx,0,8,00,C0,80,62,66,04,00,D6,
120763497,0110483C,true,Rx,0,8,08,E2,20,00,44,66,FC,54,
120773195,0100082C,true,Rx,0,8,00,C0,80,62,66,04,00,D6,
120773481,0110483C,true,Rx,0,8,08,E2,20,00,44,66,FC,55,
120783242,0100082C,true,Rx,0,8,00,C0,80,62,66,04,00,D6,
120783517,0110483C,true,Rx,0,8,08,E2,20,00,44,66,FC,55,
120793205,0100082C,true,Rx,0,8,00,C0,80,62,66,04,00,D6,
120793481,0110483C,true,Rx,0,8,08,E2,20,00,44,66,FC,55,
120803231,0100082C,true,Rx,0,8,00,C0,80,62,66,04,00,D6,
120803507,0110483C,true,Rx,0,8,08,E2,A0,00,44,66,FC,55,
120813196,0100082C,true,Rx,0,8,00,C0,80,62,66,04,00,D6,
120813481,0110483C,true,Rx,0,8,08,E2,20,00,44,66,FC,54,
120823220,0100082C,true,Rx,0,8,00,C0,80,62,66,04,00,D6,
120823506,0110483C,true,Rx,0,8,08,E2,20,00,44,66,FC,54,
120833224,0100082C,true,Rx,0,8,00,C0,80,62,66,04,00,D6,
120833500,0110483C,true,Rx,0,8,08,E2,20,00,44,66,FC,55,
120833789,1B700030,true,Rx,0,8,25,8F,22,00,00,00,03,00,
120843222,0100082C,true,Rx,0,8,00,C0,80,62,66,04,00,D6,
120843508,0110483C,true,Rx,0,8,08,E2,20,00,44,66,FC,55,
120853205,0100082C,true,Rx,0,8,00,C0,80,62,66,04,00,D6,
120853481,0110483C,true,Rx,0,8,08,E4,A0,00,44,66,FC,55,
120863262,0100082C,true,Rx,0,8,00,C0,80,62,66,04,00,D6,
120863538,0110483C,true,Rx,0,8,08,E4,20,00,44,66,FC,55,
120873206,0100082C,true,Rx,0,8,00,C0,80,62,66,04,00,D6,
120873481,0110483C,true,Rx,0,8,08,E4,20,00,44,66,FC,55,
120883242,0100082C,true,Rx,0,8,00,C0,80,62,66,04,00,D6,
120883527,0110483C,true,Rx,0,8,08,E4,20,00,44,66,FC,54,
120888178,1BA0493C,true,Rx,0,8,03,03,02,01,02,02,01,02,
120893201,0100082C,true,Rx,0,8,00,C0,80,62,66,04,00,D6,
120893487,0110483C,true,Rx,0,8,08,E4,20,00,44,66,FC,54,
120903236,0100082C,true,Rx,0,8,00,C0,80,62,66,04,00,D6,
120903522,0110483C,true,Rx,0,8,08,E4,A0,00,44,66,FC,54,
120913210,0100082C,true,Rx,0,8,00,C0,80,62,66,04,00,D6,
120913486,0110483C,true,Rx,0,8,08,E4,20,00,44,66,FC,55,
120923257,0100082C,true,Rx,0,8,00,C0,80,62,66,04,00,D6,
120923533,0110483C,true,Rx,0,8,08,E4,20,00,44,66,FC,55,
120933221,0100082C,true,Rx,0,8,00,C0,80,62,66,04,00,D6,
120933496,0110483C,true,Rx,0,8,08,E6,2A,00,44,66,FC,55,
120943236,0100082C,true,Rx,0,8,00,C0,80,62,66,04,00,D6,
120943512,0110483C,true,Rx,0,8,08,E6,2A,00,44,66,FC,55,
120953210,0100082C,true,Rx,0,8,00,C8,80,62,66,04,00,D6,
120953486,0110483C,true,Rx,0,8,08,E6,AA,00,44,66,FC,55,
120963237,0100082C,true,Rx,0,8,00,C8,80,62,66,04,00,D6,
120963512,0110483C,true,Rx,0,8,08,E9,2A,00,44,66,FC,54,
120973211,0100082C,true,Rx,0,8,00,C8,80,62,66,04,00,D6,
120973486,0110483C,true,Rx,0,8,08,E9,2A,00,44,66,FC,54,
120983257,0100082C,true,Rx,0,8,00,C8,80,62,66,04,00,D6,
120983532,0110483C,true,Rx,0,8,08,E9,2A,00,44,66,FC,55,
120985246,01C04026,true,Rx,0,8,80,00,80,00,80,00,80,00,
120985523,02000026,true,Rx,0,8,7F,34,00,CC,49,00,E0,AC,
120985813,02104136,true,Rx,0,8,BB,00,3F,FF,07,E0,00,00,
120986095,02804026,true,Rx,0,8,B7,FF,77,FF,F2,00,1E,0A,
120986384,02C00020,true,Rx,0,8,00,00,00,00,00,00,00,00,
120986675,19A00002,true,Rx,0,8,12,00,00,00,00,00,00,07,
120993226,0100082C,true,Rx,0,8,00,C8,80,62,66,04,00,D6,
120993501,0110483C,true,Rx,0,8,08,E9,2A,00,44,66,FC,55,
120999314,01C04026,true,Rx,0,8,80,00,80,00,80,00,80,00,
120999599,02000026,true,Rx,0,8,7F,34,00,CC,49,00,E0,AC,
120999880,02104136,true,Rx,0,8,BB,00,3F,FF,07,E0,00,00,
121000160,02804026,true,Rx,0,8,B7,FF,77,FF,F2,00,1E,0A,
121000460,02C00020,true,Rx,0,8,00,00,00,00,00,00,00,00,
121003391,0100082C,true,Rx,0,8,00,C8,80,62,66,04,00,D6,
121003667,0110483C,true,Rx,0,8,08,E9,AA,00,44,66,FC,55,
121013198,0100082C,true,Rx,0,8,00,C8,80,62,66,04,00,D6,
121013473,0110483C,true,Rx,0,8,08,E9,2A,00,44,66,FC,55,
121013764,01C04026,true,Rx,0,8,80,00,80,00,80,00,80,00,
121014045,02000026,true,Rx,0,8,7F,34,00,CC,49,00,E0,AC,
121014335,02104136,true,Rx,0,8,BB,00,3F,FF,07,E0,00,00,
121014615,02804026,true,Rx,0,8,B7,FF,77,FF,F2,00,1E,0A,
121014906,02C00020,true,Rx,0,8,00,00,00,00,00,00,00,00,
121015197,19A00002,true,Rx,0,8,6E,00,00,00,00,00,00,F7,
121023248,0100082C,true,Rx,0,8,00,C8,80,62,66,04,00,D6,
121023524,0110483C,true,Rx,0,8,08,E9,2A,00,44,66,FC,55,
121027265,01C04026,true,Rx,0,8,80,00,80,00,80,00,80,00,
121027541,02000026,true,Rx,0,8,7F,34,00,CC,49,00,E0,AC,
121027831,02104136,true,Rx,0,8,BB,00,3F,FF,07,E0,00,00,
121028111,02804026,true,Rx,0,8,B7,FF,77,FF,F2,00,1E,0C,
121028402,02C00020,true,Rx,0,8,00,00,00,00,00,00,00,00,
121033374,0100082C,true,Rx,0,8,00,C8,80,62,66,04,00,D6,
121033651,0110483C,true,Rx,0,8,08,E9,2A,00,44,66,FC,54,
121041245,01C04026,true,Rx,0,8,80,00,80,00,80,00,80,00,
121041520,02000026,true,Rx,0,8,7F,34,00,CC,49,00,E0,AC,
121041809,02104136,true,Rx,0,8,BB,00,3F,FF,07,E0,00,00,
121042091,02804026,true,Rx,0,8,B7,FF,77,FF,F2,00,1E,0C,
121042381,02C00020,true,Rx,0,8,00,00,00,00,00,00,00,00,
121042670,19A00002,true,Rx,0,8,12,00,00,00,00,00,00,F7,
121043439,0100082C,true,Rx,0,8,00,C8,80,62,66,04,00,D6,
121043720,0110483C,true,Rx,0,8,08,E9,2A,00,44,66,FC,54,
121044011,1A200020,true,Rx,0,8,0E,00,02,33,00,00,02,31,
121044291,1AE0092C,true,Rx,0,8,C0,00,22,E0,41,A0,00,00,
121044570,1B700030,true,Rx,0,8,25,8F,22,00,00,C0,03,00,
121053235,0100082C,true,Rx,0,8,00,C8,80,62,66,04,00,D6,
121053512,0110483C,true,Rx,0,8,08,E9,AA,00,44,66,FC,54,
121055477,01C04026,true,Rx,0,8,80,00,80,00,80,00,80,00,
121055757,02000026,true,Rx,0,8,7F,34,00,CC,49,00,E0,AC,
121056038,02104136,true,Rx,0,8,BB,00,3F,FF,07,E0,00,00,
121056328,02804026,true,Rx,0,8,37,FF,77,FF,F2,00,0E,0C,
121056619,02C00020,true,Rx,0,8,00,00,00,00,00,00,00,00,
121063231,0100082C,true,Rx,0,8,00,C8,80,62,66,04,00,D6,
121063508,0110483C,true,Rx,0,8,08,E9,6A,00,44,66,FC,55,
121069473,01C04026,true,Rx,0,8,80,00,80,00,80,00,80,00,
121069760,02000026,true,Rx,0,8,7F,34,00,DC,49,00,E0,AC,
121070041,02104136,true,Rx,0,8,BB,00,3F,FF,07,E0,00,00,
121070330,02804026,true,Rx,0,8,37,FF,77,FF,F2,00,0E,0C,
121070621,02C00020,true,Rx,0,8,00,00,00,00,00,00,00,00,
121070912,19A00002,true,Rx,0,8,02,00,00,00,00,00,00,F7,
121072196,1B200002,true,Rx,0,8,00,00,00,00,00,00,04,51,
121073392,0100082C,true,Rx,0,8,00,C8,80,62,66,04,00,D6,
121073671,0110483C,true,Rx,0,8,08,E9,6A,00,44,66,FC,55,
121083232,0100082C,true,Rx,0,8,00,C8,80,62,66,04,00,D6,
121083509,0110483C,true,Rx,0,8,08,E9,6A,00,44,66,FC,55,
121083798,01C04026,true,Rx,0,8,80,00,80,00,80,00,80,00,
121084079,02000026,true,Rx,0,8,7F,34,00,DC,49,00,E0,AC,
121084370,02104136,true,Rx,0,8,BB,00,3F,FF,07,E0,00,00,
121084649,02804026,true,Rx,0,8,37,FF,77,FF,F2,00,0E,0C,
121084940,02C00020,true,Rx,0,8,00,00,00,00,00,00,00,00,
121093205,0100082C,true,Rx,0,8,00,C8,80,62,66,04,00,D6,
121093481,0110483C,true,Rx,0,8,08,E9,6A,00,44,66,FC,55,
121097468,01C04026,true,Rx,0,8,80,00,80,00,80,00,80,00,
121097743,02000026,true,Rx,0,8,7F,34,00,DC,49,00,E0,AC,
121098035,02104136,true,Rx,0,8,BB,00,3F,FF,07,E0,00,00,
121098314,02804026,true,Rx,0,8,37,FF,77,FF,F2,00,0E,0C,
121098614,02C00020,true,Rx,0,8,00,00,00,00,00,00,00,00,
121098906,19A00002,true,Rx,0,8,12,00,00,00,00,00,00,F7,
121103425,0100082C,true,Rx,0,8,00,C8,80,62,66,04,00,D6,
121103701,0110483C,true,Rx,0,8,08,E9,EA,00,44,66,FC,54,
121111471,01C04026,true,Rx,0,8,80,00,80,00,80,00,80,00,
121111756,02000026,true,Rx,0,8,7F,34,00,DC,49,00,E0,AC,
121112038,02104136,true,Rx,0,8,BB,00,3F,FF,07,E0,00,00,
121112327,02804026,true,Rx,0,8,37,FF,77,FF,F2,00,0E,0C,
121112617,02C00020,true,Rx,0,8,00,00,00,00,00,00,00,00,
121113361,0100082C,true,Rx,0,8,00,C8,80,62,66,04,00,D6,
121113636,0110483C,true,Rx,0,8,08,E9,6A,00,44,66,FC,54,
121123238,0100082C,true,Rx,0,8,00,C8,80,62,66,04,00,D6,
121123515,0110483C,true,Rx,0,8,08,E9,6A,00,44,66,FC,54,
121125470,01C04026,true,Rx,0,8,80,00,80,00,80,00,80,00,
121125750,02000026,true,Rx,0,8,7F,34,00,DC,49,00,E0,AC,
121126031,02104136,true,Rx,0,8,BB,00,3F,FF,07,E0,00,00,
121126320,02804026,true,Rx,0,8,37,FF,77,FF,F2,00,0E,0C,
121126611,02C00020,true,Rx,0,8,00,00,00,00,00,00,00,00,
121126902,19A00002,true,Rx,0,8,6E,00,00,00,00,00,00,F7,
121133238,0100082C,true,Rx,0,8,00,C8,80,62,66,04,00,D6,
121133515,0110483C,true,Rx,0,8,08,E9,6A,00,44,66,FC,55,
121138227,1BA0493C,true,Rx,0,8,04,17,10,03,01,02,01,02,
121138512,1BE0493C,true,Rx,0,8,10,00,00,00,00,59,56,31,
121139492,01C04026,true,Rx,0,8,80,00,80,00,80,00,80,00,
121139773,02000026,true,Rx,0,8,7F,34,00,DC,49,00,E0,AC,
121140053,02104136,true,Rx,0,8,BB,00,3F,FF,07,E0,00,00,
121140336,02804026,true,Rx,0,8,37,FF,77,FF,F2,00,0E,0C,
121140636,02C00020,true,Rx,0,8,00,00,00,00,00,00,00,00,
121143409,0100082C,true,Rx,0,8,00,C8,80,62,66,04,00,D6,
121143689,0110483C,true,Rx,0,8,08,E9,6A,00,44,66,FC,55,
121153239,0100082C,true,Rx,0,8,00,C8,80,62,66,04,00,D6,
121153516,0110483C,true,Rx,0,8,08,E9,EA,00,44,66,FC,55,
121153805,01C04026,true,Rx,0,8,80,00,80,00,80,00,80,00,
121154086,02000026,true,Rx,0,8,7F,34,00,DC,49,00,E0,AC,
121154366,02104136,true,Rx,0,8,BB,00,3F,FF,07,E0,00,00,
121154656,02804026,true,Rx,0,8,37,FF,77,FF,F2,00,0E,0C,
121154948,02C00020,true,Rx,0,8,00,00,00,00,00,00,00,00,
121155237,19A00002,true,Rx,0,8,12,00,00,00,00,00,00,F7,
121157599,1B200002,true,Rx,0,8,00,00,00,00,00,00,0F,71,
121163274,0100082C,true,Rx,0,8,00,C8,80,62,66,04,00,D6,
121163551,0110483C,true,Rx,0,8,08,E9,6A,00,44,66,FC,55,
121167487,01C04026,true,Rx,0,8,80,00,80,00,80,00,80,00,
121167762,02000026,true,Rx,0,8,7F,34,00,DC,49,00,E0,AC,
121168044,02104136,true,Rx,0,8,BB,00,3F,FF,07,E0,00,00,
121168323,02804026,true,Rx,0,8,37,FF,77,F6,F2,00,0E,0C,
121168623,02C00020,true,Rx,0,8,00,00,00,00,00,00,00,00,
121173327,0100082C,true,Rx,0,8,00,C8,80,62,66,04,00,D6,
121173613,0110483C,true,Rx,0,8,08,E9,6A,00,44,66,FC,54,
121181476,01C04026,true,Rx,0,8,80,00,80,00,80,00,80,00,
121181753,02000026,true,Rx,0,8,7F,34,00,DC,49,00,E0,AC,
121182043,02104136,true,Rx,0,8,BB,00,3F,FF,07,E0,00,00,
121182323,02804026,true,Rx,0,8,37,FF,77,CD,F6,86,0E,07,
121182613,02C00020,true,Rx,0,8,00,00,00,00,00,00,00,00,
121182904,19A00002,true,Rx,0,8,02,00,00,00,00,00,00,F7,
121183400,0100082C,true,Rx,0,8,00,C8,80,62,66,04,00,D6,
121183676,0110483C,true,Rx,0,8,08,E9,6A,00,44,66,FC,54,
121193206,0100082C,true,Rx,0,8,00,C8,80,62,66,04,00,D6,
121193483,0110483C,true,Rx,0,8,08,E9,6A,00,44,66,FC,54,
121195499,01C04026,true,Rx,0,8,80,00,80,00,80,00,80,00,
121195780,02000026,true,Rx,0,8,7F,34,00,DC,49,00,E0,AC,
121196061,02104136,true,Rx,0,8,BB,00,3F,FF,07,E0,00,00,
121196341,02804026,true,Rx,0,8,37,FF,77,90,F6,ED,0E,04,
121196631,02C00020,true,Rx,0,8,00,00,00,00,00,00,00,00,
121203266,0100082C,true,Rx,0,8,00,C8,80,62,66,04,00,D6,
121203541,0110483C,true,Rx,0,8,08,E9,EA,00,44,66,FC,55,
121209498,01C04026,true,Rx,0,8,80,00,80,00,80,00,80,00,
121209773,02000026,true,Rx,0,8,7F,34,00,DC,49,00,E0,AC,
121210054,02104136,true,Rx,0,8,BB,00,3F,FF,07,E0,00,00,
121210334,02804026,true,Rx,0,8,37,FF,77,47,F7,3C,0E,01,
121210634,02C00020,true,Rx,0,8,00,00,00,00,00,00,00,00,
121210926,19A00002,true,Rx,0,8,12,00,00,00,00,00,00,F7,
121213384,0100082C,true,Rx,0,8,00,C8,80,62,66,04,00,D6,
121213659,0110483C,true,Rx,0,8,08,E9,6A,00,44,66,FC,55,
121223264,0100082C,true,Rx,0,8,00,C8,80,62,66,04,00,D6,
121223539,0110483C,true,Rx,0,8,08,E9,6A,00,44,66,FC,55,
121223829,01C04026,true,Rx,0,8,80,00,80,00,80,00,80,00,
121224111,02000026,true,Rx,0,8,7F,34,00,DC,49,00,E0,AC,
121224390,02104136,true,Rx,0,8,BB,00,3F,FF,07,E0,00,00,
121224670,02804026,true,Rx,0,8,37,FF,77,09,F7,30,0D,FF,
121224962,02C00020,true,Rx,0,8,00,00,00,00,00,00,00,00,
121233247,0100082C,true,Rx,0,8,00,C8,80,62,66,04,00,D6,
121233523,0110483C,true,Rx,0,8,08,E9,6A,00,44,66,FC,55,
121237519,01C04026,true,Rx,0,8,80,00,80,00,80,00,80,00,
121237795,02000026,true,Rx,0,8,7F,34,00,DC,49,00,E0,AC,
121238087,02104136,true,Rx,0,8,BB,00,3F,FF,07,E0,00,00,
121238366,02804026,true,Rx,0,8,37,FF,77,04,F6,EA,0D,FD,
121238657,02C00020,true,Rx,0,8,00,00,00,00,00,00,00,00,
121238947,19A00002,true,Rx,0,8,6E,00,00,00,00,00,00,F7,
121242596,1B200002,true,Rx,0,8,00,00,00,00,00,00,0F,71,
121243439,0100082C,true,Rx,0,8,00,C8,80,62,66,04,00,D6,
121243718,0110483C,true,Rx,0,8,08,E9,6A,00,44,66,FC,55,
121251505,01C04026,true,Rx,0,8,80,00,80,00,80,00,80,00,
121251782,02000026,true,Rx,0,8,7F,34,00,DC,49,00,E0,AC,
121252063,02104136,true,Rx,0,8,BB,00,3F,FF,07,E0,00,00,
121252342,02804026,true,Rx,0,8,37,FF,77,24,F6,B3,0D,F2,
121252632,02C00020,true,Rx,0,8,00,00,00,00,00,00,00,00,
121253377,0100082C,true,Rx,0,8,00,C8,80,62,66,04,00,D6,
121253650,0110483C,true,Rx,0,8,08,E9,EA,00,44,66,FC,54,
121253942,1B700030,true,Rx,0,8,35,8F,22,00,00,00,03,00,
121263249,0100082C,true,Rx,0,8,00,C8,80,62,66,04,00,D6,
121263524,0110483C,true,Rx,0,8,08,E9,6A,00,44,66,FC,54,
121265532,01C04026,true,Rx,0,8,80,00,80,00,80,00,80,00,
121265811,02000026,true,Rx,0,8,7F,34,00,DC,49,00,E0,AC,
121266092,02104136,true,Rx,0,8,BB,00,3F,FF,07,E0,00,00,
121266362,02804026,true,Rx,0,8,37,FF,77,5B,F6,89,0D,E4,
121266662,02C00020,true,Rx,0,8,00,00,00,00,00,00,00,00,
121266953,19A00002,true,Rx,0,8,12,00,00,00,00,00,00,F7,
121273218,0100082C,true,Rx,0,8,00,C8,80,62,66,04,00,D6,
121273493,0110483C,true,Rx,0,8,08,E9,6A,00,44,66,FC,54,
121279531,01C04026,true,Rx,0,8,80,00,80,00,80,00,80,00,
121279806,02000026,true,Rx,0,8,7F,34,00,DC,49,00,E0,AC,
121280098,02104136,true,Rx,0,8,BB,00,3F,FF,07,E0,00,00,
121280367,02804026,true,Rx,0,8,37,FF,77,6B,F6,F0,0D,D8,
121280667,02C00020,true,Rx,0,8,00,00,00,00,00,00,00,00,
121283393,0100082C,true,Rx,0,8,00,C8,80,62,66,04,00,D6,
121283678,0110483C,true,Rx,0,8,08,E9,6A,00,44,66,FC,55,
121293251,0100082C,true,Rx,0,8,00,C8,80,62,66,04,00,D6,
121293536,0110483C,true,Rx,0,8,08,E9,6A,00,44,66,FC,55,
121293826,01C04026,true,Rx,0,8,80,00,80,00,80,00,80,00,
121294097,02000026,true,Rx,0,8,7F,34,00,DC,49,00,E0,AC,
121294387,02104136,true,Rx,0,8,BB,00,3F,FF,07,E0,00,00,
121294667,02804026,true,Rx,0,8,37,FF,77,52,F7,3E,0D,D8,
121294958,02C00020,true,Rx,0,8,00,00,00,00,00,00,00,00,
121295247,19A00002,true,Rx,0,8,02,00,00,00,00,00,00,F7,
121303361,0100082C,true,Rx,0,8,00,C8,80,62,24,00,00,D7,
121303647,0110483C,true,Rx,0,8,08,E9,EA,00,44,66,FC,55,
121307509,01C04026,true,Rx,0,8,80,00,80,00,80,00,80,00,
121307785,02000026,true,Rx,0,8,7F,34,00,DC,49,00,E0,AC,
121308066,02104136,true,Rx,0,8,BB,00,3F,FF,07,E0,00,00,
121308345,02804026,true,Rx,0,8,37,FF,77,1F,F7,63,0D,DE,
121308636,02C00020,true,Rx,0,8,00,00,00,00,00,00,00,00,
121313349,0100082C,true,Rx,0,8,00,C8,80,62,24,00,00,D7,
121313624,0110483C,true,Rx,0,8,08,E9,6A,00,44,66,FC,55,
121321487,01C04026,true,Rx,0,8,80,00,80,00,80,00,80,00,
121321763,02000026,true,Rx,0,8,7F,34,00,DC,49,00,E0,AC,
121322044,02104136,true,Rx,0,8,BB,00,3F,FF,07,E0,00,00,
121322324,02804026,true,Rx,0,8,37,FF,76,EF,F7,60,0D,E9,
121322614,02C00020,true,Rx,0,8,00,00,00,00,00,00,00,00,
121322915,19A00002,true,Rx,0,8,12,00,00,00,00,00,00,F7,
121323401,0100082C,true,Rx,0,8,00,C8,80,62,24,00,00,D7,
121323676,0110483C,true,Rx,0,8,08,E9,6A,00,44,66,FC,54,
121327600,1B200002,true,Rx,0,8,00,00,00,00,00,00,0F,71,
121333257,0100082C,true,Rx,0,8,00,C8,80,62,24,00,00,D7,
121333533,0110483C,true,Rx,0,8,08,E9,6A,00,44,66,FC,54,
121335540,01C04026,true,Rx,0,8,80,00,80,00,80,00,80,00,
121335819,02000026,true,Rx,0,8,7F,34,00,DC,49,00,E0,AC,
121336111,02104136,true,Rx,0,8,BB,00,3F,FF,07,E0,00,00,
121336380,02804026,true,Rx,0,8,37,FF,76,F4,F7,0F,0D,F7,
121336680,02C00020,true,Rx,0,8,00,00,00,00,00,00,00,00,
121343286,0100082C,true,Rx,0,8,00,C8,80,62,24,00,00,D7,
121343571,0110483C,true,Rx,0,8,08,E9,6A,00,44,66,FC,54,
121349507,01C04026,true,Rx,0,8,80,00,80,00,80,00,80,00,
121349783,02000026,true,Rx,0,8,7F,34,00,DC,49,00,E0,AC,
121350065,02104136,true,Rx,0,8,BB,00,3F,FF,07,E0,00,00,
121350344,02804026,true,Rx,0,8,37,FF,77,1A,F6,CE,0D,FF,
121350634,02C00020,true,Rx,0,8,00,00,00,00,00,00,00,00,
121350925,19A00002,true,Rx,0,8,6E,00,00,00,00,00,00,F7,
121353424,0100082C,true,Rx,0,8,00,C8,80,62,76,00,00,D7,
121353711,0110483C,true,Rx,0,8,08,E9,EA,00,44,66,FC,55,
121357439,0340412E,true,Rx,0,8,00,00,00,00,00,00,00,00,
121357736,19000026,true,Rx,0,8,00,00,00,00,00,00,00,00,
121358294,1A200020,true,Rx,0,8,4E,00,00,00,00,00,02,31,
121363353,0100082C,true,Rx,0,8,00,C8,80,62,66,00,00,D7,
121363628,0110483C,true,Rx,0,8,08,E9,6A,00,44,66,FC,55,
121363920,01C04026,true,Rx,0,8,80,00,80,00,80,00,80,00,
121364200,02000026,true,Rx,0,8,7F,34,00,DC,49,00,E0,AC,
121364479,02104136,true,Rx,0,8,BB,00,3F,FF,07,E0,00,00,
121364759,02804026,true,Rx,0,8,37,FF,77,55,F6,9F,0E,01,
121365050,02C00020,true,Rx,0,8,00,00,00,00,00,00,00,00,
121367440,0340412E,true,Rx,0,8,00,00,00,00,00,00,00,00,
121372421,19000026,true,Rx,0,8,00,00,00,00,00,00,04,00,
121373285,0100082C,true,Rx,0,8,00,C8,80,62,66,00,00,D7,
121373554,0110483C,true,Rx,0,8,08,E9,6A,00,44,66,FC,55,
121377517,01C04026,true,Rx,0,8,80,00,80,00,80,00,80,00,
121377793,02000026,true,Rx,0,8,7F,34,00,DC,49,00,E0,AC,
121378074,02104136,true,Rx,0,8,BB,00,3F,FF,07,E0,00,00,
121378354,02804026,true,Rx,0,8,37,FF,77,89,F6,C0,0E,07,
121378654,02C00020,true,Rx,0,8,00,00,00,00,00,00,00,00,
121378935,0340412E,true,Rx,0,8,50,80,00,FD,80,00,00,00,
121379226,19A00002,true,Rx,0,8,12,00,00,00,00,00,00,F7,
121383449,0100082C,true,Rx,0,8,00,C8,80,62,66,00,00,D7,
121383725,0110483C,true,Rx,0,8,08,E9,6A,00,44,66,FC,55,
121387525,0340412E,true,Rx,0,8,71,80,00,ED,80,00,00,00,
121387811,19000026,true,Rx,0,8,00,00,00,00,38,13,04,00,
121388318,1BA0493C,true,Rx,0,8,05,03,01,01,01,02,01,03,
121388599,1BE0493C,true,Rx,0,8,01,00,2A,96,CB,FB,FD,FB,
121391589,01C04026,true,Rx,0,8,80,00,80,00,80,00,80,00,
121391864,02000026,true,Rx,0,8,7F,34,00,DC,49,00,E0,AC,
121392146,02104136,true,Rx,0,8,BB,00,3F,FF,07,E0,00,00,
121392426,02804026,true,Rx,0,8,37,FF,77,88,F7,1A,0E,04,
121392716,02C00020,true,Rx,0,8,00,00,00,00,00,00,00,00,
121393512,0100082C,true,Rx,0,8,00,C8,80,62,66,00,00,D7,
121393797,0110483C,true,Rx,0,8,08,E9,6A,00,44,66,FC,55,
121397524,0340412E,true,Rx,0,8,72,80,00,DD,80,00,00,00,
121402414,19000026,true,Rx,0,8,00,00,01,40,38,11,84,00,
121403349,0100082C,true,Rx,0,8,00,C8,80,62,66,00,00,D7,
121403628,0110483C,true,Rx,0,8,08,E9,EA,00,44,66,FC,54,
121405514,01C04026,true,Rx,0,8,80,00,80,00,80,00,80,00,
121405794,02000026,true,Rx,0,8,7F,34,00,DC,49,00,E0,AC,
121406075,02104136,true,Rx,0,8,BB,00,3F,FF,07,E0,00,00,
121406355,02804026,true,Rx,0,8,37,FF,77,64,F7,60,0E,01,
121406647,02C00020,true,Rx,0,8,00,00,00,00,00,00,00,00,
121406939,19A00002,true,Rx,0,8,02,00,00,00,00,00,00,F7,
121407538,0340412E,true,Rx,0,8,73,80,00,CD,80,00,00,00,
121412610,1B200002,true,Rx,0,8,00,00,00,00,00,00,0F,71,
121413309,0100082C,true,Rx,0,8,00,C8,80,62,66,00,00,D7,
121413588,0110483C,true,Rx,0,8,08,E9,6A,00,44,66,FC,54,
121417551,0340412E,true,Rx,0,8,74,80,00,BD,80,00,00,00,
121417837,19000026,true,Rx,0,8,00,00,01,40,38,11,84,00,
121419518,01C04026,true,Rx,0,8,80,00,80,00,80,00,80,00,
121419796,02000026,true,Rx,0,8,7F,34,00,DC,49,00,E0,AC,
121420088,02104136,true,Rx,0,8,BB,00,3F,FF,07,E0,00,00,
121420367,02804026,true,Rx,0,8,37,FF,77,2B,F7,63,0D,FF,
121420658,02C00020,true,Rx,0,8,00,00,00,00,00,00,00,00,
121423495,0100082C,true,Rx,0,8,00,C8,80,62,66,00,00,D7,
121423771,0110483C,true,Rx,0,8,08,E9,6A,00,44,66,FC,55,
121427551,0340412E,true,Rx,0,8,75,80,00,AD,80,00,00,00,
121432439,19000026,true,Rx,0,8,00,00,01,40,38,11,84,00,
121433312,0100082C,true,Rx,0,8,00,C8,80,62,66,00,00,D7,
121433592,0110483C,true,Rx,0,8,08,E9,6A,00,44,66,FC,55,
121433883,01C04026,true,Rx,0,8,80,00,80,00,80,00,80,00,
121434163,02000026,true,Rx,0,8,7F,34,00,DC,49,00,E0,AC,
121434443,02104136,true,Rx,0,8,BB,00,3F,FF,07,E0,00,00,
121434717,02804026,true,Rx,0,8,37,FF,76,E4,F7,63,0D,FF,
121435008,02C00020,true,Rx,0,8,00,00,00,00,00,00,00,00,
121435299,19A00002,true,Rx,0,8,12,00,00,00,00,00,00,F7,
121437558,0340412E,true,Rx,0,8,76,80,00,9D,80,00,00,00,
121443321,0100082C,true,Rx,0,8,00,C8,80,62,76,00,00,D7,
121443596,0110483C,true,Rx,0,8,08,E9,6A,00,44,66,FC,55,
121447532,01C04026,true,Rx,0,8,80,00,80,00,80,00,80,00,
121447808,02000026,true,Rx,0,8,7F,34,00,DC,49,00,E0,AC,
121448088,02104136,true,Rx,0,8,BB,00,3F,FF,07,E0,00,00,
121448369,02804026,true,Rx,0,8,37,FF,76,94,F7,63,0D,FF,
121448658,02C00020,true,Rx,0,8,00,00,00,00,00,00,00,00,
121448949,0340412E,true,Rx,0,8,77,80,00,8D,80,00,00,00,
121449230,19000026,true,Rx,0,8,00,00,01,40,38,11,84,00,
121453485,0100082C,true,Rx,0,8,00,C8,80,62,66,00,00,D7,
121453771,0110483C,true,Rx,0,8,08,E9,EA,00,44,66,FC,55,
121457551,0340412E,true,Rx,0,8,78,80,00,7D,80,00,00,00,
121461496,01C04026,true,Rx,0,8,80,00,80,00,80,00,80,00,
121461772,02000026,true,Rx,0,8,7F,34,00,DC,49,00,E0,AC,
121462064,02104136,true,Rx,0,8,BB,00,3F,FF,07,E0,00,00,
121462343,02804026,true,Rx,0,8,37,FF,76,3E,F7,63,0D,FF,
121462632,02C00020,true,Rx,0,8,00,00,00,00,00,00,00,00,
121462925,19000026,true,Rx,0,8,00,00,01,40,38,11,84,00,
121463215,19A00002,true,Rx,0,8,6E,00,00,00,00,00,00,F7,
121463504,0100082C,true,Rx,0,8,00,C8,80,62,66,00,00,D7,
121463783,0110483C,true,Rx,0,8,08,E9,6A,00,44,66,FC,54,
121464064,1AE0092C,true,Rx,0,8,00,00,22,E0,40,00,00,00,
121464364,1B700030,true,Rx,0,8,25,00,22,00,00,00,00,00,
121467561,0340412E,true,Rx,0,8,79,80,00,6D,80,00,00,00,
121473267,0100082C,true,Rx,0,8,00,C8,80,62,66,00,00,D7,
121473543,0110483C,true,Rx,0,8,08,E9,6A,00,44,66,FC,54,
121475499,01C04026,true,Rx,0,8,80,00,80,00,80,00,80,00,
121475778,02000026,true,Rx,0,8,7F,34,00,DC,49,00,E0,AC,
121476060,02104136,true,Rx,0,8,BB,00,3F,FF,07,E0,00,00,
121476339,02804026,true,Rx,0,8,37,FF,75,E5,F7,63,0D,FF,
121476639,02C00020,true,Rx,0,8,00,00,00,00,00,00,00,00,
121477553,0340412E,true,Rx,0,8,7A,80,00,5D,80,00,00,00,
121477843,19000026,true,Rx,0,8,00,00,01,40,38,11,84,00,
121483398,0100082C,true,Rx,0,8,00,C8,80,62,66,00,00,D7,
121483674,0110483C,true,Rx,0,8,08,E9,6A,00,44,66,FC,54,
121487558,0340412E,true,Rx,0,8,7B,80,00,4D,80,00,00,00,
121489533,01C04026,true,Rx,0,8,80,00,80,00,80,00,80,00,
121489809,02000026,true,Rx,0,8,7F,34,00,DC,49,00,E0,AC,
121490100,02104136,true,Rx,0,8,BB,00,3F,FF,07,E0,00,00,
121490380,02804026,true,Rx,0,8,37,FF,75,89,F7,63,0D,FF,
121490670,02C00020,true,Rx,0,8,00,00,00,00,00,00,00,00,
121490961,19A00002,true,Rx,0,8,12,00,00,00,00,00,00,F7,
121492440,19000026,true,Rx,0,8,00,00,01,40,38,11,84,00,
121493462,0100082C,true,Rx,0,8,00,C8,80,62,66,00,00,D7,
121493741,0110483C,true,Rx,0,8,08,E9,6A,00,44,66,FC,54,
121497551,0340412E,true,Rx,0,8,7C,80,00,3D,80,00,00,00,
121497847,1B200002,true,Rx,0,8,00,00,00,00,00,00,0F,71,
121503378,0100082C,true,Rx,0,8,00,C8,80,62,66,00,00,D7,
121503654,0110483C,true,Rx,0,8,08,E9,EA,00,44,66,FC,55,
121503946,01C04026,true,Rx,0,8,80,00,80,00,80,00,80,00,
121504225,02000026,true,Rx,0,8,7F,34,00,DC,49,00,E0,AC,
121504516,02104136,true,Rx,0,8,BB,00,3F,FF,07,E0,00,00,
121504795,02804026,true,Rx,0,8,37,FF,75,2D,F7,63,0D,FF,
121505087,02C00020,true,Rx,0,8,00,00,00,00,00,00,00,00,
121507569,0340412E,true,Rx,0,8,7D,80,00,2D,80,00,00,00,
121507854,19000026,true,Rx,0,8,00,00,01,40,38,11,84,00,
121513346,0100082C,true,Rx,0,8,00,C8,80,62,66,00,00,D7,
121513623,0110483C,true,Rx,0,8,08,E9,6A,00,44,66,FC,55,
121517527,01C04026,true,Rx,0,8,80,00,80,00,80,00,80,00,
121517802,02000026,true,Rx,0,8,7F,34,00,DC,49,00,E0,AC,
121518093,02104136,true,Rx,0,8,BB,00,3F,FF,07,E0,00,00,
121518363,02804026,true,Rx,0,8,37,FF,74,CF,F7,63,0D,FF,
121518663,02C00020,true,Rx,0,8,00,00,00,00,00,00,00,00,
121518944,0340412E,true,Rx,0,8,7E,80,00,1D,80,00,00,00,
121519234,19A00002,true,Rx,0,8,02,00,00,00,00,00,00,F7,
121522441,19000026,true,Rx,0,8,00,00,01,40,38,11,84,00,
121523512,0100082C,true,Rx,0,8,00,C8,80,62,66,00,00,D7,
121523791,0110483C,true,Rx,0,8,08,E9,6A,00,44,66,FC,55,
121527558,0340412E,true,Rx,0,8,7F,80,00,0D,80,00,00,00,
121531555,01C04026,true,Rx,0,8,80,00,80,00,80,00,80,00,
121531840,02000026,true,Rx,0,8,7F,34,00,DC,49,00,E0,AC,
121532122,02104136,true,Rx,0,8,BB,00,3F,FF,07,E0,00,00,
121532401,02804026,true,Rx,0,8,37,FF,74,70,F7,63,0D,FF,
121532691,02C00020,true,Rx,0,8,00,00,00,00,00,00,00,00,
121533404,0100082C,true,Rx,0,8,00,C8,80,62,66,00,00,D7,
121533679,0110483C,true,Rx,0,8,08,E9,6A,00,44,66,FC,55,
121537635,0340412E,true,Rx,0,8,70,80,00,FD,80,00,00,00,
121537922,19000026,true,Rx,0,8,00,00,01,40,38,11,84,00,
121543371,0100082C,true,Rx,0,8,00,C8,80,62,66,00,00,D7,
121543647,0110483C,true,Rx,0,8,08,E9,6A,00,44,66,FC,55,
121545551,01C04026,true,Rx,0,8,80,00,80,00,80,00,80,00,
121545831,02000026,true,Rx,0,8,7F,34,00,DC,49,00,E0,AC,
121546112,02104136,true,Rx,0,8,BB,00,3F,FF,07,E0,00,00,
121546391,02804026,true,Rx,0,8,37,FF,74,12,F7,63,0D,FF,
121546682,02C00020,true,Rx,0,8,00,00,00,00,00,00,00,00,
121546973,19A00002,true,Rx,0,8,12,00,00,00,00,00,00,F7,
121547620,0340412E,true,Rx,0,8,71,80,00,ED,80,00,00,00,
121552445,19000026,true,Rx,0,8,00,FF,01,40,38,11,8C,00,
121553309,0100082C,true,Rx,0,8,00,C8,80,62,66,00,00,D7,
121553589,0110483C,true,Rx,0,8,08,E9,EA,00,44,66,FC,54,
121557551,0340412E,true,Rx,0,8,72,80,00,DD,80,00,00,00,
121559578,01C04026,true,Rx,0,8,80,00,80,00,80,00,80,00,
121559865,02000026,true,Rx,0,8,7F,34,00,DC,49,00,E0,AC,
121560145,02104136,true,Rx,0,8,BB,00,3F,FF,07,E0,00,00,
121560426,02804026,true,Rx,0,8,37,FF,73,B3,F7,63,0D,FF,
121560715,02C00020,true,Rx,0,8,00,00,00,00,00,00,00,00,
121563419,0100082C,true,Rx,0,8,00,C8,80,62,66,00,00,D7,
121563696,0110483C,true,Rx,0,8,08,E9,6A,00,44,66,FC,54,
121567558,0340412E,true,Rx,0,8,73,80,00,CD,80,00,00,00,
121567843,19000026,true,Rx,0,8,00,FF,01,40,38,11,84,00,
121573364,0100082C,true,Rx,0,8,00,C8,80,62,76,00,00,D7,
121573651,0110483C,true,Rx,0,8,08,E9,6A,00,44,66,FC,55,
121573931,01C04026,true,Rx,0,8,80,00,80,00,80,00,80,00,
121574212,02000026,true,Rx,0,8,7F,34,00,DC,49,00,E0,AC,
121574501,02104136,true,Rx,0,8,BB,00,3F,FF,07,E0,00,00,
121574781,02804026,true,Rx,0,8,37,FF,73,54,F7,63,0D,FF,
121575073,02C00020,true,Rx,0,8,00,00,00,00,00,00,00,00,
121575362,19A00002,true,Rx,0,8,6E,00,00,00,00,00,00,F7,
121577559,0340412E,true,Rx,0,8,74,80,00,BD,80,00,00,00,
121582448,19000026,true,Rx,0,8,00,FF,01,40,38,11,84,00,
121582735,1B200002,true,Rx,0,8,00,00,00,00,00,00,0F,71,
121583395,0100082C,true,Rx,0,8,00,C8,80,62,66,00,00,D7,
121583676,0110483C,true,Rx,0,8,08,E9,6A,00,44,66,FC,55,
121587527,01C04026,true,Rx,0,8,80,00,80,00,80,00,80,00,
121587813,02000026,true,Rx,0,8,7F,34,00,DC,49,00,E0,AC,
121588095,02104136,true,Rx,0,8,BB,00,3F,FF,07,E0,00,00,
121588375,02804026,true,Rx,0,8,37,FF,72,F5,F7,63,0D,FF,
121588664,02C00020,true,Rx,0,8,00,00,00,00,00,00,00,00,
121588946,0340412E,true,Rx,0,8,75,80,00,AD,80,00,00,00,
121593466,0100082C,true,Rx,0,8,00,C8,80,62,66,00,00,D7,
121593741,0110483C,true,Rx,0,8,08,E9,6A,00,44,66,FC,55,
121597563,0340412E,true,Rx,0,8,76,80,00,9D,80,00,00,00,
121597849,19000026,true,Rx,0,8,00,FF,01,40,38,11,84,00,
121601517,01C04026,true,Rx,0,8,80,00,80,00,80,00,80,00,
121601792,02000026,true,Rx,0,8,7F,34,00,DC,49,00,E0,AC,
121602074,02104136,true,Rx,0,8,BB,00,3F,FF,07,E0,00,00,
121602353,02804026,true,Rx,0,8,37,FF,72,95,F7,63,0D,FF,
121602644,02C00020,true,Rx,0,8,00,00,00,00,00,00,00,00,
121602936,19A00002,true,Rx,0,8,12,00,00,00,00,00,00,F7,
121603556,0100082C,true,Rx,0,8,00,C8,80,62,66,00,00,D7,
121603832,0110483C,true,Rx,0,8,08,E9,EA,00,44,66,FC,55,
121607622,0340412E,true,Rx,0,8,77,80,00,8D,80,00,00,00,
121612437,19000026,true,Rx,0,8,00,FF,01,40,38,11,84,00,
121613321,0100082C,true,Rx,0,8,00,C8,80,62,66,00,00,D7,
121613602,0110483C,true,Rx,0,8,08,E9,6A,00,44,66,FC,55,
121615517,01C04026,true,Rx,0,8,80,00,80,00,80,00,80,00,
121615798,02000026,true,Rx,0,8,7F,34,00,DC,49,00,E0,AC,
121616078,02104136,true,Rx,0,8,BB,00,3F,FF,07,E0,00,00,
121616358,02804026,true,Rx,0,8,37,FF,72,36,F7,63,0D,FF,
121616651,02C00020,true,Rx,0,8,00,00,00,00,00,00,00,00,
121617559,0340412E,true,Rx,0,8,78,80,00,7D,80,00,00,00,
121623284,0100082C,true,Rx,0,8,00,C8,80,62,66,00,00,D7,
121623570,0110483C,true,Rx,0,8,08,E9,6A,00,44,66,FC,54,
121627557,0340412E,true,Rx,0,8,79,80,00,6D,80,00,00,00,
121627842,19000026,true,Rx,0,8,00,FF,01,40,38,11,84,00,
121629536,01C04026,true,Rx,0,8,80,00,80,00,80,00,80,00,
121629813,02000026,true,Rx,0,8,7F,34,00,DC,49,00,E0,AC,
121630105,02104136,true,Rx,0,8,BB,00,3F,FF,07,E0,00,00,
121630375,02804026,true,Rx,0,8,37,FF,71,D7,F7,63,0D,FF,
121630675,02C00020,true,Rx,0,8,00,00,00,00,00,00,00,00,
121630956,19A00002,true,Rx,0,8,02,00,00,00,00,00,00,F7,
121633539,0100082C,true,Rx,0,8,00,C8,80,62,66,00,00,D7,
121633814,0110483C,true,Rx,0,8,08,E9,6A,00,44,66,FC,54,
121637562,0340412E,true,Rx,0,8,7A,80,00,5D,80,00,00,00,
121638282,1BA0493C,true,Rx,0,8,06,02,01,07,04,01,02,01,
121638561,1BE0493C,true,Rx,0,8,02,03,8C,00,3C,04,19,24,
121642461,19000026,true,Rx,0,8,00,FF,01,40,38,11,8C,00,
121643335,0100082C,true,Rx,0,8,00,C8,80,62,66,00,00,D7,
121643615,0110483C,true,Rx,0,8,08,E9,6A,00,44,66,FC,54,
121643905,01C04026,true,Rx,0,8,80,00,80,00,80,00,80,00,
121644186,02000026,true,Rx,0,8,7F,34,00,DC,49,00,E0,AC,
121644465,02104136,true,Rx,0,8,BB,00,3F,FF,07,E0,00,00,
121644749,02804026,true,Rx,0,8,37,FF,71,78,F7,63,0D,FF,
121645041,02C00020,true,Rx,0,8,00,00,00,00,00,00,00,00,
121647555,0340412E,true,Rx,0,8,7B,80,00,4D,80,00,00,00,
121653287,0100082C,true,Rx,0,8,00,C8,80,62,66,00,00,D7,
121653564,0110483C,true,Rx,0,8,08,E9,EA,00,44,66,FC,55,
121657519,01C04026,true,Rx,0,8,80,00,80,00,80,00,80,00,
121657794,02000026,true,Rx,0,8,7F,34,00,DC,49,00,E0,AC,
121658076,02104136,true,Rx,0,8,BB,00,3F,FF,07,E0,00,00,
121658355,02804026,true,Rx,0,8,37,FF,71,18,F7,63,0D,FF,
121658655,02C00020,true,Rx,0,8,00,00,00,00,00,00,00,00,
121658937,0340412E,true,Rx,0,8,7C,80,00,3D,80,00,00,00,
121659216,19000026,true,Rx,0,8,00,FF,01,40,38,11,84,00,
121659507,19A00002,true,Rx,0,8,12,00,00,00,00,00,00,F7,
121663642,0100082C,true,Rx,0,8,00,C8,80,62,76,00,00,D7,
121663928,0110483C,true,Rx,0,8,08,E9,6A,00,44,66,FC,55,
121667563,0340412E,true,Rx,0,8,7D,80,00,2D,80,00,00,00,
121667859,1B200002,true,Rx,0,8,00,00,00,00,00,00,0F,71,
121671537,01C04026,true,Rx,0,8,80,00,80,00,80,00,80,00,
121671814,02000026,true,Rx,0,8,7F,34,00,DC,49,00,E0,AC,
121672104,02104136,true,Rx,0,8,BB,00,3F,FF,07,E0,00,00,
121672373,02804026,true,Rx,0,8,37,FF,70,B9,F7,63,0D,FF,
121672674,02C00020,true,Rx,0,8,00,00,00,00,00,00,00,00,
121672955,19000026,true,Rx,0,8,00,FF,01,40,38,11,84,00,
121673451,0100082C,true,Rx,0,8,00,C8,80,62,66,00,00,D7,
121673737,0110483C,true,Rx,0,8,08,E9,6A,00,44,66,FC,55,
121674008,1A200020,true,Rx,0,8,8E,00,02,31,00,00,02,31,
121674298,1B700030,true,Rx,0,8,25,91,22,00,00,00,03,00,
121677630,0340412E,true,Rx,0,8,7E,80,00,1D,80,00,00,00,
121683285,0100082C,true,Rx,0,8,00,C8,80,62,66,00,00,D7,
121683560,0110483C,true,Rx,0,8,08,E9,6A,00,44,66,FC,54,
121685515,01C04026,true,Rx,0,8,80,00,80,00,80,00,80,00,
121685795,02000026,true,Rx,0,8,7F,34,00,DC,49,00,E0,AC,
121686086,02104136,true,Rx,0,8,BB,00,3F,FF,07,E0,00,00,
121686357,02804026,true,Rx,0,8,37,FF,70,5A,F7,63,0D,FF,
121686656,02C00020,true,Rx,0,8,00,00,00,00,00,00,00,00,
121686937,19A00002,true,Rx,0,8,6E,00,00,00,00,00,00,F7,
121687563,0340412E,true,Rx,0,8,7F,80,00,0D,80,00,00,00,
121687842,19000026,true,Rx,0,8,00,FF,01,40,38,11,84,00,
121693330,0100082C,true,Rx,0,8,00,C8,80,62,66,00,00,D7,
121693605,0110483C,true,Rx,0,8,08,E9,6A,00,44,66,FC,54,
121697560,0340412E,true,Rx,0,8,70,80,00,FD,80,00,00,00,
121699537,01C04026,true,Rx,0,8,80,00,80,00,80,00,80,00,
121699812,02000026,true,Rx,0,8,7F,34,00,DC,49,00,E0,AC,
121700103,02104136,true,Rx,0,8,BB,00,3F,FF,07,E0,00,00,
121700384,02804026,true,Rx,0,8,37,FF,70,00,F7,63,0D,FF,
121700673,02C00020,true,Rx,0,8,00,00,00,00,00,00,00,00,
121702451,19000026,true,Rx,0,8,00,FF,01,40,38,11,8C,00,
121703472,0100082C,true,Rx,0,8,00,C8,80,62,66,00,00,D7,
121703750,0110483C,true,Rx,0,8,08,E9,EA,00,44,66,FC,54,
121707560,0340412E,true,Rx,0,8,71,80,00,ED,80,00,00,00,
121713288,0100082C,true,Rx,0,8,00,C8,80,62,66,00,00,D7,
121713574,0110483C,true,Rx,0,8,08,E9,6A,00,44,66,FC,54,
121713864,01C04026,true,Rx,0,8,80,00,80,00,80,00,80,00,
121714135,02000026,true,Rx,0,8,7F,34,00,DC,49,00,E0,AC,
121714425,02104136,true,Rx,0,8,BB,00,3F,FF,07,E0,00,00,
121714704,02804026,true,Rx,0,8,37,FF,70,00,F7,63,0D,FF,
121714996,02C00020,true,Rx,0,8,00,00,00,00,00,00,00,00,
121715285,19A00002,true,Rx,0,8,12,00,00,00,00,00,00,F7,
121717637,0340412E,true,Rx,0,8,72,80,00,DD,80,00,00,00,
121717915,19000026,true,Rx,0,8,00,FF,01,40,38,11,84,00,
121723351,0100082C,true,Rx,0,8,00,C8,80,62,66,00,00,D7,
121723637,0110483C,true,Rx,0,8,08,E9,6A,00,44,66,FC,55,
121727510,01C04026,true,Rx,0,8,80,00,80,00,80,00,80,00,
121727785,02000026,true,Rx,0,8,7F,34,00,DC,49,00,E0,AC,
121728077,02104136,true,Rx,0,8,BB,00,3F,FF,07,E0,00,00,
121728356,02804026,true,Rx,0,8,37,FF,70,00,F7,63,0D,FF,
121728647,02C00020,true,Rx,0,8,00,00,00,00,00,00,00,00,
121728927,0340412E,true,Rx,0,8,73,80,00,CD,80,00,00,00,
121732442,19000026,true,Rx,0,8,00,FF,01,40,38,11,8C,00,
121733418,0100082C,true,Rx,0,8,00,C8,80,62,66,00,00,D7,
121733687,0110483C,true,Rx,0,8,08,E9,6A,00,44,66,FC,55,
121737569,0340412E,true,Rx,0,8,74,80,00,BD,80,00,00,00,
121741514,01C04026,true,Rx,0,8,80,00,80,00,80,00,80,00,
121741791,02000026,true,Rx,0,8,7F,34,00,DC,49,00,E0,AC,
121742071,02104136,true,Rx,0,8,BB,00,3F,FF,07,E0,00,00,
121742351,02804026,true,Rx,0,8,37,FF,70,00,F7,63,0D,FF,
121742652,02C00020,true,Rx,0,8,00,00,00,00,00,00,00,00,
121742932,19A00002,true,Rx,0,8,02,00,00,00,00,00,00,F7,
121743490,0100082C,true,Rx,0,8,00,C8,80,62,66,00,00,D7,
121743766,0110483C,true,Rx,0,8,08,E9,6A,00,44,66,FC,55,
121747628,0340412E,true,Rx,0,8,75,80,00,AD,80,00,00,00,
121747916,19000026,true,Rx,0,8,00,FF,01,40,38,11,84,00,
121752596,1B200002,true,Rx,0,8,00,00,00,00,00,00,0F,71,
121753408,0100082C,true,Rx,0,8,00,C8,80,62,76,00,00,D7,
121753687,0110483C,true,Rx,0,8,08,E9,EA,00,44,66,FC,55,
121755512,01C04026,true,Rx,0,8,80,00,80,00,80,00,80,00,
121755791,02000026,true,Rx,0,8,7F,34,00,DC,49,00,E0,AC,
121756082,02104136,true,Rx,0,8,BB,00,3F,FF,07,E0,00,00,
121756362,02804026,true,Rx,0,8,37,FF,70,00,F7,63,0D,FF,
121756665,02C00020,true,Rx,0,8,00,00,00,00,00,00,00,00,
121757563,0340412E,true,Rx,0,8,76,80,00,9D,80,00,00,00,
121762450,19000026,true,Rx,0,8,00,FF,01,40,38,11,84,00,
121763355,0100082C,true,Rx,0,8,00,C8,80,62,66,00,00,D7,
121763634,0110483C,true,Rx,0,8,08,E9,6A,00,44,66,FC,55,
121767566,0340412E,true,Rx,0,8,77,80,00,8D,80,00,00,00,
121769542,01C04026,true,Rx,0,8,80,00,80,00,80,00,80,00,
121769828,02000026,true,Rx,0,8,7F,34,00,DC,49,00,E0,AC,
121770110,02104136,true,Rx,0,8,BB,00,3F,FF,07,E0,00,00,
121770389,02804026,true,Rx,0,8,37,FF,70,00,F7,63,0D,FF,
121770679,02C00020,true,Rx,0,8,00,00,00,00,00,00,00,00,
121770971,19A00002,true,Rx,0,8,12,00,00,00,00,00,00,F7,
121773420,0100082C,true,Rx,0,8,00,C8,80,62,66,00,00,D7,
121773695,0110483C,true,Rx,0,8,08,E9,6A,00,44,66,FC,54,
121777568,0340412E,true,Rx,0,8,78,80,00,7D,80,00,00,00,
121777855,19000026,true,Rx,0,8,00,FF,01,40,38,11,8C,00,
121783376,0100082C,true,Rx,0,8,00,C8,80,62,66,00,00,D7,
121783651,0110483C,true,Rx,0,8,08,E9,6A,00,44,66,FC,54,
121783943,01C04026,true,Rx,0,8,80,00,80,00,80,00,80,00,
121784212,02000026,true,Rx,0,8,7F,34,00,DC,49,00,E0,AC,
121784502,02104136,true,Rx,0,8,BB,00,3F,FF,07,E0,00,00,
121784782,02804026,true,Rx,0,8,37,FF,70,00,F7,63,0D,FF,
121785074,02C00020,true,Rx,0,8,00,00,00,00,00,00,00,00,
121787638,0340412E,true,Rx,0,8,79,80,00,6D,80,00,00,00,
121792444,19000026,true,Rx,0,8,00,FF,01,40,38,11,84,00,
121793297,0100082C,true,Rx,0,8,00,C8,80,62,66,00,00,D7,
121793576,0110483C,true,Rx,0,8,08,E9,6A,00,44,66,FC,55,
121797528,01C04026,true,Rx,0,8,80,00,80,00,80,00,80,00,
121797805,02000026,true,Rx,0,8,7F,34,00,DC,49,00,E0,AC,
121798096,02104136,true,Rx,0,8,BB,00,3F,FF,07,E0,00,00,
121798375,02804026,true,Rx,0,8,37,FF,70,00,F7,63,0D,FF,
121798666,02C00020,true,Rx,0,8,00,00,00,00,00,00,00,00,
121798946,0340412E,true,Rx,0,8,7A,80,00,5D,80,00,00,00,
121799237,19A00002,true,Rx,0,8,6E,00,00,00,00,00,00,F7,
121803490,0100082C,true,Rx,0,8,00,C8,80,62,66,00,00,D7,
121803766,0110483C,true,Rx,0,8,08,E9,EA,00,44,66,FC,55,
121807566,0340412E,true,Rx,0,8,7B,80,00,4D,80,00,00,00,
121807853,19000026,true,Rx,0,8,00,FF,01,40,38,11,8C,00,
121811530,01C04026,true,Rx,0,8,80,00,80,00,80,00,80,00,
121811815,02000026,true,Rx,0,8,7F,34,00,DC,49,00,E0,AC,
121812096,02104136,true,Rx,0,8,BB,00,3F,FF,07,E0,00,00,
121812376,02804026,true,Rx,0,8,37,FF,70,00,F7,63,0D,FF,
121812666,02C00020,true,Rx,0,8,00,00,00,00,00,00,00,00,
121813472,0100082C,true,Rx,0,8,00,C8,80,62,66,00,00,D7,
121813745,0110483C,true,Rx,0,8,08,E9,6A,00,44,66,FC,55,
121817630,0340412E,true,Rx,0,8,7C,80,00,3D,80,00,00,00,
121822446,19000026,true,Rx,0,8,00,FF,01,40,38,11,84,00,
121823330,0100082C,true,Rx,0,8,00,C8,80,62,66,00,00,D7,
121823609,0110483C,true,Rx,0,8,08,E9,6A,00,44,66,FC,55,
121825527,01C04026,true,Rx,0,8,80,00,80,00,80,00,80,00,
121825807,02000026,true,Rx,0,8,7F,34,00,DC,49,00,E0,AC,
121826099,02104136,true,Rx,0,8,BB,00,3F,FF,07,E0,00,00,
121826368,02804026,true,Rx,0,8,37,FF,70,00,F7,63,0D,FF,
121826670,02C00020,true,Rx,0,8,00,00,00,00,00,00,00,00,
121826952,19A00002,true,Rx,0,8,12,00,00,00,00,00,00,F7,
121827570,0340412E,true,Rx,0,8,7D,80,00,2D,80,00,00,00,
121833278,0100082C,true,Rx,0,8,00,C8,80,62,66,00,00,D7,
121833563,0110483C,true,Rx,0,8,08,E9,6A,00,44,66,FC,55,
121837571,0340412E,true,Rx,0,8,7E,80,00,1D,80,00,00,00,
121837857,19000026,true,Rx,0,8,00,FF,01,40,38,11,84,00,
121838148,1B200002,true,Rx,0,8,00,00,00,00,00,00,0F,71,
121839530,01C04026,true,Rx,0,8,80,00,80,00,80,00,80,00,
121839810,02000026,true,Rx,0,8,7F,34,00,DC,49,00,E0,AC,
121840092,02104136,true,Rx,0,8,BB,00,3F,FF,07,E0,00,00,
121840371,02804026,true,Rx,0,8,37,FF,70,00,F7,63,0D,FF,
121840660,02C00020,true,Rx,0,8,00,00,00,00,00,00,00,00,
121843550,0100082C,true,Rx,0,8,00,C8,80,62,76,00,00,D7,
121843827,0110483C,true,Rx,0,8,08,E9,6A,00,44,66,FC,54,
121847564,0340412E,true,Rx,0,8,7F,80,00,0D,80,00,00,00,
121852452,19000026,true,Rx,0,8,00,FF,01,40,38,11,8C,00,
121853307,0100082C,true,Rx,0,8,00,C8,80,62,66,00,00,D7,
121853586,0110483C,true,Rx,0,8,08,E9,EA,00,44,66,FC,54,
121853877,01C04026,true,Rx,0,8,80,00,80,00,80,00,80,00,
121854157,02000026,true,Rx,0,8,7F,34,00,DC,49,00,E0,AC,
121854437,02104136,true,Rx,0,8,BB,00,3F,FF,07,E0,00,00,
121854722,02804026,true,Rx,0,8,37,FF,70,00,F7,63,0D,FF,
121855012,02C00020,true,Rx,0,8,00,00,00,00,00,00,00,00,
121855303,19A00002,true,Rx,0,8,02,00,00,00,00,00,00,F7,
121857644,0340412E,true,Rx,0,8,70,80,00,FD,80,00,00,00,
121863315,0100082C,true,Rx,0,8,00,C8,80,62,66,00,00,D7,
121863590,0110483C,true,Rx,0,8,08,E9,6A,00,44,66,FC,54,
121867504,01C04026,true,Rx,0,8,80,00,80,00,80,00,80,00,
121867781,02000026,true,Rx,0,8,7F,34,00,DC,49,00,E0,AC,
121868071,02104136,true,Rx,0,8,BB,00,3F,FF,07,E0,00,00,
121868352,02804026,true,Rx,0,8,37,FF,70,00,F7,63,0D,FF,
121868642,02C00020,true,Rx,0,8,00,00,00,00,00,00,00,00,
121868922,0340412E,true,Rx,0,8,71,80,00,ED,80,00,00,00,
121869213,19000026,true,Rx,0,8,00,FF,01,40,38,11,84,00,
121873466,0100082C,true,Rx,0,8,00,C8,80,62,66,00,00,D7,
121873742,0110483C,true,Rx,0,8,08,E9,6A,00,44,66,FC,55,
121877574,0340412E,true,Rx,0,8,72,80,00,DD,80,00,00,00,
121881508,01C04026,true,Rx,0,8,80,00,80,00,80,00,80,00,
121881783,02000026,true,Rx,0,8,7F,34,00,DC,49,00,E0,AC,
121882064,02104136,true,Rx,0,8,BB,00,3F,FF,07,E0,00,00,
121882345,02804026,true,Rx,0,8,37,FF,70,1B,F7,63,0D,FF,
121882644,02C00020,true,Rx,0,8,00,00,00,00,00,00,00,00,
121882926,19000026,true,Rx,0,8,00,FF,01,40,38,11,8C,00,
121883216,19A00002,true,Rx,0,8,12,00,00,00,00,00,00,F7,
121883505,0100082C,true,Rx,0,8,00,C8,80,62,66,00,00,D7,
121883784,0110483C,true,Rx,0,8,08,E9,6A,00,44,66,FC,55,
121884065,1AE0092C,true,Rx,0,8,40,00,22,E0,41,A0,00,00,
121884354,1B700030,true,Rx,0,8,35,91,22,00,00,00,03,00,
121887644,0340412E,true,Rx,0,8,73,80,00,CD,80,00,00,00,
121888446,1BA0493C,true,Rx,0,8,07,01,03,00,02,01,01,01,
121893295,0100082C,true,Rx,0,8,00,C8,80,62,66,00,00,D7,
121893570,0110483C,true,Rx,0,8,08,E9,6A,00,44,66,FC,55,
121895527,01C04026,true,Rx,0,8,80,00,80,00,80,00,80,00,
121895806,02000026,true,Rx,0,8,7F,34,00,DC,49,00,E0,AC,
121896098,02104136,true,Rx,0,8,BB,00,3F,FF,07,E0,00,00,
121896367,02804026,true,Rx,0,8,37,FF,70,76,F7,63,0D,FF,
121896667,02C00020,true,Rx,0,8,00,00,00,00,00,00,00,00,
121897571,0340412E,true,Rx,0,8,74,80,00,BD,80,00,00,00,
121897850,19000026,true,Rx,0,8,00,FF,01,40,38,11,84,00,
121903396,0100082C,true,Rx,0,8,00,C8,80,62,66,00,00,D7,
121903683,0110483C,true,Rx,0,8,08,E9,EA,00,44,66,FC,55,
121907566,0340412E,true,Rx,0,8,75,80,00,AD,80,00,00,00,
121909532,01C04026,true,Rx,0,8,80,00,80,00,80,00,80,00,
121909808,02000026,true,Rx,0,8,7F,34,00,DC,49,00,E0,AC,
121910088,02104136,true,Rx,0,8,BB,00,3F,FF,07,E0,00,00,
121910368,02804026,true,Rx,0,8,37,FF,70,D3,F7,63,0D,FF,
121910659,02C00020,true,Rx,0,8,00,00,00,00,00,00,00,00,
121910949,19A00002,true,Rx,0,8,6E,00,00,00,00,00,00,F7,
121912449,19000026,true,Rx,0,8,00,FF,01,40,38,11,8C,00,
121913471,0100082C,true,Rx,0,8,00,C8,80,62,66,00,00,D7,
121913749,0110483C,true,Rx,0,8,08,E9,6A,00,44,66,FC,54,
121917570,0340412E,true,Rx,0,8,76,80,00,9D,80,00,00,00,
121922603,1B200002,true,Rx,0,8,00,00,00,00,00,00,0F,71,
121923302,0100082C,true,Rx,0,8,00,C8,80,62,66,00,00,D7,
121923582,0110483C,true,Rx,0,8,08,E9,6A,00,44,66,FC,54,
121923872,01C04026,true,Rx,0,8,80,00,80,00,80,00,80,00,
121924153,02000026,true,Rx,0,8,7F,34,00,DC,49,00,E0,AC,
121924434,02104136,true,Rx,0,8,BB,00,3F,FF,07,E0,00,00,
121924717,02804026,true,Rx,0,8,37,FF,71,31,F7,63,0D,FF,
121925008,02C00020,true,Rx,0,8,00,00,00,00,00,00,00,00,
121927646,0340412E,true,Rx,0,8,77,80,00,8D,80,00,00,00,
121927927,19000026,true,Rx,0,8,00,FF,01,40,38,11,84,00,
121933382,0100082C,true,Rx,0,8,00,C8,80,62,76,00,00,D7,
121933658,0110483C,true,Rx,0,8,08,E9,6A,00,44,66,FC,54,
121937510,01C04026,true,Rx,0,8,80,00,80,00,80,00,80,00,
121937786,02000026,true,Rx,0,8,7F,34,00,DC,49,00,E0,AC,
121938076,02104136,true,Rx,0,8,BB,00,3F,FF,07,E0,00,00,
121938347,02804026,true,Rx,0,8,37,FF,71,8F,F7,63,0D,FF,
121938647,02C00020,true,Rx,0,8,00,00,00,00,00,00,00,00,
121938927,0340412E,true,Rx,0,8,78,80,00,7D,80,00,00,00,
121939218,19A00002,true,Rx,0,8,12,00,00,00,00,00,00,F7,
121942456,19000026,true,Rx,0,8,00,FF,01,40,38,11,8C,00,
121943514,0100082C,true,Rx,0,8,00,C8,80,62,66,00,00,D7,
121943785,0110483C,true,Rx,0,8,08,E9,6A,00,44,66,FC,55,
121947573,0340412E,true,Rx,0,8,79,80,00,6D,80,00,00,00,
121951507,01C04026,true,Rx,0,8,80,00,80,00,80,00,80,00,
121951782,02000026,true,Rx,0,8,7F,34,00,DC,49,00,E0,AC,
121952075,02104136,true,Rx,0,8,BB,00,3F,FF,07,E0,00,00,
121952344,02804026,true,Rx,0,8,37,FF,71,ED,F7,63,0D,FF,
121952644,02C00020,true,Rx,0,8,00,00,00,00,00,00,00,00,
121953419,0100082C,true,Rx,0,8,00,C8,80,62,66,00,00,D7,
121953693,0110483C,true,Rx,0,8,08,E9,EA,00,44,66,FC,55,
121957638,0340412E,true,Rx,0,8,7A,80,00,5D,80,00,00,00,
121957925,19000026,true,Rx,0,8,00,FF,01,40,38,11,84,00,
121963373,0100082C,true,Rx,0,8,00,C0,80,62,66,00,00,D7,
121963649,0110483C,true,Rx,0,8,08,E9,6A,00,44,66,FC,55,
121965513,01C04026,true,Rx,0,8,80,00,80,00,80,00,80,00,
121965792,02000026,true,Rx,0,8,7F,34,00,DC,49,00,E0,AC,
121966074,02104136,true,Rx,0,8,BB,00,3F,FF,07,E0,00,00,
121966343,02804026,true,Rx,0,8,37,FF,72,4C,F7,63,0D,FF,
121966644,02C00020,true,Rx,0,8,00,00,00,00,00,00,00,00,
121966925,19A00002,true,Rx,0,8,02,00,00,00,00,00,00,F7,
121967572,0340412E,true,Rx,0,8,7B,80,00,4D,80,00,00,00,
121972461,19000026,true,Rx,0,8,00,FF,01,40,38,11,84,00,
121973304,0100082C,true,Rx,0,8,00,C0,80,62,66,00,00,D7,
121973584,0110483C,true,Rx,0,8,08,E9,6A,00,44,66,FC,55,
121977579,0340412E,true,Rx,0,8,7C,80,00,3D,80,00,00,00,
121979544,01C04026,true,Rx,0,8,80,00,80,00,80,00,80,00,
121979821,02000026,true,Rx,0,8,7F,34,00,DC,49,00,E0,AC,
121980112,02104136,true,Rx,0,8,BB,00,3F,FF,07,E0,00,00,
121980381,02804026,true,Rx,0,8,37,FF,72,AB,F7,63,0D,FF,
121980682,02C00020,true,Rx,0,8,00,00,00,00,00,00,00,00,
121983426,0100082C,true,Rx,0,8,00,C0,80,62,66,00,00,D7,
121983703,0110483C,true,Rx,0,8,08,E9,6A,00,44,66,FC,55,
121987575,0340412E,true,Rx,0,8,7D,80,00,2D,80,00,00,00,
121987861,19000026,true,Rx,0,8,00,FF,01,40,38,11,8C,00,
121988327,1A200020,true,Rx,0,8,CE,00,02,31,00,00,02,31,
121993355,0100082C,true,Rx,0,8,00,C0,80,62,66,00,00,D7,
121993632,0110483C,true,Rx,0,8,08,E9,6A,00,44,66,FC,54,
121993922,01C04026,true,Rx,0,8,80,00,80,00,80,00,80,00,
121994202,02000026,true,Rx,0,8,7F,34,00,DC,49,00,E0,AC,
121994482,02104136,true,Rx,0,8,BB,00,3F,FF,07,E0,00,00,
121994761,02804026,true,Rx,0,8,37,FF,73,0A,F7,63,0D,FF,
121995052,02C00020,true,Rx,0,8,00,00,00,00,00,00,00,00,
121995343,19A00002,true,Rx,0,8,12,00,00,00,00,00,00,F7,
121997642,0340412E,true,Rx,0,8,7E,80,00,1D,80,00,00,00,
122002457,19000026,true,Rx,0,8,00,FF,01,40,38,11,84,00,
122003351,0100082C,true,Rx,0,8,00,C0,80,62,66,00,00,D7,
122003622,0110483C,true,Rx,0,8,08,E9,EA,00,44,66,FC,54,
122007532,01C04026,true,Rx,0,8,80,00,80,00,80,00,80,00,
122007807,02000026,true,Rx,0,8,7F,34,00,DC,49,00,E0,AC,
122008098,02104136,true,Rx,0,8,BB,00,3F,FF,07,E0,00,00,
122008379,02804026,true,Rx,0,8,37,FF,73,6A,F7,63,0D,FF,
122008668,02C00020,true,Rx,0,8,00,00,00,00,00,00,00,00,
122008950,0340412E,true,Rx,0,8,7F,80,00,0D,80,00,00,00,
122009240,1B200002,true,Rx,0,8,00,00,00,00,00,00,0F,71,
122013401,0100082C,true,Rx,0,8,00,C0,80,62,66,00,00,D7,
122013688,0110483C,true,Rx,0,8,08,E9,6A,00,44,66,FC,54,
122017581,0340412E,true,Rx,0,8,70,80,00,FD,80,00,00,00,
122017866,19000026,true,Rx,0,8,00,FF,01,40,38,11,8C,00,
122021513,01C04026,true,Rx,0,8,80,00,80,00,80,00,80,00,
122021788,02000026,true,Rx,0,8,7F,34,00,DC,49,00,E0,AC,
122022080,02104136,true,Rx,0,8,BB,00,3F,FF,07,E0,00,00,
122022360,02804026,true,Rx,0,8,37,FF,73,C9,F7,63,0D,FF,
122022649,02C00020,true,Rx,0,8,00,00,00,00,00,00,00,00,
122022941,19A00002,true,Rx,0,8,6E,00,00,00,00,00,00,F7,
122023612,0100082C,true,Rx,0,8,00,C0,80,62,66,00,00,D7,
122023900,0110483C,true,Rx,0,8,08,E9,6A,00,44,66,FC,55,
122027647,0340412E,true,Rx,0,8,71,80,00,ED,80,00,00,00,
122032454,19000026,true,Rx,0,8,00,FF,01,40,38,11,84,00,
122033307,0100082C,true,Rx,0,8,00,C0,80,62,66,00,00,D7,
122033577,0110483C,true,Rx,0,8,08,E9,6A,00,44,66,FC,55,
122035555,01C04026,true,Rx,0,8,80,00,80,00,80,00,80,00,
122035825,02000026,true,Rx,0,8,7F,34,00,DC,49,00,E0,AC,
122036116,02104136,true,Rx,0,8,BB,00,3F,FF,07,E0,00,00,
122036385,02804026,true,Rx,0,8,37,FF,74,28,F7,63,0D,FF,
122036689,02C00020,true,Rx,0,8,00,00,00,00,00,00,00,00,
122037577,0340412E,true,Rx,0,8,72,80,00,DD,80,00,00,00,
122043354,0100082C,true,Rx,0,8,00,C0,80,62,66,00,00,D7,
122043630,0110483C,true,Rx,0,8,08,E9,6A,00,44,66,FC,55,
122047575,0340412E,true,Rx,0,8,73,80,00,CD,80,00,00,00,
122047861,19000026,true,Rx,0,8,00,FF,01,40,38,11,84,00,
122049573,01C04026,true,Rx,0,8,80,00,80,00,80,00,80,00,
122049852,02000026,true,Rx,0,8,7F,34,00,DC,49,00,E0,AC,
122050132,02104136,true,Rx,0,8,BB,00,3F,FF,07,E0,00,00,
122050413,02804026,true,Rx,0,8,37,FF,74,88,F7,63,0D,FF,
122050703,02C00020,true,Rx,0,8,00,00,00,00,00,00,00,00,
122050993,19A00002,true,Rx,0,8,12,00,00,00,00,00,00,F7,
122053524,0100082C,true,Rx,0,8,00,C0,80,62,66,00,00,D7,
122053799,0110483C,true,Rx,0,8,08,E9,EA,00,44,66,FC,55,
122057579,0340412E,true,Rx,0,8,74,80,00,BD,80,00,00,00,
122062456,19000026,true,Rx,0,8,00,FF,01,40,38,11,8C,00,
122063350,0100082C,true,Rx,0,8,00,C0,80,62,66,00,00,D7,
122063620,0110483C,true,Rx,0,8,08,E9,6A,00,44,66,FC,54,
122063911,01C04026,true,Rx,0,8,80,00,80,00,80,00,80,00,
122064191,02000026,true,Rx,0,8,7F,34,00,DC,49,00,E0,AC,
122064481,02104136,true,Rx,0,8,BB,00,3F,FF,07,E0,00,00,
122064754,02804026,true,Rx,0,8,37,FF,74,E7,F7,63,0D,FF,
122065046,02C00020,true,Rx,0,8,00,00,00,00,00,00,00,00,
122067642,0340412E,true,Rx,0,8,75,80,00,AD,80,00,00,00,
122073262,0100082C,true,Rx,0,8,00,C0,80,62,76,00,00,D7,
122073549,0110483C,true,Rx,0,8,08,E9,6A,00,44,66,FC,54,
122077546,01C04026,true,Rx,0,8,80,00,80,00,80,00,80,00,
122077821,02000026,true,Rx,0,8,7F,34,00,DC,49,00,E0,AC,
122078113,02104136,true,Rx,0,8,BB,00,3F,FF,07,E0,00,00,
122078392,02804026,true,Rx,0,8,37,FF,75,46,F7,63,0D,FF,
122078682,02C00020,true,Rx,0,8,00,00,00,00,00,00,00,00,
122078963,0340412E,true,Rx,0,8,76,80,00,9D,80,00,00,00,
122079253,19000026,true,Rx,0,8,00,FF,01,40,38,11,84,00,
122079532,19A00002,true,Rx,0,8,02,00,00,00,00,00,00,F7,
122083512,0100082C,true,Rx,0,8,00,C0,80,62,66,00,00,D7,
122083798,0110483C,true,Rx,0,8,08,E9,6A,00,44,66,FC,54,
122087577,0340412E,true,Rx,0,8,77,80,00,8D,80,00,00,00,
122091553,01C04026,true,Rx,0,8,80,00,80,00,80,00,80,00,
122091840,02000026,true,Rx,0,8,7F,34,00,DC,49,00,E0,AC,
122092121,02104136,true,Rx,0,8,BB,00,3F,FF,07,E0,00,00,
122092400,02804026,true,Rx,0,8,37,FF,75,A5,F7,63,0D,FF,
122092691,02C00020,true,Rx,0,8,00,00,00,00,00,00,00,00,
122092981,19000026,true,Rx,0,8,00,FF,01,40,38,11,8C,00,
122093271,1B200002,true,Rx,0,8,00,00,00,00,00,00,0F,71,
122093562,0100082C,true,Rx,0,8,00,C0,80,62,66,00,00,D7,
122093840,0110483C,true,Rx,0,8,08,E9,6A,00,44,66,FC,55,
122094120,1B700030,true,Rx,0,8,25,91,22,00,00,00,03,00,
122097646,0340412E,true,Rx,0,8,78,80,00,7D,80,00,00,00,
122103321,0100082C,true,Rx,0,8,00,C0,80,62,66,00,00,D7,
122103597,0110483C,true,Rx,0,8,08,E9,EA,00,44,66,FC,55,
122105533,01C04026,true,Rx,0,8,80,00,80,00,80,00,80,00,
122105813,02000026,true,Rx,0,8,7F,34,00,DC,49,00,E0,AC,
122106105,02104136,true,Rx,0,8,BB,00,3F,FF,07,E0,00,00,
122106374,02804026,true,Rx,0,8,37,FF,76,05,F7,63,0D,FF,
122106675,02C00020,true,Rx,0,8,00,00,00,00,00,00,00,00,
122106967,19A00002,true,Rx,0,8,12,00,00,00,00,00,00,F7,
122107583,0340412E,true,Rx,0,8,79,80,00,6D,80,00,00,00,
122107862,19000026,true,Rx,0,8,00,FF,01,40,38,11,84,00,
122113388,0100082C,true,Rx,0,8,00,C0,80,62,66,00,00,D7,
122113663,0110483C,true,Rx,0,8,08,E9,6A,00,44,66,FC,55,
122117577,0340412E,true,Rx,0,8,7A,80,00,5D,80,00,00,00,
122119564,01C04026,true,Rx,0,8,80,00,80,00,80,00,80,00,
122119839,02000026,true,Rx,0,8,7F,34,00,DC,49,00,E0,AC,
122120130,02104136,true,Rx,0,8,BB,00,3F,FF,07,E0,00,00,
122120400,02804026,true,Rx,0,8,37,FF,76,64,F7,63,0D,FF,
122120690,02C00020,true,Rx,0,8,00,00,00,00,00,00,00,00,
122122457,19000026,true,Rx,0,8,00,FF,01,40,38,11,8C,00,
122123459,0100082C,true,Rx,0,8,00,C0,80,62,66,00,00,D7,
122123747,0110483C,true,Rx,0,8,08,E9,6A,00,44,66,FC,55,
122127578,0340412E,true,Rx,0,8,7B,80,00,4D,80,00,00,00,
122133274,0100082C,true,Rx,0,8,00,C0,80,62,66,00,00,D7,
122133551,0110483C,true,Rx,0,8,08,E9,6A,00,44,66,FC,54,
122133840,01C04026,true,Rx,0,8,80,00,80,00,80,00,80,00,
122134122,02000026,true,Rx,0,8,7F,34,00,DC,49,00,E0,AC,
122134411,02104136,true,Rx,0,8,BB,00,3F,FF,07,E0,00,00,
122134680,02804026,true,Rx,0,8,37,FF,76,C3,F7,63,0D,FF,
122134983,02C00020,true,Rx,0,8,00,00,00,00,00,00,00,00,
122135262,19A00002,true,Rx,0,8,6E,00,00,00,00,00,00,F7,
122137654,0340412E,true,Rx,0,8,7C,80,00,3D,80,00,00,00,
122137942,19000026,true,Rx,0,8,00,FF,01,40,38,11,84,00,
122138468,1BA0493C,true,Rx,0,8,08,02,01,12,01,01,01,02,
122143384,0100082C,true,Rx,0,8,00,C0,80,62,66,00,00,D7,
122143670,0110483C,true,Rx,0,8,08,E9,6A,00,44,66,FC,54,
122147532,01C04026,true,Rx,0,8,80,00,80,00,80,00,80,00,
122147807,02000026,true,Rx,0,8,7F,34,00,DC,49,00,E0,AC,
122148090,02104136,true,Rx,0,8,BB,00,3F,FF,07,E0,00,00,
122148369,02804026,true,Rx,0,8,37,FF,77,23,F7,63,0D,FF,
122148660,02C00020,true,Rx,0,8,00,00,00,00,00,00,00,00,
122148950,0340412E,true,Rx,0,8,7D,80,00,2D,80,00,00,00,
122152465,19000026,true,Rx,0,8,00,FF,01,40,38,11,8C,00,
122153473,0100082C,true,Rx,0,8,00,C0,80,62,76,00,00,D7,
122153753,0110483C,true,Rx,0,8,08,E9,EA,00,44,66,FC,54,
122157582,0340412E,true,Rx,0,8,7E,80,00,1D,80,00,00,00,
122161517,01C04026,true,Rx,0,8,80,00,80,00,80,00,80,00,
122161803,02000026,true,Rx,0,8,7F,34,00,DC,49,00,E0,AC,
122162084,02104136,true,Rx,0,8,BB,00,3F,FF,07,E0,00,00,
122162363,02804026,true,Rx,0,8,37,FF,77,6D,F7,63,0D,FF,
122162664,02C00020,true,Rx,0,8,00,00,00,00,00,00,00,00,
122162945,19A00002,true,Rx,0,8,12,00,00,00,00,00,00,F7,
122163441,0100082C,true,Rx,0,8,00,C0,80,62,66,00,00,D7,
122163727,0110483C,true,Rx,0,8,08,E9,6A,00,44,66,FC,55,
122167579,0340412E,true,Rx,0,8,7F,80,00,0D,80,00,00,00,
122167866,19000026,true,Rx,0,8,00,FF,01,40,38,11,84,00,
122173337,0100082C,true,Rx,0,8,00,C0,80,62,66,00,00,D7,
122173612,0110483C,true,Rx,0,8,08,E9,6A,00,44,66,FC,55,
122175525,01C04026,true,Rx,0,8,80,00,80,00,80,00,80,00,
122175806,02000026,true,Rx,0,8,7F,34,00,DC,49,00,E0,AC,
122176087,02104136,true,Rx,0,8,BB,00,3F,FF,07,E0,00,00,
122176367,02804026,true,Rx,0,8,37,FF,77,9B,F7,63,0D,FF,
122176667,02C00020,true,Rx,0,8,00,00,00,00,00,00,00,00,
122177580,0340412E,true,Rx,0,8,70,80,00,FD,80,00,00,00,
122177871,1B200002,true,Rx,0,8,00,00,00,00,00,00,0F,71,
122182474,19000026,true,Rx,0,8,00,FF,01,40,38,11,84,00,
122183358,0100082C,true,Rx,0,8,00,C0,80,62,66,00,00,D7,
122183637,0110483C,true,Rx,0,8,08,E9,6A,00,44,66,FC,55,
122187589,0340412E,true,Rx,0,8,71,80,00,ED,80,00,00,00,
122189545,01C04026,true,Rx,0,8,80,00,80,00,80,00,80,00,
122189821,02000026,true,Rx,0,8,7F,34,00,DC,49,00,E0,AC,
122190111,02104136,true,Rx,0,8,BB,00,3F,FF,07,E0,00,00,
122190382,02804026,true,Rx,0,8,37,FF,77,B8,F7,63,0D,FF,
122190682,02C00020,true,Rx,0,8,00,00,00,00,00,00,00,00,
122190963,19A00002,true,Rx,0,8,02,00,00,00,00,00,00,F7,
122193462,0100082C,true,Rx,0,8,00,C0,80,62,66,00,00,D7,
122193738,0110483C,true,Rx,0,8,08,E9,6A,00,44,66,FC,55,
122197579,0340412E,true,Rx,0,8,72,80,00,DD,80,00,00,00,
122197866,19000026,true,Rx,0,8,00,FF,01,40,38,11,8C,00,
122203428,0100082C,true,Rx,0,8,00,C0,80,62,66,00,00,D7,
122203713,0110483C,true,Rx,0,8,08,E9,EA,00,44,66,FC,55,
122203995,01C04026,true,Rx,0,8,80,00,80,00,80,00,80,00,
122204274,02000026,true,Rx,0,8,7F,34,00,DC,49,00,E0,AC,
122204564,02104136,true,Rx,0,8,BB,00,3F,FF,07,E0,00,00,
122204844,02804026,true,Rx,0,8,37,FF,77,C9,F7,63,0D,FF,
122205135,02C00020,true,Rx,0,8,00,00,00,00,00,00,00,00,
122207658,0340412E,true,Rx,0,8,73,80,00,CD,80,00,00,00,
122212465,19000026,true,Rx,0,8,00,FF,01,40,38,11,84,00,
122213318,0100082C,true,Rx,0,8,00,C0,80,62,66,00,00,D7,
122213597,0110483C,true,Rx,0,8,08,E9,6A,00,44,66,FC,54,
122217529,01C04026,true,Rx,0,8,80,00,80,00,80,00,80,00,
122217805,02000026,true,Rx,0,8,7F,34,00,DC,49,00,E0,AC,
122218086,02104136,true,Rx,0,8,BB,00,3F,FF,07,E0,00,00,
122218365,02804026,true,Rx,0,8,37,FF,77,D6,F7,63,0D,FF,
122218666,02C00020,true,Rx,0,8,00,00,00,00,00,00,00,00,
122218947,0340412E,true,Rx,0,8,74,80,00,BD,80,00,00,00,
122219236,19A00002,true,Rx,0,8,12,00,00,00,00,00,00,F7,
122223460,0100082C,true,Rx,0,8,00,C0,80,62,66,00,00,D7,
122223735,0110483C,true,Rx,0,8,08,E9,6A,00,44,66,FC,54,
122227589,0340412E,true,Rx,0,8,75,80,00,AD,80,00,00,00,
122227876,19000026,true,Rx,0,8,00,FF,01,40,38,11,8C,00,
122231542,01C04026,true,Rx,0,8,80,00,80,00,80,00,80,00,
122231819,02000026,true,Rx,0,8,7F,34,00,DC,49,00,E0,AC,
122232110,02104136,true,Rx,0,8,BB,00,3F,FF,07,E0,00,00,
122232390,02804026,true,Rx,0,8,37,FF,77,DD,F7,63,0D,FF,
122232680,02C00020,true,Rx,0,8,00,00,00,00,00,00,00,00,
122233496,0100082C,true,Rx,0,8,00,C0,80,62,66,00,00,D7,
122233770,0110483C,true,Rx,0,8,08,E9,6A,00,44,66,FC,54,
122237652,0340412E,true,Rx,0,8,76,80,00,9D,80,00,00,00,
122242469,19000026,true,Rx,0,8,00,FF,01,40,38,11,84,00,
122243384,0100082C,true,Rx,0,8,00,C0,80,62,76,00,00,D7,
122243663,0110483C,true,Rx,0,8,08,E9,6A,00,44,66,FC,55,
122245529,01C04026,true,Rx,0,8,80,00,80,00,80,00,80,00,
122245798,02000026,true,Rx,0,8,7F,34,00,DC,49,00,E0,AC,
122246090,02104136,true,Rx,0,8,BB,00,3F,FF,07,E0,00,00,
122246370,02804026,true,Rx,0,8,37,FF,77,E1,F7,63,0D,FF,
122246662,02C00020,true,Rx,0,8,00,00,00,00,00,00,00,00,
122246953,19A00002,true,Rx,0,8,6E,00,00,00,00,00,00,F7,
122247583,0340412E,true,Rx,0,8,77,80,00,8D,80,00,00,00,
122253290,0100082C,true,Rx,0,8,00,C0,80,62,66,00,00,D7,
122253565,0110483C,true,Rx,0,8,08,E9,EA,00,44,66,FC,55,
122257586,0340412E,true,Rx,0,8,78,80,00,7D,80,00,00,00,
122257872,19000026,true,Rx,0,8,00,FF,01,40,38,11,84,00,
122259564,01C04026,true,Rx,0,8,80,00,80,00,80,00,80,00,
122259842,02000026,true,Rx,0,8,7F,34,00,DC,49,00,E0,AC,
122260123,02104136,true,Rx,0,8,BB,00,3F,FF,07,E0,00,00,
122260403,02804026,true,Rx,0,8,37,FF,77,E4,F7,63,0D,FF,
122260703,02C00020,true,Rx,0,8,00,00,00,00,00,00,00,00,
122262614,1B200002,true,Rx,0,8,00,00,00,00,00,00,0F,71,
122263512,0100082C,true,Rx,0,8,00,C0,80,62,66,00,00,D7,
122263789,0110483C,true,Rx,0,8,08,E9,6A,00,44,66,FC,55,
122267590,0340412E,true,Rx,0,8,79,80,00,6D,80,00,00,00,
122272470,19000026,true,Rx,0,8,00,FF,01,40,38,11,8C,00,
122273292,0100082C,true,Rx,0,8,00,C0,80,62,66,00,00,D7,
122273561,0110483C,true,Rx,0,8,08,E9,6A,00,44,66,FC,55,
122273862,01C04026,true,Rx,0,8,80,00,80,00,80,00,80,00,
122274132,02000026,true,Rx,0,8,7F,34,00,DC,49,00,E0,AC,
122274422,02104136,true,Rx,0,8,BB,00,3F,FF,07,E0,00,00,
122274697,02804026,true,Rx,0,8,37,FF,77,E6,F7,63,0D,FF,
122274987,02C00020,true,Rx,0,8,00,00,00,00,00,00,00,00,
122275277,19A00002,true,Rx,0,8,12,00,00,00,00,00,00,F7,
122277648,0340412E,true,Rx,0,8,7A,80,00,5D,80,00,00,00,
122283310,0100082C,true,Rx,0,8,00,C0,80,62,66,00,00,D7,
122283586,0110483C,true,Rx,0,8,08,E9,6A,00,44,66,FC,54,
122287533,01C04026,true,Rx,0,8,80,00,80,00,80,00,80,00,
122287809,02000026,true,Rx,0,8,7F,34,00,DC,49,00,E0,AC,
122288100,02104136,true,Rx,0,8,BB,00,3F,FF,07,E0,00,00,
122288379,02804026,true,Rx,0,8,37,FF,77,E7,F7,63,0D,FF,
122288670,02C00020,true,Rx,0,8,00,00,00,00,00,00,00,00,
122288950,0340412E,true,Rx,0,8,7B,80,00,4D,80,00,00,00,
122289231,19000026,true,Rx,0,8,00,FF,01,40,38,11,84,00,
122293495,0100082C,true,Rx,0,8,00,C0,80,62,66,00,00,D7,
122293770,0110483C,true,Rx,0,8,08,E9,6A,00,44,66,FC,54,
122297591,0340412E,true,Rx,0,8,7C,80,00,3D,80,00,00,00,
122301537,01C04026,true,Rx,0,8,80,00,80,00,80,00,80,00,
122301823,02000026,true,Rx,0,8,7F,34,00,DC,49,00,E0,AC,
122302103,02104136,true,Rx,0,8,BB,00,3F,FF,07,E0,00,00,
122302384,02804026,true,Rx,0,8,37,FF,77,E8,F7,63,0D,FF,
122302674,02C00020,true,Rx,0,8,00,00,00,00,00,00,00,00,
122302964,19000026,true,Rx,0,8,00,FF,01,40,38,11,8C,00,
122303255,19A00002,true,Rx,0,8,02,00,00,00,00,00,00,F7,
122303535,0100082C,true,Rx,0,8,00,C0,80,62,66,00,00,D7,
122303814,0110483C,true,Rx,0,8,08,E9,EA,00,44,66,FC,54,
122304104,1A200020,true,Rx,0,8,0E,00,02,31,00,00,02,31,
122304384,1AE0092C,true,Rx,0,8,80,00,22,E0,41,A0,00,00,
122304674,1B700030,true,Rx,0,8,25,91,22,00,00,00,03,00,
122307657,0340412E,true,Rx,0,8,7D,80,00,2D,80,00,00,00,
122313322,0100082C,true,Rx,0,8,00,C0,80,62,66,00,00,D7,
122313597,0110483C,true,Rx,0,8,08,E9,6A,00,44,66,FC,55,
122315554,01C04026,true,Rx,0,8,80,00,80,00,80,00,80,00,
122315833,02000026,true,Rx,0,8,7F,34,00,DC,49,00,E0,AC,
122316125,02104136,true,Rx,0,8,BB,00,3F,FF,07,E0,00,00,
122316394,02804026,true,Rx,0,8,37,FF,77,EA,F7,63,0D,FF,
122316694,02C00020,true,Rx,0,8,00,00,00,00,00,00,00,00,
122317586,0340412E,true,Rx,0,8,7E,80,00,1D,80,00,00,00,
122317867,19000026,true,Rx,0,8,00,FF,01,40,38,11,84,00,
122323371,0100082C,true,Rx,0,8,00,C0,80,62,66,00,00,D7,
122323646,0110483C,true,Rx,0,8,08,E9,6A,00,44,66,FC,55,
122327591,0340412E,true,Rx,0,8,7F,80,00,0D,80,00,00,00,
122329568,01C04026,true,Rx,0,8,80,00,80,00,80,00,80,00,
122329853,02000026,true,Rx,0,8,7F,34,00,DC,49,00,E0,AC,
122330135,02104136,true,Rx,0,8,BB,00,3F,FF,07,E0,00,00,
122330414,02804026,true,Rx,0,8,37,FF,77,E9,F7,63,0D,FF,
122330705,02C00020,true,Rx,0,8,00,00,00,00,00,00,00,00,
122330996,19A00002,true,Rx,0,8,12,00,00,00,00,00,00,F7,
122332476,19000026,true,Rx,0,8,00,FF,01,40,38,11,8C,00,
122333517,0100082C,true,Rx,0,8,00,C0,80,62,76,00,00,D7,
122333796,0110483C,true,Rx,0,8,08,E9,6A,00,44,66,FC,55,
122337586,0340412E,true,Rx,0,8,70,80,00,FD,80,00,00,00,
122343334,0100082C,true,Rx,0,8,00,C0,80,62,66,00,00,D7,
122343620,0110483C,true,Rx,0,8,08,E9,6A,00,44,66,FC,55,
122343912,01C04026,true,Rx,0,8,80,00,80,00,80,00,80,00,
122344181,02000026,true,Rx,0,8,7F,34,00,DC,49,00,E0,AC,
122344470,02104136,true,Rx,0,8,BB,00,3F,FF,07,E0,00,00,
122344751,02804026,true,Rx,0,8,37,FF,77,E9,F7,63,0D,FF,
122345042,02C00020,true,Rx,0,8,00,00,00,00,00,00,00,00,
122347638,1B200002,true,Rx,0,8,00,00,00,00,00,00,0F,71,
122347925,0340412E,true,Rx,0,8,71,80,00,ED,80,00,00,00,
122348204,19000026,true,Rx,0,8,00,FF,01,40,38,11,84,00,
122353397,0100082C,true,Rx,0,8,00,C0,80,62,66,00,00,D7,
122353673,0110483C,true,Rx,0,8,08,E9,EA,00,44,66,FC,55,
122357548,01C04026,true,Rx,0,8,80,00,80,00,80,00,80,00,
122357834,02000026,true,Rx,0,8,7F,34,00,DC,49,00,E0,AC,
122358115,02104136,true,Rx,0,8,BB,00,3F,FF,07,E0,00,00,
122358396,02804026,true,Rx,0,8,37,FF,77,E9,F7,63,0D,FF,
122358685,02C00020,true,Rx,0,8,00,00,00,00,00,00,00,00,
122358976,0340412E,true,Rx,0,8,72,80,00,DD,80,00,00,00,
122359257,19A00002,true,Rx,0,8,6E,00,00,00,00,00,00,F7,
122362475,19000026,true,Rx,0,8,00,FF,01,40,38,11,8C,00,
122363544,0100082C,true,Rx,0,8,00,C0,80,62,66,00,00,D7,
122363824,0110483C,true,Rx,0,8,08,E9,6A,00,44,66,FC,54,
122367593,0340412E,true,Rx,0,8,73,80,00,CD,80,00,00,00,
122371558,01C04026,true,Rx,0,8,80,00,80,00,80,00,80,00,
122371833,02000026,true,Rx,0,8,7F,34,00,DC,49,00,E0,AC,
122372115,02104136,true,Rx,0,8,BB,00,3F,FF,07,E0,00,00,
122372395,02804026,true,Rx,0,8,37,FF,77,E8,F7,63,0D,FF,
122372685,02C00020,true,Rx,0,8,00,00,00,00,00,00,00,00,
122373409,0100082C,true,Rx,0,8,00,C0,80,62,66,00,00,D7,
122373694,0110483C,true,Rx,0,8,08,E9,6A,00,44,66,FC,54,
122377659,0340412E,true,Rx,0,8,74,80,00,BD,80,00,00,00,
122377935,19000026,true,Rx,0,8,00,FF,01,40,38,11,84,00,
122383465,0100082C,true,Rx,0,8,00,C0,80,62,66,00,00,D7,
122383741,0110483C,true,Rx,0,8,08,E9,6A,00,44,66,FC,55,
122385533,01C04026,true,Rx,0,8,80,00,80,00,80,00,80,00,
122385813,02000026,true,Rx,0,8,7F,34,00,DC,49,00,E0,AC,
122386095,02104136,true,Rx,0,8,BB,00,3F,FF,07,E0,00,00,
122386374,02804026,true,Rx,0,8,37,FF,77,E8,F7,63,0D,FF,
122386663,02C00020,true,Rx,0,8,00,00,00,00,00,00,00,00,
122386956,19A00002,true,Rx,0,8,12,00,00,00,00,00,00,F7,
122387592,0340412E,true,Rx,0,8,75,80,00,AD,80,00,00,00,
122388481,1BA0493C,true,Rx,0,8,09,00,00,01,01,01,01,01,
122388771,1BE0493C,true,Rx,0,8,01,00,2A,96,CC,05,02,04,
122392489,19000026,true,Rx,0,8,00,FF,01,40,38,11,84,00,
122393363,0100082C,true,Rx,0,8,00,C0,80,62,66,00,00,D7,
122393642,0110483C,true,Rx,0,8,08,E9,6A,00,44,66,FC,55,
122397595,0340412E,true,Rx,0,8,76,80,00,9D,80,00,00,00,
122399550,01C04026,true,Rx,0,8,80,00,80,00,80,00,80,00,
122399827,02000026,true,Rx,0,8,7F,34,00,DC,49,00,E0,AC,
122400117,02104136,true,Rx,0,8,BB,00,3F,FF,07,E0,00,00,
122400397,02804026,true,Rx,0,8,37,FF,77,E8,F7,63,0D,FF,
122400687,02C00020,true,Rx,0,8,00,00,00,00,00,00,00,00,
122403473,0100082C,true,Rx,0,8,00,C0,80,62,66,00,00,D7,
122403750,0110483C,true,Rx,0,8,08,E9,EA,00,44,66,FC,55,
122407591,0340412E,true,Rx,0,8,77,80,00,8D,80,00,00,00,
122407877,19000026,true,Rx,0,8,00,FF,01,40,38,11,8C,00,
122413376,0100082C,true,Rx,0,8,00,C0,80,62,66,00,00,D7,
122413653,0110483C,true,Rx,0,8,08,E9,6A,00,44,66,FC,55,
122413944,01C04026,true,Rx,0,8,80,00,80,00,80,00,80,00,
122414223,02000026,true,Rx,0,8,7F,34,00,DC,49,00,E0,AC,
122414514,02104136,true,Rx,0,8,BB,00,3F,FF,07,E0,00,00,
122414783,02804026,true,Rx,0,8,37,FF,77,E8,F7,63,0D,FF,
122415084,02C00020,true,Rx,0,8,00,00,00,00,00,00,00,00,
122415364,19A00002,true,Rx,0,8,02,00,00,00,00,00,00,F7,
122417663,0340412E,true,Rx,0,8,78,80,00,7D,80,00,00,00,
122422468,19000026,true,Rx,0,8,00,FF,01,40,38,11,84,00,
122423383,0100082C,true,Rx,0,8,00,C0,80,62,66,00,00,D7,
122423653,0110483C,true,Rx,0,8,08,E9,6A,00,44,66,FC,55,
122427534,01C04026,true,Rx,0,8,80,00,80,00,80,00,80,00,
122427809,02000026,true,Rx,0,8,7F,34,00,DC,49,00,E0,AC,
122428100,02104136,true,Rx,0,8,BB,00,3F,FF,07,E0,00,00,
122428370,02804026,true,Rx,0,8,37,FF,77,E8,F7,63,0D,FF,
122428670,02C00020,true,Rx,0,8,00,00,00,00,00,00,00,00,
122428950,0340412E,true,Rx,0,8,79,80,00,6D,80,00,00,00,
122432620,1B200002,true,Rx,0,8,00,00,00,00,00,00,0F,71,
122433483,0100082C,true,Rx,0,8,00,C0,80,62,66,00,00,D7,
122433754,0110483C,true,Rx,0,8,08,E9,6A,00,44,66,FC,54,
122437592,0340412E,true,Rx,0,8,7A,80,00,5D,80,00,00,00,
122437878,19000026,true,Rx,0,8,00,FF,01,40,38,11,8C,00,
122441534,01C04026,true,Rx,0,8,80,00,80,00,80,00,80,00,
122441810,02000026,true,Rx,0,8,7F,34,00,DC,48,00,E0,AC,
122442102,02104136,true,Rx,0,8,BB,00,3F,FF,07,E0,00,00,
122442371,02804026,true,Rx,0,8,37,FF,77,E8,F7,63,0D,FF,
122442671,02C00020,true,Rx,0,8,00,00,00,00,00,00,00,00,
122442963,19A00002,true,Rx,0,8,12,00,00,00,00,00,00,F7,
122443561,0100082C,true,Rx,0,8,00,C0,80,62,66,00,00,D7,
122443838,0110483C,true,Rx,0,8,08,E9,6A,00,44,66,FC,54,
122447648,0340412E,true,Rx,0,8,7B,80,00,4D,80,00,00,00,
122452475,19000026,true,Rx,0,8,00,FF,01,40,38,11,84,00,
122453328,0100082C,true,Rx,0,8,00,C0,80,62,66,00,00,D7,
122453609,0110483C,true,Rx,0,8,08,E9,EA,00,44,66,FC,55,
122455535,01C04026,true,Rx,0,8,80,00,80,00,80,00,80,00,
122455824,02000026,true,Rx,0,8,7F,34,00,DC,48,00,E0,AC,
122456106,02104136,true,Rx,0,8,BB,00,3F,FF,07,E0,00,00,
122456385,02804026,true,Rx,0,8,37,FF,77,E8,F7,63,0D,FF,
122456678,02C00020,true,Rx,0,8,00,00,00,00,00,00,00,00,
122457587,0340412E,true,Rx,0,8,7C,80,00,3D,80,00,00,00,
122463344,0100082C,true,Rx,0,8,00,C0,80,62,66,00,00,D7,
122463620,0110483C,true,Rx,0,8,08,E9,6A,00,44,66,FC,55,
122467596,0340412E,true,Rx,0,8,7D,80,00,2D,80,00,00,00,
122467881,19000026,true,Rx,0,8,00,FF,01,40,38,11,84,00,
122469543,01C04026,true,Rx,0,8,80,00,80,00,80,00,80,00,
122469821,02000026,true,Rx,0,8,7F,34,00,DC,48,00,E0,AC,
122470102,02104136,true,Rx,0,8,BB,00,3F,FF,07,E0,00,00,
122470381,02804026,true,Rx,0,8,37,FF,77,E8,F7,63,0D,FF,
122470672,02C00020,true,Rx,0,8,00,00,00,00,00,00,00,00,
122470963,19A00002,true,Rx,0,8,6E,00,00,00,00,00,00,F7,
122473556,0100082C,true,Rx,0,8,00,C0,80,62,76,00,00,D7,
122473831,0110483C,true,Rx,0,8,08,E9,6A,00,44,66,FC,55,
122477590,0340412E,true,Rx,0,8,7E,80,00,1D,80,00,00,00,
122482477,19000026,true,Rx,0,8,00,FF,01,40,38,11,8C,00,
122483372,0100082C,true,Rx,0,8,00,C0,80,62,66,00,00,D7,
122483652,0110483C,true,Rx,0,8,08,E9,6A,00,44,66,FC,55,
122483943,01C04026,true,Rx,0,8,80,00,80,00,80,00,80,00,
122484222,02000026,true,Rx,0,8,7F,34,00,DC,48,00,E0,AC,
122484503,02104136,true,Rx,0,8,BB,00,3F,FF,07,E0,00,00,
122484776,02804026,true,Rx,0,8,37,FF,77,E8,F7,63,0D,FF,
122485079,02C00020,true,Rx,0,8,00,00,00,00,00,00,00,00,
122487664,0340412E,true,Rx,0,8,7F,80,00,0D,80,00,00,00,
122493356,0100082C,true,Rx,0,8,00,C0,80,62,66,00,00,D7,
122493632,0110483C,true,Rx,0,8,08,E9,6A,00,44,66,FC,55,
122497525,01C04026,true,Rx,0,8,80,00,80,00,80,00,80,00,
122497801,02000026,true,Rx,0,8,7F,34,00,DC,48,00,E0,AC,
122498091,02104136,true,Rx,0,8,BB,00,3F,FF,07,E0,00,00,
122498362,02804026,true,Rx,0,8,37,FF,77,E8,F7,63,0D,FF,
122498662,02C00020,true,Rx,0,8,00,00,00,00,00,00,00,00,
122498943,0340412E,true,Rx,0,8,70,80,00,FD,80,00,00,00,
122499233,19000026,true,Rx,0,8,00,FF,01,40,38,11,84,00,
122499523,19A00002,true,Rx,0,8,12,00,00,00,00,00,00,F7,
122503605,0100082C,true,Rx,0,8,00,C0,80,62,66,00,00,D7,
122503880,0110483C,true,Rx,0,8,08,E9,EA,00,44,66,FC,54,
122507600,0340412E,true,Rx,0,8,71,80,00,ED,80,00,00,00,
122511524,01C04026,true,Rx,0,8,80,00,80,00,80,00,80,00,
122511799,02000026,true,Rx,0,8,7F,34,00,DC,48,00,E0,AC,
122512091,02104136,true,Rx,0,8,BB,00,3F,FF,07,E0,00,00,
122512360,02804026,true,Rx,0,8,37,FF,77,E8,F7,63,0D,FF,
122512660,02C00020,true,Rx,0,8,00,00,00,00,00,00,00,00,
122512942,19000026,true,Rx,0,8,00,FF,01,40,38,11,8C,00,
122513531,0100082C,true,Rx,0,8,00,C0,80,62,66,00,00,D7,
122513807,0110483C,true,Rx,0,8,08,E9,6A,00,44,66,FC,54,
122514097,1B700030,true,Rx,0,8,35,91,22,00,00,00,03,00,
122517601,1B200002,true,Rx,0,8,00,00,00,00,00,00,0F,71,
122517886,0340412E,true,Rx,0,8,72,80,00,DD,80,00,00,00,
122523325,0100082C,true,Rx,0,8,00,C0,80,62,66,00,00,D7,
122523601,0110483C,true,Rx,0,8,08,E9,6A,00,44,66,FC,54,
122525525,01C04026,true,Rx,0,8,80,00,80,00,80,00,80,00,
122525806,02000026,true,Rx,0,8,7F,34,00,DC,48,00,E0,AC,
122526086,02104136,true,Rx,0,8,BB,00,3F,FF,07,E0,00,00,
122526366,02804026,true,Rx,0,8,B7,FF,77,E9,F7,63,3D,FF,
122526657,02C00020,true,Rx,0,8,00,00,00,00,00,00,00,00,
122526947,19A00002,true,Rx,0,8,02,00,00,00,00,00,00,F7,
122527594,0340412E,true,Rx,0,8,73,80,00,CD,80,00,00,00,
122527873,19000026,true,Rx,0,8,00,FF,01,40,38,11,84,00,
122533378,0100082C,true,Rx,0,8,00,C0,80,62,66,00,00,D7,
122533654,0110483C,true,Rx,0,8,08,E9,6A,00,44,66,FC,55,
122537588,0340412E,true,Rx,0,8,74,80,00,BD,80,00,00,00,
122539596,01C04026,true,Rx,0,8,80,00,80,00,80,00,80,00,
122539882,02000026,true,Rx,0,8,7F,34,00,DC,48,00,E0,AC,
122540162,02104136,true,Rx,0,8,BB,00,3F,FF,07,E0,00,00,
122540443,02804026,true,Rx,0,8,B7,FF,77,E9,F7,63,3D,FF,
122540732,02C00020,true,Rx,0,8,00,00,00,00,00,00,00,00,
122542478,19000026,true,Rx,0,8,00,FF,01,40,38,11,8C,00,
122543532,0100082C,true,Rx,0,8,00,C0,80,62,66,00,00,D7,
122543809,0110483C,true,Rx,0,8,08,E9,6A,00,44,66,FC,55,
122547589,0340412E,true,Rx,0,8,75,80,00,AD,80,00,00,00,
122553305,0100082C,true,Rx,0,8,00,C0,80,62,66,00,00,D7,
122553592,0110483C,true,Rx,0,8,08,E9,EA,00,44,66,FC,55,
122553881,01C04026,true,Rx,0,8,80,00,80,00,80,00,80,00,
122554163,02000026,true,Rx,0,8,7F,34,00,DC,48,00,E0,AC,
122554442,02104136,true,Rx,0,8,BB,00,3F,FF,07,E0,00,00,
122554721,02804026,true,Rx,0,8,B7,FF,77,E9,F7,63,3D,FF,
122555013,02C00020,true,Rx,0,8,00,00,00,00,00,00,00,00,
122555303,19A00002,true,Rx,0,8,12,00,00,00,00,00,00,F7,
122557664,0340412E,true,Rx,0,8,76,80,00,9D,80,00,00,00,
122557951,19000026,true,Rx,0,8,00,FF,01,40,38,11,84,00,
122563399,0100082C,true,Rx,0,8,00,C0,80,62,76,01,00,D7,
122563685,0110483C,true,Rx,0,8,08,E9,6A,00,44,66,FC,55,
122567609,01C04026,true,Rx,0,8,80,00,80,00,80,00,80,00,
122567884,02000026,true,Rx,0,8,7F,34,00,DC,48,00,E0,AC,
122568176,02104136,true,Rx,0,8,BB,00,3F,FF,07,E0,00,00,
122568445,02804026,true,Rx,0,8,B7,FF,77,E9,F7,63,3D,FF,
122568745,02C00020,true,Rx,0,8,00,00,00,00,00,00,00,00,
122569027,0340412E,true,Rx,0,8,77,80,00,8D,80,00,00,00,
122572478,19000026,true,Rx,0,8,00,FF,01,40,38,11,8C,00,
122573446,0100082C,true,Rx,0,8,00,C0,80,62,66,01,00,D7,
122573725,0110483C,true,Rx,0,8,08,E9,6A,00,44,66,FC,54,
122577595,0340412E,true,Rx,0,8,78,80,00,7D,80,00,00,00,
122581602,01C04026,true,Rx,0,8,80,00,80,00,80,00,80,00,
122581878,02000026,true,Rx,0,8,7F,34,00,DC,48,00,E0,AC,
122582159,02104136,true,Rx,0,8,BB,00,3F,FF,07,E0,00,00,
122582438,02804026,true,Rx,0,8,B7,FF,77,EA,F7,63,3D,FF,
122582739,02C00020,true,Rx,0,8,00,00,00,00,00,00,00,00,
122583020,19A00002,true,Rx,0,8,6E,00,00,00,00,00,00,F7,
122583485,0100082C,true,Rx,0,8,00,C0,80,62,66,01,00,D7,
122583761,0110483C,true,Rx,0,8,08,E9,6A,00,44,66,FC,54,
122587592,0340412E,true,Rx,0,8,79,80,00,6D,80,00,00,00,
122587877,19000026,true,Rx,0,8,00,FF,01,40,38,11,84,00,
122593378,0100082C,true,Rx,0,8,00,C0,80,62,66,01,00,D7,
122593653,0110483C,true,Rx,0,8,08,E9,6A,00,44,66,FC,54,
122595598,01C04026,true,Rx,0,8,80,00,80,00,80,00,80,00,
122595879,02000026,true,Rx,0,8,7F,34,00,DC,48,00,E0,AC,
122596169,02104136,true,Rx,0,8,BB,00,3F,FF,07,E0,00,00,
122596450,02804026,true,Rx,0,8,B7,FF,77,EA,F7,63,3D,FF,
122596740,02C00020,true,Rx,0,8,00,00,00,00,00,00,00,00,
122597591,0340412E,true,Rx,0,8,7A,80,00,5D,80,00,00,00,
122602489,19000026,true,Rx,0,8,00,FF,01,40,38,11,84,00,
122602775,1B200002,true,Rx,0,8,00,00,00,00,00,00,0F,71,
122603406,0100082C,true,Rx,0,8,00,C0,80,62,66,00,00,D7,
122603686,0110483C,true,Rx,0,8,08,E9,EA,00,44,66,FC,55,
122607600,0340412E,true,Rx,0,8,7B,80,00,4D,80,00,00,00,
122609618,01C04026,true,Rx,0,8,80,00,80,00,80,00,80,00,
122609905,02000026,true,Rx,0,8,7F,34,00,DC,48,00,E0,AC,
122610184,02104136,true,Rx,0,8,BB,00,3F,FF,07,E0,00,00,
122610464,02804026,true,Rx,0,8,B7,FF,77,E9,F7,63,3D,FF,
122610754,02C00020,true,Rx,0,8,00,00,00,00,00,00,00,00,
122611046,19A00002,true,Rx,0,8,12,00,00,00,00,00,00,F7,
122613453,0100082C,true,Rx,0,8,00,C0,80,62,66,00,00,D7,
122613728,0110483C,true,Rx,0,8,08,E9,6A,00,44,66,FC,55,
122617590,0340412E,true,Rx,0,8,7C,80,00,3D,80,00,00,00,
122617875,19000026,true,Rx,0,8,00,FF,01,40,38,11,8C,00,
122618311,1A200020,true,Rx,0,8,4E,00,02,31,00,00,02,31,
122623402,0100082C,true,Rx,0,8,00,C0,80,62,66,00,00,D7,
122623677,0110483C,true,Rx,0,8,08,E9,6A,00,44,66,FC,55,
122623968,01C04026,true,Rx,0,8,80,00,80,00,80,00,80,00,
122624248,02000026,true,Rx,0,8,7F,34,00,DC,48,00,E0,AC,
122624538,02104136,true,Rx,0,8,BB,00,3F,FF,07,E0,00,00,
122624807,02804026,true,Rx,0,8,B7,FF,77,EA,F7,63,3D,FF,
122625109,02C00020,true,Rx,0,8,00,00,00,00,00,00,00,00,
122627663,0340412E,true,Rx,0,8,7D,80,00,2D,80,00,00,00,
122632479,19000026,true,Rx,0,8,00,FF,01,40,38,11,84,00,
122633323,0100082C,true,Rx,0,8,00,C0,80,62,66,00,00,D7,
122633592,0110483C,true,Rx,0,8,08,E9,6A,00,44,66,FC,55,
122637606,01C04026,true,Rx,0,8,80,00,80,00,80,00,80,00,
122637883,02000026,true,Rx,0,8,7F,34,00,DC,48,00,E0,AC,
122638173,02104136,true,Rx,0,8,BB,00,3F,FF,07,E0,00,00,
122638453,02804026,true,Rx,0,8,B7,FF,77,EA,F7,63,3D,FF,
122638743,02C00020,true,Rx,0,8,00,00,00,00,00,00,00,00,
122639024,0340412E,true,Rx,0,8,7E,80,00,1D,80,00,00,00,
122639314,19A00002,true,Rx,0,8,02,00,00,00,00,00,00,F7,
122639594,1BA0493C,true,Rx,0,8,0A,01,01,01,01,02,06,01,
122639894,1BE0493C,true,Rx,0,8,05,00,00,00,00,00,07,8F,
122643528,0100082C,true,Rx,0,8,00,C0,80,62,66,00,00,D7,
122643803,0110483C,true,Rx,0,8,08,E9,6A,00,44,66,FC,55,
122647605,0340412E,true,Rx,0,8,7F,80,00,0D,80,00,00,00,
122647893,19000026,true,Rx,0,8,00,FF,01,40,38,11,8C,00,
122651589,01C04026,true,Rx,0,8,80,00,80,00,80,00,80,00,
122651865,02000026,true,Rx,0,8,7F,34,00,DC,48,00,E0,AC,
122652146,02104136,true,Rx,0,8,BB,00,3F,FF,07,E0,00,00,
122652425,02804026,true,Rx,0,8,B7,FF,77,EA,F7,63,3D,FF,
122652726,02C00020,true,Rx,0,8,00,00,00,00,00,00,00,00,
122653532,0100082C,true,Rx,0,8,00,C0,80,62,76,01,00,D7,
122653806,0110483C,true,Rx,0,8,08,E9,EA,00,44,66,FC,54,
122657668,0340412E,true,Rx,0,8,70,80,00,FD,80,00,00,00,
122662484,19000026,true,Rx,0,8,00,FF,01,40,38,11,84,00,
122663379,0100082C,true,Rx,0,8,00,C0,80,62,66,01,00,D7,
122663658,0110483C,true,Rx,0,8,08,E9,6A,00,44,66,FC,54,
122665585,01C04026,true,Rx,0,8,80,00,80,00,80,00,80,00,
122665865,02000026,true,Rx,0,8,7F,34,00,DC,48,00,E0,AC,
122666156,02104136,true,Rx,0,8,BB,00,3F,FF,07,E0,00,00,
122666426,02804026,true,Rx,0,8,B7,FF,77,E9,F7,63,3D,FF,
122666718,02C00020,true,Rx,0,8,00,00,00,00,00,00,00,00,
122667009,19A00002,true,Rx,0,8,12,00,00,00,00,00,00,F7,
122667597,0340412E,true,Rx,0,8,71,80,00,ED,80,00,00,00,
122673305,0100082C,true,Rx,0,8,00,C0,80,62,66,01,00,D7,
122673581,0110483C,true,Rx,0,8,08,E9,6A,00,44,66,FC,54,
122677598,0340412E,true,Rx,0,8,72,80,00,DD,80,00,00,00,
122677885,19000026,true,Rx,0,8,00,FF,01,40,38,11,84,00,
122679628,01C04026,true,Rx,0,8,80,00,80,00,80,00,80,00,
122679907,02000026,true,Rx,0,8,7F,34,00,DC,48,00,E0,AC,
122680187,02104136,true,Rx,0,8,BB,00,3F,FF,07,E0,00,00,
122680467,02804026,true,Rx,0,8,B7,FF,77,E9,F7,63,3D,FF,
122680756,02C00020,true,Rx,0,8,00,00,00,00,00,00,00,00,
122683523,0100082C,true,Rx,0,8,00,C0,80,62,66,01,00,D7,
122683808,0110483C,true,Rx,0,8,08,E9,6A,00,44,66,FC,55,
122687599,1B200002,true,Rx,0,8,00,00,00,00,00,00,0F,71,
122687886,0340412E,true,Rx,0,8,73,80,00,CD,80,00,00,00,
122692485,19000026,true,Rx,0,8,00,FF,01,40,38,11,8C,00,
122693359,0100082C,true,Rx,0,8,00,C0,80,62,66,01,00,D7,
122693638,0110483C,true,Rx,0,8,08,E9,6A,00,44,66,FC,55,
122693929,01C04026,true,Rx,0,8,80,00,80,00,80,00,80,00,
122694209,02000026,true,Rx,0,8,7F,34,00,DC,48,00,E0,AC,
122694499,02104136,true,Rx,0,8,BB,00,3F,FF,07,E0,00,00,
122694774,02804026,true,Rx,0,8,B7,FF,77,E9,F7,63,3D,FF,
122695065,02C00020,true,Rx,0,8,00,00,00,00,00,00,00,00,
122695354,19A00002,true,Rx,0,8,6E,00,00,00,00,00,00,F7,
122697674,0340412E,true,Rx,0,8,74,80,00,BD,80,00,00,00,
122703356,0100082C,true,Rx,0,8,00,C0,80,62,66,01,00,D7,
122703632,0110483C,true,Rx,0,8,08,E9,EA,00,44,66,FC,55,
122707608,0340412E,true,Rx,0,8,75,80,00,AD,80,00,00,00,
122707896,19000026,true,Rx,0,8,00,FF,01,40,38,11,84,00,
122708185,01C04026,true,Rx,0,8,80,00,80,00,80,00,80,00,
122708465,02000026,true,Rx,0,8,7F,34,00,DC,48,00,E0,EC,
122708745,02104136,true,Rx,0,8,BB,00,3F,FF,06,E0,00,00,
122709026,02804026,true,Rx,0,8,B7,FF,77,EA,F7,63,3D,FF,
122709317,02C00020,true,Rx,0,8,00,00,00,00,00,00,00,00,
122713487,0100082C,true,Rx,0,8,00,C0,80,62,66,01,00,D7,
122713773,0110483C,true,Rx,0,8,08,E9,6A,00,44,66,FC,55,
122717605,0340412E,true,Rx,0,8,76,80,00,9D,80,00,00,00,
122722246,01C04026,true,Rx,0,8,80,00,80,00,80,00,80,00,
122722533,02000026,true,Rx,0,8,7F,34,00,FC,48,00,E0,EF,
122722812,02104136,true,Rx,0,8,BB,00,3F,FF,06,E0,00,00,
122723093,02804026,true,Rx,0,8,B7,FF,77,EB,F7,63,3D,FF,
122723383,02C00020,true,Rx,0,8,00,00,00,00,00,00,00,00,
122723673,0100082C,true,Rx,0,8,00,C0,80,62,66,01,00,D7,
122723955,0110483C,true,Rx,0,8,08,E9,6A,00,44,66,FC,54,
122724234,19000026,true,Rx,0,8,00,FF,01,40,38,11,8C,00,
122724532,19A00002,true,Rx,0,8,12,00,00,00,00,00,00,F7,
122724813,1AE0092C,true,Rx,0,8,C0,00,22,E0,41,A0,00,00,
122725093,1B700030,true,Rx,0,8,25,91,22,00,00,00,03,00,
122727671,0340412E,true,Rx,0,8,77,80,00,8D,80,00,00,00,
122733304,0100082C,true,Rx,0,8,00,C0,80,62,66,01,00,D7,
122733579,0110483C,true,Rx,0,8,08,E9,6A,00,44,66,FC,54,
122736226,01C04026,true,Rx,0,8,80,00,80,00,80,00,80,00,
122736505,02000026,true,Rx,0,8,7F,34,00,FC,48,00,E0,EF,
122736795,02104136,true,Rx,0,8,BB,00,3F,FF,06,E0,00,00,
122737066,02804026,true,Rx,0,8,B7,FF,77,EC,F7,63,1D,FF,
122737356,02C00020,true,Rx,0,8,00,00,00,00,00,00,00,00,
122737650,0340412E,true,Rx,0,8,78,80,00,7D,80,00,00,00,
122737932,19000026,true,Rx,0,8,00,FF,01,40,38,11,84,00,
122743497,0100082C,true,Rx,0,8,00,C0,80,62,76,01,00,D7,
122743772,0110483C,true,Rx,0,8,08,E9,6A,00,44,66,FC,55,
122747604,0340412E,true,Rx,0,8,79,80,00,6D,80,00,00,00,
122750254,01C04026,true,Rx,0,8,80,00,80,00,80,00,80,00,
122750529,02000026,true,Rx,0,8,7F,34,00,FC,49,00,E0,EF,
122750810,02104136,true,Rx,0,8,BB,00,3F,FF,06,E0,00,00,
122751091,02804026,true,Rx,0,8,B7,FF,77,EC,F7,63,1D,FF,
122751380,02C00020,true,Rx,0,8,00,00,00,00,00,00,00,00,
122751671,19A00002,true,Rx,0,8,02,00,00,00,00,00,00,F7,
122752481,19000026,true,Rx,0,8,00,FF,01,40,38,11,8C,00,
122753493,0100082C,true,Rx,0,8,00,C0,80,62,66,01,00,D7,
122753772,0110483C,true,Rx,0,8,08,E9,EA,00,44,66,FC,55,
122757595,0340412E,true,Rx,0,8,7A,80,00,5D,80,00,00,00,
122763315,0100082C,true,Rx,0,8,00,C0,80,62,66,01,00,D7,
122763590,0110483C,true,Rx,0,8,08,E9,6A,00,44,66,FC,55,
122764262,01C04026,true,Rx,0,8,80,00,80,00,80,00,80,00,
122764541,02000026,true,Rx,0,8,7F,34,00,FC,49,00,E0,EF,
122764822,02104136,true,Rx,0,8,BB,00,3F,FF,06,E0,00,00,
122765102,02804026,true,Rx,0,8,B7,FF,77,ED,F7,63,1D,FF,
122765398,02C00020,true,Rx,0,8,00,00,00,00,00,00,00,00,
122767672,0340412E,true,Rx,0,8,7B,80,00,4D,80,00,00,00,
122767953,19000026,true,Rx,0,8,00,FF,01,40,38,11,84,00,
122772606,1B200002,true,Rx,0,8,00,00,00,00,00,00,0F,71,
122773387,0100082C,true,Rx,0,8,00,C0,80,62,66,01,00,D7,
122773656,0110483C,true,Rx,0,8,08,E9,6A,00,44,66,FC,55,
122777618,0340412E,true,Rx,0,8,7C,80,00,3D,80,00,00,00,
122778245,01C04026,true,Rx,0,8,80,00,80,00,80,00,80,00,
122778526,02000026,true,Rx,0,8,7F,34,00,FC,49,00,E0,EF,
122778805,02104136,true,Rx,0,8,BB,00,3F,FF,06,E0,00,00,
122779085,02804026,true,Rx,0,8,B7,FF,77,ED,F7,63,1D,FF,
122779376,02C00020,true,Rx,0,8,00,00,00,00,00,00,00,00,
122779682,19A00002,true,Rx,0,8,12,00,00,00,00,00,00,F7,
122782484,19000026,true,Rx,0,8,00,FF,01,40,38,11,8C,00,
122783546,0100082C,true,Rx,0,8,00,C0,80,62,66,01,00,D7,
122783825,0110483C,true,Rx,0,8,08,E9,6A,00,44,66,FC,55,
122787603,0340412E,true,Rx,0,8,7D,80,00,2D,80,00,00,00,
122792254,01C04026,true,Rx,0,8,80,00,80,00,80,00,80,00,
122792529,02000026,true,Rx,0,8,7F,34,00,FC,49,00,E0,EF,
122792819,02104136,true,Rx,0,8,BB,00,3F,FF,06,E0,00,00,
122793091,02804026,true,Rx,0,8,B7,FF,77,ED,F7,63,1D,FF,
122793391,02C00020,true,Rx,0,8,00,00,00,00,00,00,00,00,
122793680,0100082C,true,Rx,0,8,00,C0,80,62,66,01,00,D7,
122793952,0110483C,true,Rx,0,8,08,E9,6A,00,44,66,FC,55,
122797666,0340412E,true,Rx,0,8,7E,80,00,1D,80,00,00,00,
122797953,19000026,true,Rx,0,8,00,FF,01,40,38,11,84,00,
122803433,0100082C,true,Rx,0,8,00,C0,80,62,66,01,00,D7,
122803708,0110483C,true,Rx,0,8,08,E9,EA,00,44,66,FC,54,
122806222,01C04026,true,Rx,0,8,80,00,80,00,80,00,80,00,
122806501,02000026,true,Rx,0,8,7F,34,00,FC,49,00,E0,EF,
122806791,02104136,true,Rx,0,8,BB,00,3F,FF,06,E0,00,00,
122807062,02804026,true,Rx,0,8,B7,FF,77,ED,F7,63,1D,FF,
122807362,02C00020,true,Rx,0,8,00,00,00,00,00,00,00,00,
122807647,0340412E,true,Rx,0,8,7F,80,00,0D,80,00,00,00,
122807927,19A00002,true,Rx,0,8,6E,00,00,00,00,00,00,F7,
122812497,19000026,true,Rx,0,8,00,FF,01,40,38,11,84,00,
122813370,0100082C,true,Rx,0,8,00,C0,80,62,66,01,00,D7,
122813650,0110483C,true,Rx,0,8,08,E9,6A,00,44,66,FC,54,
122817614,0340412E,true,Rx,0,8,70,80,00,FD,80,00,00,00,
122820222,01C04026,true,Rx,0,8,80,00,80,00,80,00,80,00,
122820497,02000026,true,Rx,0,8,7F,34,00,FC,49,00,E0,EF,
122820777,02104136,true,Rx,0,8,BB,00,3F,FF,06,E0,00,00,
122821059,02804026,true,Rx,0,8,B7,FF,77,ED,F7,63,1D,FF,
122821359,02C00020,true,Rx,0,8,00,00,00,00,00,00,00,00,
122823578,0100082C,true,Rx,0,8,00,C0,80,62,66,01,00,D7,
122823859,0110483C,true,Rx,0,8,08,27,6A,00,44,66,FC,55,
122827607,0340412E,true,Rx,0,8,71,80,00,ED,80,00,00,00,
122827894,19000026,true,Rx,0,8,00,FF,01,40,38,11,8C,00,
122833413,0100082C,true,Rx,0,8,00,C0,80,62,76,01,00,D7,
122833688,0110483C,true,Rx,0,8,08,27,62,00,44,66,FC,55,
122834073,01C04026,true,Rx,0,8,80,00,80,00,80,00,80,00,
122834352,02000026,true,Rx,0,8,7F,34,00,FC,49,00,E0,EF,
122834633,02104136,true,Rx,0,8,BB,00,3F,FF,06,E0,00,00,
122834913,02804026,true,Rx,0,8,B7,FF,77,ED,F7,63,1D,FF,
122835203,02C00020,true,Rx,0,8,00,00,00,00,00,00,00,00,
122835500,19A00002,true,Rx,0,8,12,00,00,00,00,00,00,F7,
122837673,0340412E,true,Rx,0,8,72,80,00,DD,80,00,00,00,
122842488,19000026,true,Rx,0,8,00,FF,01,40,38,11,84,00,
122843392,0100082C,true,Rx,0,8,00,C0,80,62,66,01,00,D7,
122843671,0110483C,true,Rx,0,8,08,27,62,00,44,66,FC,55,
122847615,0340412E,true,Rx,0,8,73,80,00,CD,80,00,00,00,
122848086,01C04026,true,Rx,0,8,80,00,80,00,80,00,80,00,
122848367,02000026,true,Rx,0,8,7F,34,00,FC,49,00,E0,EF,
122848656,02104136,true,Rx,0,8,BB,00,3F,FF,06,E0,00,00,
122848937,02804026,true,Rx,0,8,B7,FF,77,ED,F7,63,1D,FF,
122849228,02C00020,true,Rx,0,8,00,00,00,00,00,00,00,00,
122853448,0100082C,true,Rx,0,8,00,C0,80,62,66,01,00,D7,
122853736,0110483C,true,Rx,0,8,08,27,E2,00,44,66,FC,55,
122857598,1B200002,true,Rx,0,8,00,00,00,00,00,00,0F,71,
122857884,0340412E,true,Rx,0,8,74,80,00,BD,80,00,00,00,
122858164,19000026,true,Rx,0,8,00,FF,01,40,38,11,8C,00,
122862093,01C04026,true,Rx,0,8,80,00,80,00,80,00,80,00,
122862370,02000026,true,Rx,0,8,7F,34,00,FC,49,00,E0,EF,
122862659,02104136,true,Rx,0,8,BB,00,3F,FF,06,E0,00,00,
122862931,02804026,true,Rx,0,8,B7,FF,77,ED,F7,63,1D,FF,
122863231,02C00020,true,Rx,0,8,00,00,00,00,00,00,00,00,
122863520,0100082C,true,Rx,0,8,00,C0,80,62,66,01,00,D7,
122863801,0110483C,true,Rx,0,8,08,27,62,00,44,66,FC,54,
122864092,19A00002,true,Rx,0,8,02,00,00,00,00,00,00,F7,
122867676,0340412E,true,Rx,0,8,75,80,00,AD,80,00,00,00,
122872491,19000026,true,Rx,0,8,00,FF,01,40,38,11,84,00,
122873355,0100082C,true,Rx,0,8,00,C0,80,62,66,01,00,D7,
122873634,0110483C,true,Rx,0,8,08,27,62,00,44,66,FC,55,
122876088,01C04026,true,Rx,0,8,80,00,80,00,80,00,80,00,
122876377,02000026,true,Rx,0,8,7F,34,00,FC,49,00,E0,EF,
122876655,02104136,true,Rx,0,8,BB,00,3F,FF,06,E0,00,00,
122876936,02804026,true,Rx,0,8,B7,FF,77,ED,F7,63,1D,FF,
122877226,02C00020,true,Rx,0,8,00,00,00,00,00,00,00,00,
122877609,0340412E,true,Rx,0,8,76,80,00,9D,80,00,00,00,
122883327,0100082C,true,Rx,0,8,00,C0,80,62,66,01,00,D7,
122883602,0110483C,true,Rx,0,8,08,27,62,00,44,66,FC,54,
122887611,0340412E,true,Rx,0,8,77,80,00,8D,80,00,00,00,
122887898,19000026,true,Rx,0,8,00,FF,01,40,38,11,84,00,
122888312,1BA0493C,true,Rx,0,8,0B,01,01,01,02,03,03,01,
122890115,01C04026,true,Rx,0,8,80,00,80,00,80,00,80,00,
122890394,02000026,true,Rx,0,8,7F,34,00,FC,49,00,E0,EF,
122890685,02104136,true,Rx,0,8,BB,00,3F,FF,06,E0,00,00,
122890965,02804026,true,Rx,0,8,B7,FF,77,ED,F7,63,1D,FF,
122891255,02C00020,true,Rx,0,8,00,00,00,00,00,00,00,00,
122891546,19A00002,true,Rx,0,8,12,00,00,00,00,00,00,F7,
122893511,0100082C,true,Rx,0,8,00,C0,80,62,66,01,00,D7,
122893798,0110483C,true,Rx,0,8,08,27,62,00,44,66,FC,54,
122897610,0340412E,true,Rx,0,8,78,80,00,7D,80,00,00,00,
122902497,19000026,true,Rx,0,8,00,FF,01,40,38,11,8C,00,
122903391,0100082C,true,Rx,0,8,00,C0,80,62,66,01,00,D7,
122903672,0110483C,true,Rx,0,8,08,27,E2,00,44,66,FC,55,
122904117,01C04026,true,Rx,0,8,80,00,80,00,80,00,80,00,
122904397,02000026,true,Rx,0,8,7F,34,00,FC,49,00,E0,EF,
122904679,02104136,true,Rx,0,8,BB,00,3F,FF,06,E0,00,00,
122904959,02804026,true,Rx,0,8,B7,FF,77,ED,F7,63,1D,FF,
122905250,02C00020,true,Rx,0,8,00,00,00,00,00,00,00,00,
122907683,0340412E,true,Rx,0,8,79,80,00,6D,80,00,00,00,
122913324,0100082C,true,Rx,0,8,00,C0,80,62,66,01,00,D7,
122913611,0110483C,true,Rx,0,8,08,27,62,00,44,66,FC,55,
122917618,0340412E,true,Rx,0,8,7A,80,00,5D,80,00,00,00,
122917904,19000026,true,Rx,0,8,00,FF,01,40,38,11,84,00,
122918195,01C04026,true,Rx,0,8,80,00,80,00,80,00,80,00,
122918474,02000026,true,Rx,0,8,7F,34,00,FC,49,00,E0,EF,
122918754,02104136,true,Rx,0,8,BB,00,3F,FF,06,E0,00,00,
122919035,02804026,true,Rx,0,8,B7,FF,77,ED,F7,63,1D,FF,
122919335,02C00020,true,Rx,0,8,00,00,00,00,00,00,00,00,
122919615,19A00002,true,Rx,0,8,6E,00,00,00,00,00,00,F7,
122923604,0100082C,true,Rx,0,8,00,C0,80,62,66,01,00,D7,
122923880,0110483C,true,Rx,0,8,08,27,62,00,44,66,FC,55,
122927608,0340412E,true,Rx,0,8,7B,80,00,4D,80,00,00,00,
122932082,01C04026,true,Rx,0,8,80,00,80,00,80,00,80,00,
122932357,02000026,true,Rx,0,8,7F,34,00,FC,49,00,E0,EF,
122932637,02104136,true,Rx,0,8,BB,00,3F,FF,06,E0,00,00,
122932918,02804026,true,Rx,0,8,B7,FF,77,ED,F7,63,1D,FF,
122933218,02C00020,true,Rx,0,8,00,00,00,00,00,00,00,00,
122933508,0100082C,true,Rx,0,8,00,C0,80,62,66,01,00,D7,
122933788,0110483C,true,Rx,0,8,08,27,62,00,44,66,FC,55,
122934069,19000026,true,Rx,0,8,00,FF,01,40,38,11,8C,00,
122934348,1A200020,true,Rx,0,8,8F,00,A6,31,00,00,02,31,
122934637,1B700030,true,Rx,0,8,35,91,22,00,00,C0,03,00,
122937677,0340412E,true,Rx,0,8,7C,80,00,3D,80,00,00,00,
122942603,1B200002,true,Rx,0,8,00,00,00,00,00,00,0F,71,
122943384,0100082C,true,Rx,0,8,00,C0,80,62,66,01,00,D7,
122943664,0110483C,true,Rx,0,8,08,27,62,00,44,66,FC,55,
122946087,01C04026,true,Rx,0,8,80,00,80,00,80,00,80,00,
122946367,02000026,true,Rx,0,8,7F,34,00,FC,49,00,E0,EF,
122946647,02104136,true,Rx,0,8,BB,00,3F,FF,06,E0,00,00,
122946928,02804026,true,Rx,0,8,B7,FF,77,ED,F7,63,3D,FF,
122947218,02C00020,true,Rx,0,8,00,00,00,00,00,00,00,00,
122947508,19A00002,true,Rx,0,8,12,00,00,00,00,00,00,F7,
122947798,0340412E,true,Rx,0,8,7D,80,00,2D,80,00,00,00,
122948080,19000026,true,Rx,0,8,00,FF,01,40,38,11,84,00,
122953439,0100082C,true,Rx,0,8,00,C0,80,62,66,01,00,D7,
122953715,0110483C,true,Rx,0,8,08,27,E2,00,44,66,FC,55,
122957609,0340412E,true,Rx,0,8,7E,80,00,1D,80,00,00,00,
122960103,01C04026,true,Rx,0,8,80,00,80,00,80,00,80,00,
122960389,02000026,true,Rx,0,8,7F,34,00,FC,49,00,E0,EF,
122960669,02104136,true,Rx,0,8,BB,00,3F,FF,06,E0,00,00,
122960951,02804026,true,Rx,0,8,B7,FF,77,ED,F7,63,3D,FF,
122961241,02C00020,true,Rx,0,8,00,00,00,00,00,00,00,00,
122962491,19000026,true,Rx,0,8,00,FF,01,40,38,11,8C,00,
122963534,0100082C,true,Rx,0,8,00,C0,80,62,76,01,00,D7,
122963824,0110483C,true,Rx,0,8,08,27,62,00,44,66,FC,54,
122967607,0340412E,true,Rx,0,8,7F,80,00,0D,80,00,00,00,
122973283,0100082C,true,Rx,0,8,00,C0,80,62,66,01,00,D7,
122973559,0110483C,true,Rx,0,8,08,27,62,00,44,66,FC,55,
122974086,01C04026,true,Rx,0,8,80,00,80,00,80,00,80,00,
122974367,02000026,true,Rx,0,8,7F,34,00,FC,49,00,E0,EF,
122974656,02104136,true,Rx,0,8,BB,00,3F,FF,06,E0,00,00,
122974927,02804026,true,Rx,0,8,B7,FF,77,ED,F7,63,3D,FF,
122975228,02C00020,true,Rx,0,8,00,00,00,00,00,00,00,00,
122975514,19A00002,true,Rx,0,8,02,00,00,00,00,00,00,F7,
122977687,0340412E,true,Rx,0,8,70,80,00,FD,80,00,00,00,
122977968,19000026,true,Rx,0,8,00,FF,01,40,38,11,84,00,
122983399,0100082C,true,Rx,0,8,00,C0,80,62,66,01,00,D7,
122983685,0110483C,true,Rx,0,8,08,27,62,00,44,66,FC,55,
122987621,0340412E,true,Rx,0,8,71,80,00,ED,80,00,00,00,
122988094,01C04026,true,Rx,0,8,80,00,80,00,80,00,80,00,
122988373,02000026,true,Rx,0,8,7F,34,00,FC,49,00,E0,EF,
122988652,02104136,true,Rx,0,8,BB,00,3F,FF,06,E0,00,00,
