Time Stamp,ID,Extended,Dir,Bus,LEN,D1,D2,D3,D4,D5,D6,D7,D8
9107013,0100082C,true,Rx,0,8,00,C0,87,DB,61,F2,00,68,
9107298,1A200020,true,Rx,0,8,2C,00,02,3E,00,00,02,3E,
9107589,1AE0092C,true,Rx,0,8,20,00,22,20,01,A0,00,00,
9107868,1B700030,true,Rx,0,8,2C,8F,22,00,00,00,03,00,
9116954,0100082C,true,Rx,0,8,00,C0,87,DB,65,F2,00,68,
9117230,0110483C,true,Rx,0,8,08,E1,A0,08,44,66,FC,53,
9126991,0100082C,true,Rx,0,8,00,C0,87,DB,65,F2,00,68,
9127266,0110483C,true,Rx,0,8,08,E1,20,00,44,66,FC,53,
9136964,0100082C,true,Rx,0,8,00,C0,87,DB,65,F2,00,68,
9137249,0110483C,true,Rx,0,8,08,E1,20,00,44,66,FC,51,
9147001,0100082C,true,Rx,0,8,00,C0,87,DB,75,F2,00,68,
9147276,0110483C,true,Rx,0,8,08,E1,20,00,44,66,FC,53,
9156975,0100082C,true,Rx,0,8,00,C0,87,DB,65,F2,00,68,
9157250,0110483C,true,Rx,0,8,08,E1,20,00,44,66,FC,52,
9166959,0100082C,true,Rx,0,8,00,C0,87,DB,65,F2,00,68,
9167245,0110483C,true,Rx,0,8,08,E1,A0,00,44,66,FC,52,
9176985,0100082C,true,Rx,0,8,00,C0,87,DB,65,F2,00,68,
9177260,0110483C,true,Rx,0,8,08,E1,20,00,44,66,FC,52,
9186980,0100082C,true,Rx,0,8,00,C0,87,DB,65,F2,00,68,
9187265,0110483C,true,Rx,0,8,08,E1,20,00,44,66,FC,52,
9193223,00800006,true,Rx,0,8,60,00,00,00,00,00,00,00,
9193508,0090411E,true,Rx,0,8,00,00,00,00,00,00,00,00,
9193809,0300410E,true,Rx,0,8,00,00,00,00,00,00,00,00,
9194100,03800006,true,Rx,0,8,00,00,00,00,00,00,00,00,
9194391,19E00006,true,Rx,0,8,00,00,00,C0,00,00,00,00,
9194691,1B600002,true,Rx,0,8,00,00,00,00,00,00,00,00,
9195085,0300410E,true,Rx,0,8,00,00,00,00,00,00,00,00,
9197082,00800006,true,Rx,0,8,80,00,00,00,00,00,00,00,
9197368,0090411E,true,Rx,0,8,00,00,00,00,00,00,00,00,
9197658,0100082C,true,Rx,0,8,00,C0,87,DB,65,F3,00,68,
9197938,0110483C,true,Rx,0,8,08,E1,20,00,44,66,FC,52,
9198229,0300410E,true,Rx,0,8,00,00,00,00,00,00,00,00,
9198519,03800006,true,Rx,0,8,00,00,00,00,00,00,00,00,
9199078,0300410E,true,Rx,0,8,00,00,00,00,00,00,00,00,
9207012,0100082C,true,Rx,0,8,00,C0,87,DB,65,F3,00,68,
9207287,0110483C,true,Rx,0,8,08,E1,20,00,44,66,FC,52,
9209079,00800006,true,Rx,0,8,C9,E0,0D,E0,41,E0,A6,30,
9209368,0090411E,true,Rx,0,8,C2,00,E0,00,00,00,00,00,
9209647,0300410E,true,Rx,0,8,B7,CA,98,33,87,CA,FC,00,
9209939,03800006,true,Rx,0,8,70,00,00,00,00,00,00,00,
9216965,0100082C,true,Rx,0,8,00,C0,87,DB,65,F3,00,68,
9217240,0110483C,true,Rx,0,8,08,E1,A0,00,44,66,FC,52,
9219083,0300410E,true,Rx,0,8,B7,C7,18,33,87,C8,FC,00,
9219373,19E00006,true,Rx,0,8,00,00,18,E0,48,00,40,00,
9226981,0100082C,true,Rx,0,8,00,C0,87,DB,65,F3,00,68,
9227267,0110483C,true,Rx,0,8,08,E1,20,00,44,66,FC,52,
9229099,00800006,true,Rx,0,8,01,DF,0D,DE,41,DF,26,6C,
9229399,0090411E,true,Rx,0,8,02,00,60,00,00,00,00,00,
9229669,0300410E,true,Rx,0,8,37,C7,18,33,07,C8,6C,00,
9229971,03800006,true,Rx,0,8,30,00,00,00,00,00,00,00,
9236985,0100082C,true,Rx,0,8,00,C0,87,DB,75,F2,00,68,
9237260,0110483C,true,Rx,0,8,08,E1,20,00,44,66,FC,52,
9239104,0300410E,true,Rx,0,8,B7,D1,98,33,87,D1,FC,00,
9246955,0100082C,true,Rx,0,8,00,C0,87,DB,65,F2,00,68,
9247240,0110483C,true,Rx,0,8,08,E1,20,00,44,66,FC,52,
9249125,00800006,true,Rx,0,8,49,E4,0D,E4,41,E4,26,6D,
9249404,0090411E,true,Rx,0,8,02,00,E0,00,00,00,00,00,
9249695,0300410E,true,Rx,0,8,37,D1,18,33,07,D1,6C,00,
9249986,03800006,true,Rx,0,8,30,00,00,00,00,00,00,00,
9252103,1BA0493C,true,Rx,0,8,14,00,00,00,00,00,00,00,
9252372,1BE0493C,true,Rx,0,8,12,32,33,31,39,36,35,36,
9257021,0100082C,true,Rx,0,8,00,C0,87,DB,65,F2,00,68,
9257297,0110483C,true,Rx,0,8,08,E1,20,00,44,66,FC,52,
9259130,0300410E,true,Rx,0,8,B7,D1,19,09,87,D1,FC,00,
9266960,0100082C,true,Rx,0,8,00,C0,87,DB,65,F2,00,68,
9267246,0110483C,true,Rx,0,8,08,E1,A0,00,44,66,FC,52,
9269140,00800006,true,Rx,0,8,89,E4,0D,E4,41,E4,A6,6F,
9269420,0090411E,true,Rx,0,8,42,00,E0,00,00,00,00,00,
9269700,0300410E,true,Rx,0,8,B7,D1,99,09,87,D1,FC,00,
9270001,03800006,true,Rx,0,8,30,00,00,00,00,00,00,00,
9270291,19E00006,true,Rx,0,8,00,00,18,C0,48,00,40,00,
9276988,0100082C,true,Rx,0,8,00,C0,87,DB,65,F2,00,68,
9277264,0110483C,true,Rx,0,8,08,E1,20,00,44,66,FC,52,
9279147,0300410E,true,Rx,0,8,37,D1,19,09,07,D1,6C,00,
9286969,0100082C,true,Rx,0,8,00,C0,87,DB,65,F2,00,68,
9287246,0110483C,true,Rx,0,8,08,E1,20,00,44,66,FC,52,
9289159,00800006,true,Rx,0,8,C1,E4,0D,E4,41,E4,26,6F,
9289449,0090411E,true,Rx,0,8,02,00,60,00,00,00,00,00,
9289729,0300410E,true,Rx,0,8,B7,D1,19,09,87,D1,FC,00,
9290030,03800006,true,Rx,0,8,30,00,00,00,00,00,00,00,
9296950,0100082C,true,Rx,0,8,00,C0,87,DB,65,F2,00,68,
9297227,0110483C,true,Rx,0,8,08,E1,20,00,44,66,FC,52,
9299202,0300410E,true,Rx,0,8,B7,D1,99,09,87,D1,FC,00,
9306971,0100082C,true,Rx,0,8,00,C0,87,DB,65,F2,00,68,
9307248,0110483C,true,Rx,0,8,08,E2,20,00,44,66,FC,52,
9309182,00800006,true,Rx,0,8,09,E4,0D,E4,41,E4,A6,6F,
9309472,0090411E,true,Rx,0,8,C2,00,E0,00,00,00,00,00,
9309752,0300410E,true,Rx,0,8,37,D1,19,09,07,D1,6C,00,
9310043,03800006,true,Rx,0,8,70,00,00,00,00,00,00,00,
9316974,0100082C,true,Rx,0,8,00,C0,87,DB,65,F2,00,68,
9317251,0110483C,true,Rx,0,8,08,E2,A0,00,44,66,FC,52,
9317540,1B700030,true,Rx,0,8,3C,8F,22,00,00,C0,03,00,
9319189,0300410E,true,Rx,0,8,B7,D2,19,09,87,D2,FC,00,
9319480,19E00006,true,Rx,0,8,00,00,18,E0,49,00,40,00,
9327034,0100082C,true,Rx,0,8,00,C0,87,DB,65,F2,00,68,
9327310,0110483C,true,Rx,0,8,08,E2,20,00,44,66,FC,52,
9329193,00800006,true,Rx,0,8,49,E5,0D,E5,41,E5,26,70,
9329484,0090411E,true,Rx,0,8,02,00,E0,00,00,00,00,00,
9329763,0300410E,true,Rx,0,8,37,D2,99,09,07,D2,6C,00,
9330064,03800006,true,Rx,0,8,30,00,00,00,00,00,00,00,
9336965,0100082C,true,Rx,0,8,00,C0,87,DB,65,F2,00,68,
9337242,0110483C,true,Rx,0,8,08,E2,20,00,44,66,FC,52,
9339207,0300410E,true,Rx,0,8,B7,D2,19,09,87,D2,FC,00,
9339498,1B600002,true,Rx,0,8,00,80,00,40,00,1A,4C,00,
9346961,0100082C,true,Rx,0,8,00,C0,87,DB,65,F2,00,68,
9347247,0110483C,true,Rx,0,8,08,E2,20,00,44,66,FC,52,
9349223,00800006,true,Rx,0,8,81,E5,0D,E5,41,E5,26,6F,
9349513,0090411E,true,Rx,0,8,02,00,60,00,00,00,00,00,
9349782,0300410E,true,Rx,0,8,B7,D2,19,09,87,D2,FC,00,
9350084,03800006,true,Rx,0,8,30,00,00,00,00,00,00,00,
9356964,0100082C,true,Rx,0,8,00,C0,87,DB,65,F2,00,68,
9357251,0110483C,true,Rx,0,8,08,E2,20,00,44,66,FC,52,
9359227,0300410E,true,Rx,0,8,37,D2,99,09,07,D2,6C,00,
9366965,0100082C,true,Rx,0,8,00,C0,87,DB,65,F2,00,68,
9367242,0110483C,true,Rx,0,8,08,E2,A0,00,44,66,FC,52,
9369238,00800006,true,Rx,0,8,C9,E5,0D,E5,41,E5,A6,6F,
9369529,0090411E,true,Rx,0,8,42,00,E0,00,00,00,00,00,
9369798,0300410E,true,Rx,0,8,B7,D2,19,09,87,D2,FC,00,
9370099,03800006,true,Rx,0,8,30,00,00,00,00,00,00,00,
9370390,19E00006,true,Rx,0,8,00,00,18,C0,49,00,40,00,
9376985,0100082C,true,Rx,0,8,00,C0,87,DB,75,F3,00,68,
9377272,0110483C,true,Rx,0,8,08,E2,20,00,44,66,FC,52,
9379309,0300410E,true,Rx,0,8,B7,D2,19,09,87,D2,FC,00,
9386975,0100082C,true,Rx,0,8,00,C0,87,DB,65,F3,00,68,
9387251,0110483C,true,Rx,0,8,08,E2,20,00,44,66,FC,52,
9389258,00800006,true,Rx,0,8,09,E5,0D,E5,41,E5,26,6F,
9389549,0090411E,true,Rx,0,8,02,00,E0,00,00,00,00,00,
9389828,0300410E,true,Rx,0,8,37,D2,99,09,07,D2,6C,00,
9390129,03800006,true,Rx,0,8,30,00,00,00,00,00,00,00,
9396946,0100082C,true,Rx,0,8,00,C0,87,DB,65,F3,00,68,
9397233,0110483C,true,Rx,0,8,08,E2,20,00,44,66,FC,52,
9399270,0300410E,true,Rx,0,8,B7,D2,19,09,87,D2,FC,00,
9406969,0100082C,true,Rx,0,8,00,C0,87,DB,65,F3,00,68,
9407246,0110483C,true,Rx,0,8,08,E2,20,00,44,66,FC,52,
9409283,00800006,true,Rx,0,8,41,E5,0D,E5,41,E5,A6,6F,
9409573,0090411E,true,Rx,0,8,C2,00,60,00,00,00,00,00,
9409853,0300410E,true,Rx,0,8,37,D2,19,09,07,D2,6C,00,
9410145,03800006,true,Rx,0,8,70,00,00,00,00,00,00,00,
9416982,0100082C,true,Rx,0,8,00,C0,87,DB,65,F2,00,68,
9417258,0110483C,true,Rx,0,8,08,E2,A0,00,44,66,FC,52,
9419285,0300410E,true,Rx,0,8,B7,D2,99,09,87,D2,FC,00,
9419576,19E00006,true,Rx,0,8,00,00,18,E0,49,00,40,00,
9422039,1A200020,true,Rx,0,8,4E,00,02,3E,00,00,02,3E,
9426995,0100082C,true,Rx,0,8,00,C0,87,DB,65,F2,00,68,
9427272,0110483C,true,Rx,0,8,08,E2,20,00,44,66,FC,52,
9429299,00800006,true,Rx,0,8,89,E5,0D,E5,41,E5,26,6F,
9429579,0090411E,true,Rx,0,8,02,00,E0,00,00,00,00,00,
9429859,0300410E,true,Rx,0,8,B7,D2,19,09,87,D2,FC,00,
9430161,03800006,true,Rx,0,8,30,00,00,00,00,00,00,00,
9436967,0100082C,true,Rx,0,8,00,C0,87,DB,65,F2,00,68,
9437243,0110483C,true,Rx,0,8,08,E2,20,00,44,66,FC,52,
9439312,0300410E,true,Rx,0,8,37,D2,19,09,07,D2,6C,00,
9446959,0100082C,true,Rx,0,8,00,C0,87,DB,65,F2,00,68,
9447235,0110483C,true,Rx,0,8,08,E2,20,00,44,66,FC,52,
9449315,00800006,true,Rx,0,8,C9,E5,0D,E5,41,E5,26,6F,
9449604,0090411E,true,Rx,0,8,02,00,E0,00,00,00,00,00,
9449885,0300410E,true,Rx,0,8,B7,D2,99,09,87,D2,FC,00,
9450176,03800006,true,Rx,0,8,30,00,00,00,00,00,00,00,
9456972,0100082C,true,Rx,0,8,00,C0,87,DB,65,F2,00,68,
9457258,0110483C,true,Rx,0,8,08,E2,20,00,44,66,FC,52,
9459388,0300410E,true,Rx,0,8,B7,D2,19,08,87,D2,FC,00,
9466951,0100082C,true,Rx,0,8,00,C0,87,DB,75,F2,00,68,
9467237,0110483C,true,Rx,0,8,08,E2,A0,00,44,66,FC,52,
9469337,00800006,true,Rx,0,8,01,E5,0D,E5,41,E5,A6,6F,
9469626,0090411E,true,Rx,0,8,42,00,60,00,00,00,00,00,
9469907,0300410E,true,Rx,0,8,37,D2,19,08,07,D2,6C,00,
9470208,03800006,true,Rx,0,8,30,00,00,00,00,00,00,00,
9470498,19E00006,true,Rx,0,8,00,00,18,C0,49,00,40,00,
9476978,0100082C,true,Rx,0,8,00,C0,87,DB,65,F2,00,68,
9477264,0110483C,true,Rx,0,8,08,E2,20,00,44,66,FC,52,
9479354,0300410E,true,Rx,0,8,B7,D2,99,08,87,D2,FC,00,
9486969,0100082C,true,Rx,0,8,00,C0,87,DB,65,F2,00,68,
9487254,0110483C,true,Rx,0,8,08,E2,20,00,44,66,FC,52,
9489365,00800006,true,Rx,0,8,49,E5,0D,E5,41,E5,26,6F,
9489645,0090411E,true,Rx,0,8,02,00,E0,00,00,00,00,00,
9489925,0300410E,true,Rx,0,8,37,D2,19,08,07,D2,6C,00,
9490226,03800006,true,Rx,0,8,30,00,00,00,00,00,00,00,
9496971,0100082C,true,Rx,0,8,00,C0,87,DB,65,F2,00,68,
9497247,0110483C,true,Rx,0,8,08,E2,20,00,44,66,FC,52,
9499367,0300410E,true,Rx,0,8,B7,D2,19,08,87,D2,FC,00,
9501992,1BA0493C,true,Rx,0,8,01,03,02,09,01,03,04,02,
9502273,1BE0493C,true,Rx,0,8,01,00,2A,88,9B,9B,FD,FB,
9507035,0100082C,true,Rx,0,8,00,C0,87,DB,65,F2,00,68,
9507320,0110483C,true,Rx,0,8,08,E2,20,00,44,66,FC,52,
9509380,00800006,true,Rx,0,8,89,E5,0D,E5,41,E5,A6,6F,
9509670,0090411E,true,Rx,0,8,C2,00,E0,00,00,00,00,00,
9509941,0300410E,true,Rx,0,8,B7,D2,99,08,87,D2,FC,00,
9510241,03800006,true,Rx,0,8,70,00,00,00,00,00,00,00,
9510530,1B600002,true,Rx,0,8,00,80,00,40,00,1A,4C,00,
9516960,0100082C,true,Rx,0,8,00,C0,87,DB,65,F2,00,68,
9517235,0110483C,true,Rx,0,8,08,E2,A0,00,44,66,FC,52,
9519387,0300410E,true,Rx,0,8,37,D2,19,08,07,D2,6C,00,
9519677,19E00006,true,Rx,0,8,00,00,18,E0,49,00,40,00,
9527018,0100082C,true,Rx,0,8,00,C0,87,DB,65,F2,00,68,
9527293,0110483C,true,Rx,0,8,08,E2,20,00,44,66,FC,52,
9527583,1AE0092C,true,Rx,0,8,40,00,22,E0,41,A0,00,00,
9527863,1B700030,true,Rx,0,8,2C,8F,22,00,00,C0,03,00,
9529411,00800006,true,Rx,0,8,C1,E5,0D,E5,41,E5,26,6F,
9529701,0090411E,true,Rx,0,8,02,00,60,00,00,00,00,00,
9529983,0300410E,true,Rx,0,8,B7,D2,19,08,87,D2,FC,00,
9530272,03800006,true,Rx,0,8,30,00,00,00,00,00,00,00,
9536966,0100082C,true,Rx,0,8,00,C0,87,DB,65,F2,00,68,
9537241,0110483C,true,Rx,0,8,08,E2,20,00,44,66,FC,52,
9539464,0300410E,true,Rx,0,8,B7,D2,99,08,87,D2,FC,00,
9546955,0100082C,true,Rx,0,8,00,C0,87,DB,65,F2,00,68,
9547241,0110483C,true,Rx,0,8,08,E2,20,00,44,66,FC,52,
9549413,00800006,true,Rx,0,8,09,E5,0D,E5,41,E5,26,6F,
9549703,0090411E,true,Rx,0,8,02,00,E0,00,00,00,00,00,
9549985,0300410E,true,Rx,0,8,37,D2,19,08,07,D2,6C,00,
9550285,03800006,true,Rx,0,8,30,00,00,00,00,00,00,00,
9556980,0100082C,true,Rx,0,8,00,C0,87,DB,75,F3,00,68,
9557266,0110483C,true,Rx,0,8,08,E2,20,00,44,66,FC,52,
9559428,0300410E,true,Rx,0,8,B7,D2,19,08,87,D2,FC,00,
9566960,0100082C,true,Rx,0,8,00,C0,87,DB,65,F3,00,68,
9567235,0110483C,true,Rx,0,8,08,E2,A0,00,44,66,FC,52,
9569438,00800006,true,Rx,0,8,49,E5,0D,E5,41,E5,A6,6F,
9569728,0090411E,true,Rx,0,8,42,00,E0,00,00,00,00,00,
9569999,0300410E,true,Rx,0,8,37,D2,99,08,07,D2,6C,00,
9570299,03800006,true,Rx,0,8,30,00,00,00,00,00,00,00,
9570589,19E00006,true,Rx,0,8,00,00,18,C0,49,00,40,00,
9576977,0100082C,true,Rx,0,8,00,C0,87,DB,65,F3,00,68,
9577263,0110483C,true,Rx,0,8,08,E2,20,00,44,66,FC,52,
9579445,0300410E,true,Rx,0,8,B7,D2,19,08,87,D2,FC,00,
9586969,0100082C,true,Rx,0,8,00,C0,87,DB,65,F3,00,68,
9587254,0110483C,true,Rx,0,8,08,E2,20,00,44,66,FC,52,
9589458,00800006,true,Rx,0,8,81,E5,0D,E5,41,E5,26,6F,
9589748,0090411E,true,Rx,0,8,02,00,60,00,00,00,00,00,
9590030,0300410E,true,Rx,0,8,B7,D2,19,08,87,D2,FC,00,
9590319,03800006,true,Rx,0,8,30,00,00,00,00,00,00,00,
9596983,0100082C,true,Rx,0,8,00,C0,87,DB,65,F3,00,68,
9597258,0110483C,true,Rx,0,8,08,E2,20,00,44,66,FC,52,
9599471,0300410E,true,Rx,0,8,37,D2,99,08,07,D2,6C,00,
9606975,0100082C,true,Rx,0,8,00,C0,87,DB,65,F3,00,68,
9607251,0110483C,true,Rx,0,8,08,E2,20,00,44,66,FC,52,
9609474,00800006,true,Rx,0,8,C9,E5,0D,E5,41,E5,A6,6F,
9609764,0090411E,true,Rx,0,8,C2,00,E0,00,00,00,00,00,
9610046,0300410E,true,Rx,0,8,B7,D2,19,08,87,D2,FC,00,
9610335,03800006,true,Rx,0,8,70,00,00,00,00,00,00,00,
9616969,0100082C,true,Rx,0,8,00,C0,87,DB,65,F3,00,68,
9617244,0110483C,true,Rx,0,8,08,E2,A0,00,44,66,FC,52,
9619550,0300410E,true,Rx,0,8,B7,D2,19,08,87,D2,FC,00,
9619831,19E00006,true,Rx,0,8,00,00,18,E0,49,00,40,00,
9626985,0100082C,true,Rx,0,8,00,C0,87,DB,65,F3,00,68,
9627271,0110483C,true,Rx,0,8,08,E2,20,00,44,66,FC,52,
9629495,00800006,true,Rx,0,8,09,E5,0D,E5,41,E5,26,6F,
9629786,0090411E,true,Rx,0,8,02,00,E0,00,00,00,00,00,
9630066,0300410E,true,Rx,0,8,37,D2,99,08,07,D2,6C,00,
9630356,03800006,true,Rx,0,8,30,00,00,00,00,00,00,00,
9636968,0100082C,true,Rx,0,8,00,C0,87,DB,65,F3,00,68,
9637243,0110483C,true,Rx,0,8,08,E2,20,00,44,66,FC,52,
9639507,0300410E,true,Rx,0,8,B7,D2,19,08,87,D2,FC,00,
9646970,0100082C,true,Rx,0,8,00,C0,87,DB,75,F3,00,68,
9647245,0110483C,true,Rx,0,8,08,E2,20,00,44,66,FC,52,
9649520,00800006,true,Rx,0,8,41,E5,0D,E5,41,E5,26,6F,
9649811,0090411E,true,Rx,0,8,02,00,60,00,00,00,00,00,
9650091,0300410E,true,Rx,0,8,37,D2,19,08,07,D2,6C,00,
9650391,03800006,true,Rx,0,8,30,00,00,00,00,00,00,00,
9656983,0100082C,true,Rx,0,8,00,C0,87,DB,65,F3,00,68,
9657258,0110483C,true,Rx,0,8,08,E2,20,00,44,66,FC,52,
9659522,0300410E,true,Rx,0,8,B7,D2,99,09,87,D2,FC,00,
9666964,0100082C,true,Rx,0,8,00,C0,87,DB,65,F3,00,68,
9667239,0110483C,true,Rx,0,8,08,E2,A0,00,44,66,FC,52,
9669536,00800006,true,Rx,0,8,89,E5,0D,E5,41,E5,A6,6F,
9669827,0090411E,true,Rx,0,8,42,00,E0,00,00,00,00,00,
9670097,0300410E,true,Rx,0,8,B7,D2,19,09,87,D2,FC,00,
9670397,03800006,true,Rx,0,8,30,00,00,00,00,00,00,00,
9670688,19E00006,true,Rx,0,8,00,00,18,C0,49,00,40,00,
9677002,0100082C,true,Rx,0,8,00,C0,87,DB,65,F3,00,68,
9677277,0110483C,true,Rx,0,8,08,E2,20,00,44,66,FC,52,
9679552,0300410E,true,Rx,0,8,37,D2,19,09,07,D2,6C,00,
9679843,1B600002,true,Rx,0,8,00,80,00,40,00,1A,4C,00,
9686996,0100082C,true,Rx,0,8,00,C0,87,DB,65,F3,00,68,
9687271,0110483C,true,Rx,0,8,08,E2,20,00,44,66,FC,52,
9689557,00800006,true,Rx,0,8,C9,E5,0D,E5,41,E5,26,6F,
9689848,0090411E,true,Rx,0,8,02,00,E0,00,00,00,00,00,
9690118,0300410E,true,Rx,0,8,B7,D2,99,09,87,D2,FC,00,
9690418,03800006,true,Rx,0,8,30,00,00,00,00,00,00,00,
9696959,0100082C,true,Rx,0,8,00,C0,87,DB,65,F3,00,68,
9697244,0110483C,true,Rx,0,8,08,E2,20,00,44,66,FC,52,
9699632,0300410E,true,Rx,0,8,B7,D2,19,09,87,D2,FC,00,
9706980,0100082C,true,Rx,0,8,00,C0,87,DB,65,F3,00,68,
9707255,0110483C,true,Rx,0,8,08,E2,20,00,44,66,FC,52,
9709581,00800006,true,Rx,0,8,01,E5,0D,E5,41,E5,A6,6F,
9709872,0090411E,true,Rx,0,8,C2,00,60,00,00,00,00,00,
9710152,0300410E,true,Rx,0,8,37,D2,19,09,07,D2,6C,00,
9710443,03800006,true,Rx,0,8,70,00,00,00,00,00,00,00,
9716961,0100082C,true,Rx,0,8,00,C0,87,DB,65,F3,00,68,
9717247,0110483C,true,Rx,0,8,08,E2,A0,00,44,66,FC,52,
9719583,0300410E,true,Rx,0,8,B7,D2,99,09,87,D2,FC,00,
9719874,19E00006,true,Rx,0,8,00,00,18,E0,49,00,40,00,
9726996,0100082C,true,Rx,0,8,00,C0,87,DB,65,F3,00,68,
9727272,0110483C,true,Rx,0,8,08,E2,20,00,44,66,FC,52,
9729599,00800006,true,Rx,0,8,49,E5,0D,E5,41,E5,26,6F,
9729890,0090411E,true,Rx,0,8,02,00,E0,00,00,00,00,00,
9730169,0300410E,true,Rx,0,8,37,D2,19,09,07,D2,6C,00,
9730470,03800006,true,Rx,0,8,30,00,00,00,00,00,00,00,
9737010,0100082C,true,Rx,0,8,00,C0,87,DB,75,F3,00,6A,
9737287,0110483C,true,Rx,0,8,08,E2,20,00,44,66,FC,52,
9737577,1A200020,true,Rx,0,8,8E,00,02,3E,00,00,02,3E,
9737856,1B700030,true,Rx,0,8,2C,8F,22,00,00,C0,03,00,
9739621,0300410E,true,Rx,0,8,B7,D2,19,09,87,D2,FC,00,
9746959,0100082C,true,Rx,0,8,00,C0,87,DB,65,F3,00,6A,
9747245,0110483C,true,Rx,0,8,08,E2,20,00,44,66,FC,52,
9749613,00800006,true,Rx,0,8,89,E5,0D,E5,41,E5,26,6F,
9749904,0090411E,true,Rx,0,8,02,00,E0,00,00,00,00,00,
9750173,0300410E,true,Rx,0,8,B7,D2,99,09,87,D2,FC,00,
9750474,03800006,true,Rx,0,8,30,00,00,00,00,00,00,00,
9752107,1BA0493C,true,Rx,0,8,02,01,05,02,03,01,01,02,
9752387,1BE0493C,true,Rx,0,8,02,4A,8F,00,3C,04,19,24,
9757016,0100082C,true,Rx,0,8,00,C0,87,DB,65,F3,00,6A,
9757292,0110483C,true,Rx,0,8,08,E2,20,00,44,66,FC,52,
9759630,0300410E,true,Rx,0,8,37,D2,19,08,07,D2,6C,00,
9766966,0100082C,true,Rx,0,8,00,C0,87,DB,65,F3,00,6A,
9767242,0110483C,true,Rx,0,8,08,E2,A0,00,44,66,FC,52,
9769640,00800006,true,Rx,0,8,C1,E5,0D,E5,41,E5,A6,6F,
9769931,0090411E,true,Rx,0,8,42,00,60,00,00,00,00,00,
9770210,0300410E,true,Rx,0,8,B7,D2,19,08,87,D2,FC,00,
9770501,03800006,true,Rx,0,8,30,00,00,00,00,00,00,00,
9770790,19E00006,true,Rx,0,8,00,00,18,C0,49,00,40,00,
9777014,0100082C,true,Rx,0,8,00,C0,87,DB,65,F3,00,6A,
9777290,0110483C,true,Rx,0,8,08,E2,20,00,44,66,FC,52,
9779708,0300410E,true,Rx,0,8,B7,D2,99,08,87,D2,FC,00,
9786975,0100082C,true,Rx,0,8,00,C0,87,DB,65,F3,00,6A,
9787262,0110483C,true,Rx,0,8,08,E2,20,00,44,66,FC,52,
9789660,00800006,true,Rx,0,8,09,E5,0D,E5,41,E5,26,6F,
9789940,0090411E,true,Rx,0,8,02,00,E0,00,00,00,00,00,
9790220,0300410E,true,Rx,0,8,37,D2,19,08,07,D2,6C,00,
9790521,03800006,true,Rx,0,8,30,00,00,00,00,00,00,00,
9796990,0100082C,true,Rx,0,8,00,C0,87,DB,65,F3,00,6A,
9797276,0110483C,true,Rx,0,8,08,E2,20,00,44,66,FC,52,
9799664,0300410E,true,Rx,0,8,B7,D2,19,08,87,D2,FC,00,
9806980,0100082C,true,Rx,0,8,00,C0,87,DB,65,F3,00,6A,
9807257,0110483C,true,Rx,0,8,08,E2,20,00,44,66,FC,52,
9809675,00800006,true,Rx,0,8,49,E5,0D,E5,41,E5,A6,6F,
9809966,0090411E,true,Rx,0,8,C2,00,E0,00,00,00,00,00,
9810246,0300410E,true,Rx,0,8,37,D2,99,08,07,D2,6C,00,
9810536,03800006,true,Rx,0,8,70,00,00,00,00,00,00,00,
9816964,0100082C,true,Rx,0,8,00,C0,87,DB,65,F3,00,6A,
9817240,0110483C,true,Rx,0,8,08,E2,A0,00,44,66,FC,52,
9819690,0300410E,true,Rx,0,8,B7,D2,19,08,87,D2,FC,00,
9819971,19E00006,true,Rx,0,8,00,00,18,E0,49,00,40,00,
9827073,0100082C,true,Rx,0,8,00,C0,87,DB,65,F3,00,6A,
9827349,0110483C,true,Rx,0,8,08,E2,20,00,44,66,FC,52,
9829696,00800006,true,Rx,0,8,81,E5,0D,E5,41,E5,26,6F,
9829986,0090411E,true,Rx,0,8,02,00,60,00,00,00,00,00,
9830267,0300410E,true,Rx,0,8,B7,D2,19,08,87,D2,FC,00,
9830567,03800006,true,Rx,0,8,30,00,00,00,00,00,00,00,
9836972,0100082C,true,Rx,0,8,00,C0,87,DB,65,F3,00,6A,
9837248,0110483C,true,Rx,0,8,08,E2,20,00,44,66,FC,52,
9839708,0300410E,true,Rx,0,8,37,D2,99,08,07,D2,6C,00,
9846964,0100082C,true,Rx,0,8,00,C0,87,DB,65,F3,00,6A,
9847241,0110483C,true,Rx,0,8,08,E2,20,00,44,66,FC,52,
9849710,00800006,true,Rx,0,8,C9,E5,0D,E5,41,E5,26,6F,
9850001,0090411E,true,Rx,0,8,02,00,E0,00,00,00,00,00,
9850282,0300410E,true,Rx,0,8,B7,D2,19,08,87,D2,FC,00,
9850582,03800006,true,Rx,0,8,30,00,00,00,00,00,00,00,
9850871,1B600002,true,Rx,0,8,00,80,00,40,00,1A,4C,00,
9856991,0100082C,true,Rx,0,8,00,C0,87,DB,65,F3,00,6A,
9857267,0110483C,true,Rx,0,8,08,E2,20,00,44,66,FC,52,
9859788,0300410E,true,Rx,0,8,B7,D2,19,08,87,D2,FC,00,
9867001,0100082C,true,Rx,0,8,00,C0,87,DB,75,F3,00,6A,
9867278,0110483C,true,Rx,0,8,08,E2,A0,00,44,66,FC,52,
9869737,00800006,true,Rx,0,8,09,E5,0D,E5,41,E5,A6,6F,
9870018,0090411E,true,Rx,0,8,42,00,E0,00,00,00,00,00,
9870298,0300410E,true,Rx,0,8,37,D2,99,08,07,D2,6C,00,
9870598,03800006,true,Rx,0,8,30,00,00,00,00,00,00,00,
9870889,19E00006,true,Rx,0,8,00,00,18,C0,49,00,40,00,
9877008,0100082C,true,Rx,0,8,00,C0,87,DB,65,F3,00,6A,
9877284,0110483C,true,Rx,0,8,08,E2,20,00,44,66,FC,52,
9879744,0300410E,true,Rx,0,8,B7,D2,19,08,87,D2,FC,00,
9886990,0100082C,true,Rx,0,8,00,C0,87,DB,65,F3,00,6A,
9887266,0110483C,true,Rx,0,8,08,E2,20,00,44,66,FC,52,
9889756,00800006,true,Rx,0,8,41,E5,0D,E5,41,E5,26,6F,
9890047,0090411E,true,Rx,0,8,02,00,60,00,00,00,00,00,
9890328,0300410E,true,Rx,0,8,37,D2,19,08,07,D2,6C,00,
9890627,03800006,true,Rx,0,8,30,00,00,00,00,00,00,00,
9896971,0100082C,true,Rx,0,8,00,C0,87,DB,65,F3,00,6A,
9897247,0110483C,true,Rx,0,8,08,E2,20,00,44,66,FC,52,
9899769,0300410E,true,Rx,0,8,B7,D2,99,08,87,D2,FC,00,
9906981,0100082C,true,Rx,0,8,00,C0,87,DB,65,F3,00,6A,
9907258,0110483C,true,Rx,0,8,08,E2,20,00,44,66,FC,52,
9909779,00800006,true,Rx,0,8,89,E5,0D,E5,41,E5,A6,6F,
9910060,0090411E,true,Rx,0,8,C2,00,E0,00,00,00,00,00,
9910340,0300410E,true,Rx,0,8,B7,D2,19,08,87,D2,FC,00,
9910640,03800006,true,Rx,0,8,70,00,00,00,00,00,00,00,
9916985,0100082C,true,Rx,0,8,00,C0,87,DB,65,F3,00,6A,
9917261,0110483C,true,Rx,0,8,08,E2,A0,00,44,66,FC,52,
9919783,0300410E,true,Rx,0,8,37,D2,19,08,07,D2,6C,00,
9920075,19E00006,true,Rx,0,8,00,00,18,E0,49,00,40,00,
9927011,0100082C,true,Rx,0,8,00,C0,87,DB,65,F3,00,6A,
9927297,0110483C,true,Rx,0,8,08,E2,20,00,44,66,FC,52,
9929798,00800006,true,Rx,0,8,C9,E5,0D,E5,41,E5,26,6F,
9930079,0090411E,true,Rx,0,8,02,00,E0,00,00,00,00,00,
9930359,0300410E,true,Rx,0,8,B7,D2,99,08,87,D2,FC,00,
9930658,03800006,true,Rx,0,8,30,00,00,00,00,00,00,00,
9936972,0100082C,true,Rx,0,8,00,C0,87,DB,65,F3,00,6A,
9937247,0110483C,true,Rx,0,8,08,E2,20,00,44,66,FC,52,
9939809,0300410E,true,Rx,0,8,37,D2,19,08,07,D2,6C,00,
9946993,0100082C,true,Rx,0,8,00,C0,87,DB,65,F3,00,6A,
9947278,0110483C,true,Rx,0,8,08,E2,20,00,44,66,FC,52,
9947557,1AE0092C,true,Rx,0,8,80,00,22,E0,41,A0,00,00,
9947848,1B700030,true,Rx,0,8,3C,8F,22,00,00,C0,03,00,
9949828,00800006,true,Rx,0,8,01,E5,0D,E5,41,E5,26,6F,
9950120,0090411E,true,Rx,0,8,02,00,60,00,00,00,00,00,
9950399,0300410E,true,Rx,0,8,B7,D2,19,08,87,D2,FC,00,
9950699,03800006,true,Rx,0,8,30,00,00,00,00,00,00,00,
9957013,0100082C,true,Rx,0,8,00,C0,87,DB,75,F3,00,6A,
9957298,0110483C,true,Rx,0,8,08,E2,20,00,44,66,FC,52,
9959830,0300410E,true,Rx,0,8,B7,D2,99,08,87,D2,FC,00,
9966972,0100082C,true,Rx,0,8,00,C0,87,DB,65,F3,00,6A,
9967247,0110483C,true,Rx,0,8,08,E2,A0,00,44,66,FC,52,
9969840,00800006,true,Rx,0,8,49,E5,0D,E5,41,E5,A6,6F,
9970122,0090411E,true,Rx,0,8,42,00,E0,00,00,00,00,00,
9970401,0300410E,true,Rx,0,8,37,D2,19,08,07,D2,6C,00,
9970701,03800006,true,Rx,0,8,30,00,00,00,00,00,00,00,
9970983,19E00006,true,Rx,0,8,00,00,18,C0,49,00,40,00,
9976978,0100082C,true,Rx,0,8,00,C0,87,DB,65,F3,00,6A,
9977264,0110483C,true,Rx,0,8,08,E2,20,00,44,66,FC,52,
9979847,0300410E,true,Rx,0,8,B7,D2,19,08,87,D2,FC,00,
9986981,0100082C,true,Rx,0,8,00,C0,87,DB,65,F3,00,6A,
9987256,0110483C,true,Rx,0,8,08,E2,20,00,44,66,FC,52,
9989849,00800006,true,Rx,0,8,89,E5,0D,E5,41,E5,26,6F,
9990141,0090411E,true,Rx,0,8,02,00,E0,00,00,00,00,00,
9990420,0300410E,true,Rx,0,8,B7,D2,99,08,87,D2,FC,00,
9990721,03800006,true,Rx,0,8,30,00,00,00,00,00,00,00,
9996972,0100082C,true,Rx,0,8,00,C0,87,DB,65,F3,00,6A,
9997248,0110483C,true,Rx,0,8,08,E2,20,00,44,66,FC,52,
9999872,0300410E,true,Rx,0,8,37,D2,19,08,07,D2,6C,00,
10001984,1BA0493C,true,Rx,0,8,03,03,02,01,02,02,01,02,
10006991,0100082C,true,Rx,0,8,00,C0,87,DB,65,F3,00,6A,
10007276,0110483C,true,Rx,0,8,08,E2,20,00,44,66,FC,52,
10009883,00800006,true,Rx,0,8,C1,E5,0D,E5,41,E5,A6,6F,
10010163,0090411E,true,Rx,0,8,C2,00,60,00,00,00,00,00,
10010442,0300410E,true,Rx,0,8,B7,D2,19,08,87,D2,FC,00,
10010743,03800006,true,Rx,0,8,70,00,00,00,00,00,00,00,
10016975,0100082C,true,Rx,0,8,00,C0,87,DB,65,F3,00,6A,
10017250,0110483C,true,Rx,0,8,08,E2,A0,00,44,66,FC,52,
10019939,0300410E,true,Rx,0,8,B7,D2,99,08,87,D2,FC,00,
10020218,19E00006,true,Rx,0,8,00,00,18,E0,49,00,40,00,
10020508,1B600002,true,Rx,0,8,00,80,00,40,00,1A,4C,00,
10026975,0100082C,true,Rx,0,8,00,C0,87,DB,65,F3,00,6A,
10027251,0110483C,true,Rx,0,8,08,E2,20,00,44,66,FC,52,
10029898,00800006,true,Rx,0,8,09,E5,0D,E5,41,E5,26,6F,
10030177,0090411E,true,Rx,0,8,02,00,E0,00,00,00,00,00,
10030456,0300410E,true,Rx,0,8,37,D2,19,08,07,D2,6C,00,
10030757,03800006,true,Rx,0,8,30,00,00,00,00,00,00,00,
10036978,0100082C,true,Rx,0,8,00,C0,87,DB,65,F3,00,6A,
10037264,0110483C,true,Rx,0,8,08,E2,20,00,44,66,FC,52,
10039910,0300410E,true,Rx,0,8,B7,D2,19,08,87,D2,FC,00,
10047001,0100082C,true,Rx,0,8,00,C0,87,DB,75,F3,00,6A,
10047287,0110483C,true,Rx,0,8,08,E2,20,00,44,66,FC,52,
10049913,00800006,true,Rx,0,8,49,E5,0D,E5,41,E5,26,6F,
10050203,0090411E,true,Rx,0,8,02,00,E0,00,00,00,00,00,
10050482,0300410E,true,Rx,0,8,37,D2,99,08,07,D2,6C,00,
10050783,03800006,true,Rx,0,8,30,00,00,00,00,00,00,00,
10052106,1A200020,true,Rx,0,8,CE,00,02,3E,00,00,02,3E,
10056990,0100082C,true,Rx,0,8,00,C0,87,DB,65,F3,00,6A,
10057265,0110483C,true,Rx,0,8,08,E2,20,00,44,66,FC,52,
10059924,0300410E,true,Rx,0,8,B7,D2,19,08,87,D2,FC,00,
10066971,0100082C,true,Rx,0,8,00,C0,87,DB,65,F3,00,6A,
10067246,0110483C,true,Rx,0,8,08,E2,A0,00,44,66,FC,52,
10069934,00800006,true,Rx,0,8,81,E5,0D,E5,41,E5,A6,6F,
10070223,0090411E,true,Rx,0,8,42,00,60,00,00,00,00,00,
10070503,0300410E,true,Rx,0,8,B7,D2,19,08,87,D2,FC,00,
10070793,03800006,true,Rx,0,8,30,00,00,00,00,00,00,00,
10071086,19E00006,true,Rx,0,8,00,00,18,C0,49,00,40,00,
10076969,0100082C,true,Rx,0,8,00,C0,87,DB,65,F3,00,6A,
10077254,0110483C,true,Rx,0,8,08,E2,20,00,44,66,FC,52,
10079944,0300410E,true,Rx,0,8,37,D2,99,08,07,D2,6C,00,
10086992,0100082C,true,Rx,0,8,00,C0,87,DB,65,F3,00,6A,
10087277,0110483C,true,Rx,0,8,08,E2,20,00,44,66,FC,52,
10089955,00800006,true,Rx,0,8,C9,E5,0D,E5,41,E5,26,6F,
10090245,0090411E,true,Rx,0,8,02,00,E0,00,00,00,00,00,
10090524,0300410E,true,Rx,0,8,B7,D2,19,08,87,D2,FC,00,
10090815,03800006,true,Rx,0,8,30,00,00,00,00,00,00,00,
10096995,0100082C,true,Rx,0,8,00,C0,87,DB,65,F3,00,6A,
10097270,0110483C,true,Rx,0,8,08,E2,20,00,44,66,FC,52,
10099969,0300410E,true,Rx,0,8,B7,D2,19,08,87,D2,FC,00,
10106985,0100082C,true,Rx,0,8,00,C0,87,DB,65,F3,00,6A,
10107271,0110483C,true,Rx,0,8,08,E2,20,00,44,66,FC,52,
10109970,00800006,true,Rx,0,8,09,E5,0D,E5,41,E5,A6,6F,
10110259,0090411E,true,Rx,0,8,C2,00,E0,00,00,00,00,00,
10110540,0300410E,true,Rx,0,8,37,D2,99,08,07,D2,6C,00,
10110840,03800006,true,Rx,0,8,70,00,00,00,00,00,00,00,
10116968,0100082C,true,Rx,0,8,00,C0,87,DB,65,F3,00,6A,
10117253,0110483C,true,Rx,0,8,08,E2,A0,00,44,66,FC,52,
10119982,0300410E,true,Rx,0,8,B7,D2,19,08,87,D2,FC,00,
10120272,19E00006,true,Rx,0,8,00,00,18,E0,49,00,40,00,
10126982,0100082C,true,Rx,0,8,00,C0,87,DB,65,F3,00,6A,
10127257,0110483C,true,Rx,0,8,08,E2,20,00,44,66,FC,52,
10129997,00800006,true,Rx,0,8,41,E5,0D,E5,41,E5,26,6F,
10130286,0090411E,true,Rx,0,8,02,00,60,00,00,00,00,00,
10130567,0300410E,true,Rx,0,8,37,D2,19,08,07,D2,6C,00,
10130866,03800006,true,Rx,0,8,30,00,00,00,00,00,00,00,
10137016,0100082C,true,Rx,0,8,00,C0,87,DB,75,F3,00,6A,
10137292,0110483C,true,Rx,0,8,08,E2,20,00,44,66,FC,52,
10140001,0300410E,true,Rx,0,8,B7,D2,99,08,87,D2,FC,00,
10146976,0100082C,true,Rx,0,8,00,C0,87,DB,65,F3,00,6A,
10147251,0110483C,true,Rx,0,8,08,E2,20,00,44,66,FC,52,
10150011,00800006,true,Rx,0,8,89,E5,0D,E5,41,E5,26,6F,
10150301,0090411E,true,Rx,0,8,02,00,E0,00,00,00,00,00,
10150581,0300410E,true,Rx,0,8,B7,D2,19,08,87,D2,FC,00,
10150871,03800006,true,Rx,0,8,30,00,00,00,00,00,00,00,
10157011,0100082C,true,Rx,0,8,00,C0,87,DB,65,F3,00,6A,
10157286,0110483C,true,Rx,0,8,08,E2,20,00,44,66,FC,52,
10157577,1B700030,true,Rx,0,8,2C,8F,22,00,00,C0,03,00,
10160030,0300410E,true,Rx,0,8,37,D2,19,09,07,D2,6C,00,
10166975,0100082C,true,Rx,0,8,00,C0,87,DB,65,F3,00,6A,
10167251,0110483C,true,Rx,0,8,08,E2,A0,00,44,66,FC,52,
10170032,00800006,true,Rx,0,8,C9,E5,0D,E5,41,E5,A6,6F,
10170321,0090411E,true,Rx,0,8,42,00,E0,00,00,00,00,00,
10170592,0300410E,true,Rx,0,8,B7,D2,99,09,87,D2,FC,00,
10170893,03800006,true,Rx,0,8,30,00,00,00,00,00,00,00,
10171184,19E00006,true,Rx,0,8,00,00,18,C0,49,00,40,00,
10177006,0100082C,true,Rx,0,8,00,C0,87,DB,65,F3,00,6A,
10177281,0110483C,true,Rx,0,8,08,E2,20,00,44,66,FC,52,
10180041,0300410E,true,Rx,0,8,B7,D2,19,09,87,D2,FC,00,
10187006,0100082C,true,Rx,0,8,00,C0,87,DB,65,F3,00,6A,
10187281,0110483C,true,Rx,0,8,08,E2,20,00,44,66,FC,52,
10190061,00800006,true,Rx,0,8,01,E5,0D,E5,41,E5,26,6F,
10190351,0090411E,true,Rx,0,8,02,00,60,00,00,00,00,00,
10190631,0300410E,true,Rx,0,8,37,D2,19,09,07,D2,6C,00,
10190932,03800006,true,Rx,0,8,30,00,00,00,00,00,00,00,
10191215,1B600002,true,Rx,0,8,00,80,00,5C,00,1A,4C,00,
10197047,0100082C,true,Rx,0,8,00,C0,87,DB,65,F3,00,6A,
10197333,0110483C,true,Rx,0,8,08,E2,20,00,44,66,FC,52,
10200061,0300410E,true,Rx,0,8,B7,D2,99,09,87,D2,FC,00,
10206985,0100082C,true,Rx,0,8,00,C0,87,DB,65,F3,00,6A,
10207271,0110483C,true,Rx,0,8,08,E2,20,00,44,66,FC,52,
10210072,00800006,true,Rx,0,8,49,E5,0D,E5,41,E5,A6,6F,
10210362,0090411E,true,Rx,0,8,C2,00,E0,00,00,00,00,00,
10210642,0300410E,true,Rx,0,8,37,D2,19,09,07,D2,6C,00,
10210943,03800006,true,Rx,0,8,70,00,00,00,00,00,00,00,
10216987,0100082C,true,Rx,0,8,00,C0,87,DB,65,F3,00,6A,
10217262,0110483C,true,Rx,0,8,08,E2,A0,00,44,66,FC,52,
10220084,0300410E,true,Rx,0,8,B7,D2,19,09,87,D2,FC,00,
10220375,19E00006,true,Rx,0,8,00,00,18,E0,49,00,40,00,
10227001,0100082C,true,Rx,0,8,00,C0,87,DB,65,F3,00,6A,
10227288,0110483C,true,Rx,0,8,08,E2,20,00,44,66,FC,52,
10230088,00800006,true,Rx,0,8,89,E5,0D,E5,41,E5,26,6F,
10230379,0090411E,true,Rx,0,8,02,00,E0,00,00,00,00,00,
10230658,0300410E,true,Rx,0,8,B7,D2,99,09,87,D2,FC,00,
10230949,03800006,true,Rx,0,8,30,00,00,00,00,00,00,00,
10236985,0100082C,true,Rx,0,8,00,C0,87,DB,65,F3,00,6A,
10237262,0110483C,true,Rx,0,8,08,E2,20,00,44,66,FC,52,
10240102,0300410E,true,Rx,0,8,37,D2,19,09,07,D2,6C,00,
10246974,0100082C,true,Rx,0,8,00,C0,87,DB,65,F3,00,6A,
10247251,0110483C,true,Rx,0,8,08,E2,20,00,44,66,FC,52,
10250123,00800006,true,Rx,0,8,C1,E5,0D,E5,41,E5,26,6F,
10250414,0090411E,true,Rx,0,8,02,00,60,00,00,00,00,00,
10250683,0300410E,true,Rx,0,8,B7,D2,19,09,87,D2,FC,00,
10250984,03800006,true,Rx,0,8,30,00,00,00,00,00,00,00,
10252081,1BA0493C,true,Rx,0,8,04,17,10,03,01,02,01,02,
10252370,1BE0493C,true,Rx,0,8,10,00,00,00,00,59,56,31,
10256988,0100082C,true,Rx,0,8,00,C0,87,DB,65,F3,00,6A,
10257274,0110483C,true,Rx,0,8,08,E2,20,00,44,66,FC,52,
10260189,0300410E,true,Rx,0,8,B7,D2,99,08,87,D2,FC,00,
10266979,0100082C,true,Rx,0,8,00,C0,87,DB,65,F3,00,6A,
10267255,0110483C,true,Rx,0,8,08,E2,A0,00,44,66,FC,52,
10270138,00800006,true,Rx,0,8,09,E5,0D,E5,41,E5,A6,6F,
10270419,0090411E,true,Rx,0,8,42,00,E0,00,00,00,00,00,
10270698,0300410E,true,Rx,0,8,37,D2,19,08,07,D2,6C,00,
10270999,03800006,true,Rx,0,8,30,00,00,00,00,00,00,00,
10271292,19E00006,true,Rx,0,8,00,00,18,C0,49,00,40,00,
10277030,0100082C,true,Rx,0,8,00,C0,87,DB,75,F3,00,6A,
10277306,0110483C,true,Rx,0,8,08,E2,20,00,44,66,FC,52,
10280147,0300410E,true,Rx,0,8,B7,D2,19,08,87,D2,FC,00,
10286979,0100082C,true,Rx,0,8,00,C0,87,DB,65,F3,00,6A,
10287266,0110483C,true,Rx,0,8,08,E2,20,00,44,66,FC,52,
10290159,00800006,true,Rx,0,8,49,E5,0D,E5,41,E5,26,6F,
10290439,0090411E,true,Rx,0,8,02,00,E0,00,00,00,00,00,
10290719,0300410E,true,Rx,0,8,37,D2,99,08,07,D2,6C,00,
10291021,03800006,true,Rx,0,8,30,00,00,00,00,00,00,00,
10296982,0100082C,true,Rx,0,8,00,C0,87,DB,65,F3,00,6A,
10297258,0110483C,true,Rx,0,8,08,E2,20,00,44,66,FC,52,
10300161,0300410E,true,Rx,0,8,B7,D2,19,08,87,D2,FC,00,
10306995,0100082C,true,Rx,0,8,00,C0,87,DB,65,F3,00,6A,
10307271,0110483C,true,Rx,0,8,08,E2,20,00,44,66,FC,52,
10310175,00800006,true,Rx,0,8,81,E5,0D,E5,41,E5,A6,6F,
10310466,0090411E,true,Rx,0,8,C2,00,60,00,00,00,00,00,
10310735,0300410E,true,Rx,0,8,B7,D2,19,08,87,D2,FC,00,
10311037,03800006,true,Rx,0,8,70,00,00,00,00,00,00,00,
10317000,0100082C,true,Rx,0,8,00,C0,87,DB,65,F3,00,6A,
10317276,0110483C,true,Rx,0,8,08,E2,A0,00,44,66,FC,52,
10320191,0300410E,true,Rx,0,8,37,D2,99,08,07,D2,6C,00,
10320470,19E00006,true,Rx,0,8,00,00,18,E0,49,00,40,00,
10326985,0100082C,true,Rx,0,8,00,C0,87,DB,65,F3,00,6A,
10327271,0110483C,true,Rx,0,8,08,E2,20,00,44,66,FC,52,
10330196,00800006,true,Rx,0,8,C9,E5,0D,E5,41,E5,26,6F,
10330475,0090411E,true,Rx,0,8,02,00,E0,00,00,00,00,00,
10330754,0300410E,true,Rx,0,8,B7,D2,19,08,87,D2,FC,00,
10331057,03800006,true,Rx,0,8,30,00,00,00,00,00,00,00,
10336990,0100082C,true,Rx,0,8,00,C0,87,DB,65,F3,00,6A,
10337267,0110483C,true,Rx,0,8,08,E2,20,00,44,66,FC,52,
10340263,0300410E,true,Rx,0,8,B7,D2,19,08,87,D2,FC,00,
10346980,0100082C,true,Rx,0,8,00,C0,87,DB,65,F3,00,6A,
10347257,0110483C,true,Rx,0,8,08,E2,20,00,44,66,FC,52,
10350212,00800006,true,Rx,0,8,09,E5,0D,E5,41,E5,26,6F,
10350502,0090411E,true,Rx,0,8,02,00,E0,00,00,00,00,00,
10350781,0300410E,true,Rx,0,8,37,D2,99,08,07,D2,6C,00,
10351073,03800006,true,Rx,0,8,30,00,00,00,00,00,00,00,
10357006,0100082C,true,Rx,0,8,00,C0,87,DB,65,F3,00,6A,
10357282,0110483C,true,Rx,0,8,08,E2,20,00,44,66,FC,52,
10360227,0300410E,true,Rx,0,8,B7,D2,19,09,87,D2,FC,00,
10360507,1B600002,true,Rx,0,8,00,80,00,4C,00,1A,4C,00,
10367032,0100082C,true,Rx,0,8,00,C0,87,DB,75,F3,00,6A,
10367307,0110483C,true,Rx,0,8,08,E2,A0,00,44,66,FC,52,
10367597,1A200020,true,Rx,0,8,0E,00,02,3E,00,00,02,3E,
10367879,1AE0092C,true,Rx,0,8,C0,00,22,E0,41,A0,00,00,
10368158,1B700030,true,Rx,0,8,2C,8F,22,00,00,C0,03,00,
10370254,00800006,true,Rx,0,8,41,E5,0D,E5,41,E5,A6,6F,
10370544,0090411E,true,Rx,0,8,42,00,60,00,00,00,00,00,
10370823,0300410E,true,Rx,0,8,37,D2,19,09,07,D2,6C,00,
10371115,03800006,true,Rx,0,8,30,00,00,00,00,00,00,00,
10371405,19E00006,true,Rx,0,8,00,00,18,C0,49,00,40,00,
10377011,0100082C,true,Rx,0,8,00,C0,87,DB,65,F3,00,6A,
10377298,0110483C,true,Rx,0,8,08,E2,20,00,44,66,FC,52,
10380243,0300410E,true,Rx,0,8,B7,D2,99,09,87,D2,FC,00,
10386991,0100082C,true,Rx,0,8,00,C0,87,DB,65,F3,00,6A,
10387267,0110483C,true,Rx,0,8,08,E2,20,00,44,66,FC,52,
10390254,00800006,true,Rx,0,8,89,E5,0D,E5,41,E5,26,6F,
10390543,0090411E,true,Rx,0,8,02,00,E0,00,00,00,00,00,
10390812,0300410E,true,Rx,0,8,B7,D2,19,09,87,D2,FC,00,
10391115,03800006,true,Rx,0,8,30,00,00,00,00,00,00,00,
10397018,0100082C,true,Rx,0,8,00,C0,87,DB,65,F3,00,6A,
10397293,0110483C,true,Rx,0,8,08,E2,20,00,44,66,FC,52,
10400269,0300410E,true,Rx,0,8,37,D2,19,09,07,D2,6C,00,
10407060,0100082C,true,Rx,0,8,00,C0,87,DB,65,F3,00,6A,
10407335,0110483C,true,Rx,0,8,08,E2,20,00,44,66,FC,52,
10410269,00800006,true,Rx,0,8,C9,E5,0D,E5,41,E5,A6,6F,
10410559,0090411E,true,Rx,0,8,C2,00,E0,00,00,00,00,00,
10410839,0300410E,true,Rx,0,8,B7,D2,99,09,87,D2,FC,00,
10411130,03800006,true,Rx,0,8,70,00,00,00,00,00,00,00,
10416992,0100082C,true,Rx,0,8,00,C0,87,DB,65,F3,00,6A,
10417267,0110483C,true,Rx,0,8,08,E2,A0,00,44,66,FC,52,
10420346,0300410E,true,Rx,0,8,B7,D2,19,09,87,D2,FC,00,
10420625,19E00006,true,Rx,0,8,00,00,18,E0,49,00,40,00,
10426986,0100082C,true,Rx,0,8,00,C0,87,DB,65,F3,00,6A,
10427261,0110483C,true,Rx,0,8,08,E2,20,00,44,66,FC,52,
10430299,00800006,true,Rx,0,8,01,E5,0D,E5,41,E5,26,6F,
10430588,0090411E,true,Rx,0,8,02,00,60,00,00,00,00,00,
10430869,0300410E,true,Rx,0,8,37,D2,19,09,07,D2,6C,00,
10431170,03800006,true,Rx,0,8,30,00,00,00,00,00,00,00,
10436991,0100082C,true,Rx,0,8,00,C0,87,DB,65,F3,00,6A,
10437276,0110483C,true,Rx,0,8,08,E2,20,00,44,66,FC,52,
10440304,0300410E,true,Rx,0,8,B7,D2,99,09,87,D2,FC,00,
10446981,0100082C,true,Rx,0,8,00,C0,87,DB,65,F3,00,6A,
10447256,0110483C,true,Rx,0,8,08,E2,20,00,44,66,FC,52,
10450314,00800006,true,Rx,0,8,49,E5,0D,E5,41,E5,26,6F,
10450604,0090411E,true,Rx,0,8,02,00,E0,00,00,00,00,00,
10450885,0300410E,true,Rx,0,8,37,D2,19,09,07,D2,6C,00,
10451186,03800006,true,Rx,0,8,30,00,00,00,00,00,00,00,
10457027,0100082C,true,Rx,0,8,00,C0,87,DB,75,F3,00,6A,
10457303,0110483C,true,Rx,0,8,08,E2,20,00,44,66,FC,52,
10460319,0300410E,true,Rx,0,8,B7,D2,19,09,87,D2,FC,00,
10466976,0100082C,true,Rx,0,8,00,C0,87,DB,65,F3,00,6A,
10467261,0110483C,true,Rx,0,8,08,E2,A0,00,44,66,FC,52,
10470330,00800006,true,Rx,0,8,89,E5,0D,E5,41,E5,A6,6F,
10470619,0090411E,true,Rx,0,8,42,00,E0,00,00,00,00,00,
10470891,0300410E,true,Rx,0,8,B7,D2,99,09,87,D2,FC,00,
10471191,03800006,true,Rx,0,8,30,00,00,00,00,00,00,00,
10471481,19E00006,true,Rx,0,8,00,00,18,C0,49,00,40,00,
10477028,0100082C,true,Rx,0,8,00,C0,87,DB,65,F3,00,6A,
10477303,0110483C,true,Rx,0,8,08,E2,20,00,44,66,FC,52,
10480340,0300410E,true,Rx,0,8,37,D2,19,09,07,D2,6C,00,
10487017,0100082C,true,Rx,0,8,00,C0,87,DB,65,F3,00,6A,
10487293,0110483C,true,Rx,0,8,08,E2,20,00,44,66,FC,52,
10490361,00800006,true,Rx,0,8,C1,E5,0D,E5,41,E5,26,6F,
10490650,0090411E,true,Rx,0,8,02,00,60,00,00,00,00,00,
10490922,0300410E,true,Rx,0,8,B7,D2,19,09,87,D2,FC,00,
10491222,03800006,true,Rx,0,8,30,00,00,00,00,00,00,00,
10497012,0100082C,true,Rx,0,8,00,C0,87,DB,65,F3,00,6A,
10497287,0110483C,true,Rx,0,8,08,E2,20,00,44,66,FC,52,
10500417,0300410E,true,Rx,0,8,B7,D2,99,09,87,D2,FC,00,
10501992,1BA0493C,true,Rx,0,8,05,03,01,01,01,02,01,03,
10502272,1BE0493C,true,Rx,0,8,01,00,2A,88,9B,A5,02,04,
10507033,0100082C,true,Rx,0,8,00,C0,87,DB,65,F3,00,6A,
10507319,0110483C,true,Rx,0,8,08,E2,20,00,44,66,FC,52,
10510378,00800006,true,Rx,0,8,09,E5,0D,E5,41,E5,A6,6F,
10510658,0090411E,true,Rx,0,8,C2,00,E0,00,00,00,00,00,
10510939,0300410E,true,Rx,0,8,37,D2,19,09,07,D2,6C,00,
10511239,03800006,true,Rx,0,8,70,00,00,00,00,00,00,00,
10517010,0100082C,true,Rx,0,8,00,C0,87,DB,65,F3,00,6A,
10517285,0110483C,true,Rx,0,8,08,E2,A0,00,44,66,FC,52,
10520385,0300410E,true,Rx,0,8,B7,D2,19,09,87,D2,FC,00,
10520665,19E00006,true,Rx,0,8,00,00,18,E0,49,00,40,00,
10527036,0100082C,true,Rx,0,8,00,C0,87,DB,65,F3,00,6A,
10527312,0110483C,true,Rx,0,8,08,E2,20,00,44,66,FC,52,
10530390,00800006,true,Rx,0,8,49,E5,0D,E5,41,E5,26,6F,
10530681,0090411E,true,Rx,0,8,02,00,E0,00,00,00,00,00,
10530962,0300410E,true,Rx,0,8,37,D2,99,09,07,D2,6C,00,
10531262,03800006,true,Rx,0,8,30,00,00,00,00,00,00,00,
10531542,1B600002,true,Rx,0,8,00,80,00,4C,00,1A,4C,00,
10537067,0100082C,true,Rx,0,8,00,C0,87,DB,65,F3,00,6A,
10537342,0110483C,true,Rx,0,8,08,E2,20,00,44,66,FC,52,
10540401,0300410E,true,Rx,0,8,B7,D2,19,09,87,D2,FC,00,
10546985,0100082C,true,Rx,0,8,00,C0,87,DB,75,F3,00,6A,
10547270,0110483C,true,Rx,0,8,08,E2,20,00,44,66,FC,52,
10550411,00800006,true,Rx,0,8,81,E5,0D,E5,41,E5,26,6F,
10550701,0090411E,true,Rx,0,8,02,00,60,00,00,00,00,00,
10550982,0300410E,true,Rx,0,8,B7,D2,19,09,87,D2,FC,00,
10551272,03800006,true,Rx,0,8,30,00,00,00,00,00,00,00,
10557001,0100082C,true,Rx,0,8,00,C0,87,DB,65,F3,00,6A,
10557287,0110483C,true,Rx,0,8,08,E2,20,00,44,66,FC,52,
10560427,0300410E,true,Rx,0,8,37,D2,99,08,07,D2,6C,00,
10566981,0100082C,true,Rx,0,8,00,C0,87,DB,65,F3,00,6A,
10567266,0110483C,true,Rx,0,8,08,E2,A0,00,44,66,FC,52,
10570427,00800006,true,Rx,0,8,C9,E5,0D,E5,41,E5,A6,6F,
10570718,0090411E,true,Rx,0,8,42,00,E0,00,00,00,00,00,
10570999,0300410E,true,Rx,0,8,B7,D2,19,08,87,D2,FC,00,
10571289,03800006,true,Rx,0,8,30,00,00,00,00,00,00,00,
10571580,19E00006,true,Rx,0,8,00,00,18,C0,49,00,40,00,
10577043,0100082C,true,Rx,0,8,00,C0,87,DB,65,F3,00,6A,
10577318,0110483C,true,Rx,0,8,08,E2,20,00,44,66,FC,52,
10577609,1B700030,true,Rx,0,8,3C,8F,22,00,00,C0,03,00,
10580503,0300410E,true,Rx,0,8,B7,D2,19,08,87,D2,FC,00,
10587016,0100082C,true,Rx,0,8,00,C0,87,DB,65,F3,00,6A,
10587291,0110483C,true,Rx,0,8,08,E2,20,00,44,66,FC,52,
10590452,00800006,true,Rx,0,8,09,E5,0D,E5,41,E5,26,6F,
10590743,0090411E,true,Rx,0,8,02,00,E0,00,00,00,00,00,
10591013,0300410E,true,Rx,0,8,37,D2,99,08,07,D2,6C,00,
10591314,03800006,true,Rx,0,8,30,00,00,00,00,00,00,00,
10597001,0100082C,true,Rx,0,8,00,C0,87,DB,65,F3,00,6A,
10597276,0110483C,true,Rx,0,8,08,E2,20,00,44,66,FC,52,
10600457,0300410E,true,Rx,0,8,B7,D2,19,08,87,D2,FC,00,
10607001,0100082C,true,Rx,0,8,00,C0,87,DB,65,F3,00,6A,
10607276,0110483C,true,Rx,0,8,08,E2,20,00,44,66,FC,52,
10610478,00800006,true,Rx,0,8,41,E5,0D,E5,41,E5,A6,6F,
10610769,0090411E,true,Rx,0,8,C2,00,60,00,00,00,00,00,
10611058,0300410E,true,Rx,0,8,37,D2,19,08,07,D2,6C,00,
10611338,03800006,true,Rx,0,8,70,00,00,00,00,00,00,00,
10616996,0100082C,true,Rx,0,8,00,C0,87,DB,65,F3,00,6A,
10617271,0110483C,true,Rx,0,8,08,E2,A0,00,44,66,FC,52,
10620484,0300410E,true,Rx,0,8,B7,D2,99,08,87,D2,FC,00,
10620763,19E00006,true,Rx,0,8,00,00,18,E0,49,00,40,00,
10626990,0100082C,true,Rx,0,8,00,C0,87,DB,65,F3,00,6A,
10627275,0110483C,true,Rx,0,8,08,E2,20,00,44,66,FC,52,
10630489,00800006,true,Rx,0,8,89,E5,0D,E5,41,E5,26,6F,
10630778,0090411E,true,Rx,0,8,02,00,E0,00,00,00,00,00,
10631057,0300410E,true,Rx,0,8,B7,D2,19,08,87,D2,FC,00,
10631348,03800006,true,Rx,0,8,30,00,00,00,00,00,00,00,
10637016,0100082C,true,Rx,0,8,00,C0,87,DB,75,F3,00,6A,
10637292,0110483C,true,Rx,0,8,08,E2,20,00,44,66,FC,52,
10640505,0300410E,true,Rx,0,8,37,D2,19,08,07,D2,6C,00,
10646986,0100082C,true,Rx,0,8,00,C0,87,DB,65,F3,00,6A,
10647261,0110483C,true,Rx,0,8,08,E2,20,00,44,66,FC,52,
10650505,00800006,true,Rx,0,8,C9,E5,0D,E5,41,E5,26,6F,
10650795,0090411E,true,Rx,0,8,02,00,E0,00,00,00,00,00,
10651073,0300410E,true,Rx,0,8,B7,D2,99,08,87,D2,FC,00,
10651375,03800006,true,Rx,0,8,30,00,00,00,00,00,00,00,
10657022,0100082C,true,Rx,0,8,00,C0,87,DB,65,F3,00,6A,
10657307,0110483C,true,Rx,0,8,08,E2,20,00,44,66,FC,52,
10660582,0300410E,true,Rx,0,8,B7,D2,19,08,87,D2,FC,00,
10666991,0100082C,true,Rx,0,8,00,C0,87,DB,65,F3,00,6A,
10667267,0110483C,true,Rx,0,8,08,E2,A0,00,44,66,FC,52,
10670531,00800006,true,Rx,0,8,01,E5,0D,E5,41,E5,A6,6F,
10670821,0090411E,true,Rx,0,8,42,00,60,00,00,00,00,00,
10671100,0300410E,true,Rx,0,8,37,D2,19,08,07,D2,6C,00,
10671401,03800006,true,Rx,0,8,30,00,00,00,00,00,00,00,
10671690,19E00006,true,Rx,0,8,00,00,18,C0,49,00,40,00,
10677052,0100082C,true,Rx,0,8,00,C0,87,DB,65,F3,00,6A,
10677329,0110483C,true,Rx,0,8,08,E2,20,00,44,66,FC,52,
10680541,0300410E,true,Rx,0,8,B7,D2,99,08,87,D2,FC,00,
10682033,1A200020,true,Rx,0,8,4E,00,02,3E,00,00,02,3E,
10687029,0100082C,true,Rx,0,8,00,C0,87,DB,65,F3,00,6A,
10687305,0110483C,true,Rx,0,8,08,E2,20,00,44,66,FC,52,
10690558,00800006,true,Rx,0,8,49,E5,0D,E5,41,E5,26,6F,
10690838,0090411E,true,Rx,0,8,02,00,E0,00,00,00,00,00,
10691128,0300410E,true,Rx,0,8,37,D2,19,08,07,D2,6C,00,
10691417,03800006,true,Rx,0,8,30,00,00,00,00,00,00,00,
10697016,0100082C,true,Rx,0,8,00,C0,87,DB,65,F3,00,6B,
10697292,0110483C,true,Rx,0,8,08,E2,20,00,44,66,FC,52,
10700556,0300410E,true,Rx,0,8,B7,D2,19,08,87,D2,FC,00,
10700846,1B600002,true,Rx,0,8,00,80,00,4C,00,1A,4C,00,
10707000,0100082C,true,Rx,0,8,00,C0,87,DB,65,F3,00,6B,
10707277,0110483C,true,Rx,0,8,08,E2,20,00,44,66,FC,52,
10710571,00800006,true,Rx,0,8,89,E5,0D,E5,41,E5,A6,6F,
10710861,0090411E,true,Rx,0,8,C2,00,E0,00,00,00,00,00,
10711141,0300410E,true,Rx,0,8,B7,D2,99,08,87,D2,FC,00,
10711430,03800006,true,Rx,0,8,70,00,00,00,00,00,00,00,
10717026,0100082C,true,Rx,0,8,00,C0,87,DB,65,F3,00,6B,
10717303,0110483C,true,Rx,0,8,08,E2,A0,00,44,66,FC,52,
10720587,0300410E,true,Rx,0,8,37,D2,19,08,07,D2,6C,00,
10720866,19E00006,true,Rx,0,8,00,00,18,E0,49,00,40,00,
10727000,0100082C,true,Rx,0,8,00,C0,87,DB,65,F3,00,6B,
10727277,0110483C,true,Rx,0,8,08,E4,20,00,44,66,FC,52,
10730592,00800006,true,Rx,0,8,C1,E5,0D,E5,41,E5,26,6F,
10730882,0090411E,true,Rx,0,8,02,00,60,00,00,00,00,00,
10731161,0300410E,true,Rx,0,8,B7,D2,19,08,87,D2,FC,00,
10731461,03800006,true,Rx,0,8,30,00,00,00,00,00,00,00,
10737026,0100082C,true,Rx,0,8,00,C0,87,DB,65,F3,00,6B,
10737303,0110483C,true,Rx,0,8,08,E4,20,00,44,66,FC,52,
10740659,0300410E,true,Rx,0,8,B7,D2,99,08,87,D2,FC,00,
10746996,0100082C,true,Rx,0,8,00,C0,87,DB,65,F3,00,6B,
10747273,0110483C,true,Rx,0,8,08,E4,20,00,44,66,FC,52,
10750608,00800006,true,Rx,0,8,09,E5,0D,E5,41,E5,26,6F,
10750899,0090411E,true,Rx,0,8,02,00,E0,00,00,00,00,00,
10751178,0300410E,true,Rx,0,8,37,D2,19,08,07,D2,6C,00,
10751477,03800006,true,Rx,0,8,30,00,00,00,00,00,00,00,
10752160,1BA0493C,true,Rx,0,8,06,02,01,07,04,01,02,01,
10752429,1BE0493C,true,Rx,0,8,02,4A,8F,00,3C,04,19,24,
10757072,0100082C,true,Rx,0,8,00,C0,87,DB,65,F3,00,6B,
10757349,0110483C,true,Rx,0,8,08,E4,20,00,44,66,FC,52,
10760624,0300410E,true,Rx,0,8,B7,D2,19,09,87,D2,FC,00,
10767033,0100082C,true,Rx,0,8,00,C0,87,DB,75,F3,00,6B,
10767309,0110483C,true,Rx,0,8,08,E4,A0,00,44,66,FC,52,
10770634,00800006,true,Rx,0,8,49,E5,0D,E5,41,E5,A6,6F,
10770915,0090411E,true,Rx,0,8,42,00,E0,00,00,00,00,00,
10771194,0300410E,true,Rx,0,8,37,D2,99,09,07,D2,6C,00,
10771494,03800006,true,Rx,0,8,30,00,00,00,00,00,00,00,
10771784,19E00006,true,Rx,0,8,00,00,18,C0,49,00,40,00,
10777052,0100082C,true,Rx,0,8,00,C0,87,DB,65,F3,00,6B,
10777329,0110483C,true,Rx,0,8,08,E4,20,00,44,66,FC,52,
10780643,0300410E,true,Rx,0,8,B7,D2,19,09,87,D2,FC,00,
10787032,0100082C,true,Rx,0,8,00,C0,87,DB,65,F3,00,6B,
10787308,0110483C,true,Rx,0,8,08,E4,20,00,44,66,FC,52,
10787598,1AE0092C,true,Rx,0,8,00,00,22,E0,41,A0,00,00,
10787879,1B700030,true,Rx,0,8,2C,8F,22,00,00,C0,03,00,
10790653,00800006,true,Rx,0,8,81,E5,0D,E5,41,E5,26,6F,
10790944,0090411E,true,Rx,0,8,02,00,60,00,00,00,00,00,
10791222,0300410E,true,Rx,0,8,B7,D2,19,09,87,D2,FC,00,
10791522,03800006,true,Rx,0,8,30,00,00,00,00,00,00,00,
10797005,0100082C,true,Rx,0,8,00,C0,87,DB,65,F3,00,6B,
10797292,0110483C,true,Rx,0,8,08,E4,20,00,44,66,FC,52,
10800659,0300410E,true,Rx,0,8,37,D2,99,09,07,D2,6C,00,
10807006,0100082C,true,Rx,0,8,00,C0,87,DB,65,F3,00,6B,
10807283,0110483C,true,Rx,0,8,08,E4,20,00,44,66,FC,52,
10810670,00800006,true,Rx,0,8,C9,E5,0D,E5,41,E5,A6,6F,
10810962,0090411E,true,Rx,0,8,C2,00,E0,00,00,00,00,00,
10811239,0300410E,true,Rx,0,8,B7,D2,19,09,87,D2,FC,00,
10811529,03800006,true,Rx,0,8,70,00,00,00,00,00,00,00,
10817032,0100082C,true,Rx,0,8,00,C0,87,DB,65,F3,00,6B,
10817309,0110483C,true,Rx,0,8,08,E6,AA,00,44,66,FC,52,
10820736,0300410E,true,Rx,0,8,B7,D2,19,09,87,D2,FC,00,
10821028,19E00006,true,Rx,0,8,00,00,18,E0,49,00,40,00,
10826995,0100082C,true,Rx,0,8,00,C0,87,DB,65,F3,00,6B,
10827282,0110483C,true,Rx,0,8,08,E6,2A,00,44,66,FC,52,
10830689,00800006,true,Rx,0,8,09,E5,0D,E5,41,E5,26,6F,
10830981,0090411E,true,Rx,0,8,02,00,E0,00,00,00,00,00,
10831259,0300410E,true,Rx,0,8,37,D2,99,09,07,D2,6C,00,
10831559,03800006,true,Rx,0,8,30,00,00,00,00,00,00,00,
10837064,0100082C,true,Rx,0,8,00,C8,87,DB,65,F3,00,6B,
10837350,0110483C,true,Rx,0,8,08,E6,2A,00,44,66,FC,52,
10840706,0300410E,true,Rx,0,8,B7,D2,19,09,87,D2,FC,00,
10846991,0100082C,true,Rx,0,8,00,C8,87,DB,65,F3,00,6B,
10847267,0110483C,true,Rx,0,8,08,E6,2A,00,44,66,FC,52,
10850716,00800006,true,Rx,0,8,41,E5,0D,E5,41,E5,26,6F,
10851008,0090411E,true,Rx,0,8,02,00,60,00,00,00,00,00,
10851285,0300410E,true,Rx,0,8,37,D2,19,09,07,D2,6C,00,
10851585,03800006,true,Rx,0,8,30,00,00,00,00,00,00,00,
10857059,0100082C,true,Rx,0,8,00,C8,87,DB,75,F3,00,6B,
10857334,0110483C,true,Rx,0,8,08,E9,2A,00,44,66,FC,52,
10860721,0300410E,true,Rx,0,8,B7,D2,99,09,87,D2,FC,00,
10866997,0100082C,true,Rx,0,8,00,C8,87,DB,65,F3,00,6B,
10867272,0110483C,true,Rx,0,8,08,E9,AA,00,44,66,FC,52,
10868017,01C04026,true,Rx,0,8,80,00,80,00,80,00,80,00,
10868296,02000026,true,Rx,0,8,7F,34,00,CC,4B,00,E0,AC,
10868576,02104136,true,Rx,0,8,BB,00,3F,FF,07,E0,00,00,
10868866,02804026,true,Rx,0,8,B7,FF,77,FF,F2,00,1E,0A,
10869161,02C00020,true,Rx,0,8,00,00,00,00,00,00,00,00,
10869452,19A00002,true,Rx,0,8,12,00,00,00,00,00,00,07,
10870751,00800006,true,Rx,0,8,89,E5,0D,E5,41,E5,A6,6F,
10871043,0090411E,true,Rx,0,8,42,00,E0,00,00,00,00,00,
10871314,0300410E,true,Rx,0,8,B7,D2,19,09,87,D2,FC,00,
10871615,03800006,true,Rx,0,8,30,00,00,00,00,00,00,00,
10871906,19E00006,true,Rx,0,8,00,00,18,C0,49,00,40,00,
10872186,1B600002,true,Rx,0,8,00,80,00,4C,00,1A,4C,00,
10877148,0100082C,true,Rx,0,8,00,C8,87,DB,65,F3,00,6B,
10877423,0110483C,true,Rx,0,8,08,E9,2A,00,44,66,FC,52,
10880738,0300410E,true,Rx,0,8,37,D2,19,09,07,D2,6C,00,
10882097,01C04026,true,Rx,0,8,80,00,80,00,80,00,80,00,
10882378,02000026,true,Rx,0,8,7F,34,00,CC,4B,00,E0,AC,
10882667,02104136,true,Rx,0,8,BB,00,3F,FF,07,E0,00,00,
10882948,02804026,true,Rx,0,8,B7,FF,77,FF,F2,00,1E,0A,
10883241,02C00020,true,Rx,0,8,00,00,00,00,00,00,00,00,
10887113,0100082C,true,Rx,0,8,00,C8,87,DB,65,F3,00,6B,
10887399,0110483C,true,Rx,0,8,08,E9,2A,00,44,66,FC,52,
10890744,00800006,true,Rx,0,8,C9,E5,0D,E5,41,E5,26,6F,
10891036,0090411E,true,Rx,0,8,02,00,E0,00,00,00,00,00,
10891314,0300410E,true,Rx,0,8,F7,D2,99,09,87,D2,FC,00,
10891615,03800006,true,Rx,0,8,30,00,00,00,00,00,00,00,
10896091,01C04026,true,Rx,0,8,80,00,80,00,80,00,80,00,
10896367,02000026,true,Rx,0,8,7F,34,00,CC,4B,00,E0,AC,
10896657,02104136,true,Rx,0,8,BB,00,3F,FF,07,E0,00,00,
10896937,02804026,true,Rx,0,8,B7,FF,77,FF,F2,00,1E,0A,
10897218,0100082C,true,Rx,0,8,00,C8,87,DB,65,F3,00,6B,
10897497,0110483C,true,Rx,0,8,08,E9,2A,00,44,66,FC,52,
10897788,02C00020,true,Rx,0,8,00,01,00,00,00,02,75,81,
10898068,19A00002,true,Rx,0,8,6E,00,00,00,00,00,00,F7,
10900781,0300410E,true,Rx,0,8,B7,D2,19,09,87,D2,FC,00,
10907028,0100082C,true,Rx,0,8,00,C8,87,DB,65,F3,00,6B,
10907303,0110483C,true,Rx,0,8,08,E9,2A,00,44,66,FC,52,
10910033,01C04026,true,Rx,0,8,80,00,80,00,80,00,80,00,
10910322,02000026,true,Rx,0,8,7F,34,00,CC,4B,00,E0,AC,
10910601,02104136,true,Rx,0,8,BB,00,3F,FF,07,E0,00,00,
10910883,00800006,true,Rx,0,8,01,E5,0D,E5,41,E5,A6,6F,
10911175,0090411E,true,Rx,0,8,C2,00,60,00,00,00,00,00,
10911454,02804026,true,Rx,0,8,B7,FF,77,FF,F2,00,1E,0C,
10911745,02C00020,true,Rx,0,8,00,00,00,00,00,02,75,81,
10912026,0300410E,true,Rx,0,8,37,D2,19,09,07,D2,6C,00,
10912327,03800006,true,Rx,0,8,70,00,00,00,00,00,00,00,
10917074,0100082C,true,Rx,0,8,00,C8,87,DB,65,F3,00,6B,
10917349,0110483C,true,Rx,0,8,08,E9,AA,00,44,66,FC,52,
10920778,0300410E,true,Rx,0,8,B7,D2,99,09,87,D2,FC,00,
10921059,19E00006,true,Rx,0,8,00,00,18,E0,49,00,40,00,
10924093,01C04026,true,Rx,0,8,80,00,80,00,80,00,80,00,
10924379,02000026,true,Rx,0,8,7F,34,00,CC,4B,00,E0,AC,
10924659,02104136,true,Rx,0,8,BB,00,3F,FF,07,E0,00,00,
10924950,02804026,true,Rx,0,8,B7,FF,77,FF,F2,00,1E,0C,
10925240,02C00020,true,Rx,0,8,00,00,00,00,00,02,75,81,
10925530,19A00002,true,Rx,0,8,12,00,00,00,00,00,00,F7,
10927186,0100082C,true,Rx,0,8,00,C8,87,DB,65,F3,00,6B,
10927475,0110483C,true,Rx,0,8,08,E9,2A,00,44,66,FC,52,
10930787,00800006,true,Rx,0,8,49,E5,0D,E5,41,E5,26,6F,
10931073,0090411E,true,Rx,0,8,02,00,E0,00,00,00,00,00,
10931363,0300410E,true,Rx,0,8,37,D2,19,09,07,D2,6C,00,
10931644,03800006,true,Rx,0,8,34,00,DE,61,0E,22,04,01,
10937058,0100082C,true,Rx,0,8,00,C8,87,DB,65,F3,00,6B,
10937344,0110483C,true,Rx,0,8,08,E9,6A,00,44,66,FC,52,
10938263,01C04026,true,Rx,0,8,80,00,80,00,80,00,80,00,
10938543,02000026,true,Rx,0,8,7F,34,00,CC,4B,00,E0,AC,
10938833,02104136,true,Rx,0,8,BB,00,3F,FF,07,E0,00,00,
10939116,02804026,true,Rx,0,8,37,FF,77,FF,F2,00,0E,0C,
10939406,02C00020,true,Rx,0,8,00,00,00,00,00,02,75,81,
10940830,0300410E,true,Rx,0,8,B7,D2,19,09,87,D2,FC,00,
10947027,0100082C,true,Rx,0,8,00,C8,84,E8,F5,F3,00,6B,
10947302,0110483C,true,Rx,0,8,08,E9,6A,00,44,66,FC,52,
10950803,00800006,true,Rx,0,8,89,E5,0D,E5,41,E5,26,6F,
10951090,0090411E,true,Rx,0,8,02,00,E0,00,00,00,00,00,
10951369,0300410E,true,Rx,0,8,B7,D2,99,09,87,D2,FC,00,
10951650,03800006,true,Rx,0,8,30,00,DE,61,0E,22,04,01,
10952281,01C04026,true,Rx,0,8,80,00,80,00,80,00,80,00,
10952560,02000026,true,Rx,0,8,7F,34,00,DC,4B,00,E0,AC,
10952850,02104136,true,Rx,0,8,BB,00,3F,FF,07,E0,00,00,
10953138,02804026,true,Rx,0,8,37,FF,77,FF,F2,00,0E,0C,
10953428,02C00020,true,Rx,0,8,00,00,00,00,00,02,75,81,
10953707,19A00002,true,Rx,0,8,02,00,00,00,00,00,00,F7,
10954637,1B200002,true,Rx,0,8,00,00,00,00,00,00,04,51,
10957270,0100082C,true,Rx,0,8,00,C0,84,E8,65,F3,00,6B,
10957545,0110483C,true,Rx,0,8,08,E9,6A,00,44,66,FC,52,
10960820,0300410E,true,Rx,0,8,37,D2,19,08,07,D2,6C,00,
10966255,01C04026,true,Rx,0,8,80,00,80,00,80,00,80,00,
10966530,02000026,true,Rx,0,8,7F,34,00,DC,4B,00,E0,AC,
10966819,02104136,true,Rx,0,8,BB,00,3F,FF,07,E0,00,00,
10967102,0100082C,true,Rx,0,8,00,C0,84,E8,65,F3,00,6B,
10967371,0110483C,true,Rx,0,8,08,E9,EA,00,44,66,FC,52,
10967662,02804026,true,Rx,0,8,37,FF,77,FF,F2,00,0E,0C,
10967953,02C00020,true,Rx,0,8,00,00,00,00,00,02,75,81,
10970860,00800006,true,Rx,0,8,C1,E5,0D,E5,41,E5,A6,6F,
10971146,0090411E,true,Rx,0,8,42,00,60,00,00,00,00,00,
10971426,0300410E,true,Rx,0,8,B7,D2,19,08,87,D2,FC,00,
10971706,03800006,true,Rx,0,8,30,00,DE,61,0E,22,04,01,
10971987,19E00006,true,Rx,0,8,00,00,18,C0,49,00,40,00,
10977073,0100082C,true,Rx,0,8,00,C0,84,E8,65,F3,00,6B,
10977348,0110483C,true,Rx,0,8,08,E9,6A,00,44,66,FC,52,
10980242,01C04026,true,Rx,0,8,80,00,80,00,80,00,80,00,
10980521,02000026,true,Rx,0,8,7F,34,00,DC,4B,00,E0,AC,
10980812,02104136,true,Rx,0,8,BB,00,3F,FF,07,E0,00,00,
10981093,02804026,true,Rx,0,8,37,FF,77,FF,F2,00,0E,0C,
10981385,02C00020,true,Rx,0,8,00,00,00,00,00,02,75,81,
10981665,0300410E,true,Rx,0,8,37,D2,99,08,07,D2,6C,00,
10981956,19A00002,true,Rx,0,8,12,00,00,00,00,00,00,F7,
10987093,0100082C,true,Rx,0,8,00,C0,84,E8,65,F3,00,6B,
10987368,0110483C,true,Rx,0,8,08,E9,6A,00,44,66,FC,52,
10990848,00800006,true,Rx,0,8,09,E5,0D,E5,41,E5,3E,6F,
10991139,0090411E,true,Rx,0,8,02,00,E0,00,00,00,00,00,
10991418,0300410E,true,Rx,0,8,B7,D2,19,08,87,D2,FC,00,
10991697,03800006,true,Rx,0,8,30,00,DE,61,0E,22,04,01,
10994295,01C04026,true,Rx,0,8,80,00,80,00,80,00,80,00,
10994576,02000026,true,Rx,0,8,7F,34,00,DC,4B,00,E0,AC,
10994866,02104136,true,Rx,0,8,BB,00,3F,FF,07,E0,00,00,
10995146,02804026,true,Rx,0,8,37,FF,77,FF,F2,00,0E,0C,
10995439,02C00020,true,Rx,0,8,00,00,00,00,00,02,75,81,
10997240,0100082C,true,Rx,0,8,00,C0,84,E8,65,F3,00,6B,
10997519,0110483C,true,Rx,0,8,08,E9,6A,00,44,66,FC,52,
10997800,1A200020,true,Rx,0,8,8E,00,02,3E,00,15,02,3E,
10998090,1B700030,true,Rx,0,8,3C,8F,22,00,00,C0,03,00,
11000866,0300410E,true,Rx,0,8,B8,B1,19,08,87,D2,FC,00,
11001987,1BA0493C,true,Rx,0,8,07,01,03,00,02,01,01,01,
11007045,0100082C,true,Rx,0,8,00,C0,84,E8,65,F3,00,6B,
11007320,0110483C,true,Rx,0,8,08,E9,6A,00,44,66,FC,52,
11008270,01C04026,true,Rx,0,8,80,00,80,00,80,00,80,00,
11008551,02000026,true,Rx,0,8,7F,34,00,DC,4B,00,E0,AC,
11008831,02104136,true,Rx,0,8,BB,00,3F,FF,07,E0,00,00,
11009116,02804026,true,Rx,0,8,37,FF,77,FF,F2,00,0E,0C,
11009406,02C00020,true,Rx,0,8,00,00,00,00,00,02,75,81,
11009695,19A00002,true,Rx,0,8,6E,00,00,00,00,00,00,F7,
11010894,00800006,true,Rx,0,8,49,E5,0E,6A,41,E5,AE,6F,
11011186,0090411E,true,Rx,0,8,C2,00,E0,00,00,00,00,00,
11011466,0300410E,true,Rx,0,8,38,B1,A8,29,07,D2,6C,00,
11011746,03800006,true,Rx,0,8,70,00,DE,61,0E,22,04,01,
11017087,0100082C,true,Rx,0,8,00,C0,84,E8,65,F3,00,6B,
11017372,0110483C,true,Rx,0,8,08,E9,EA,00,44,66,FC,52,
11020874,0300410E,true,Rx,0,8,B8,B1,28,29,87,D2,FC,00,
11021160,19E00006,true,Rx,0,8,00,00,18,E0,49,00,40,00,
11022276,01C04026,true,Rx,0,8,80,00,80,00,80,00,80,00,
11022555,02000026,true,Rx,0,8,7F,34,00,DC,4B,00,E0,AC,
11022845,02104136,true,Rx,0,8,BB,00,3F,FF,07,E0,00,00,
11023126,02804026,true,Rx,0,8,37,FF,77,FF,F2,00,0E,0C,
11023420,02C00020,true,Rx,0,8,00,00,00,00,00,02,75,81,
11027190,0100082C,true,Rx,0,8,00,C0,84,E8,65,F3,00,6B,
11027465,0110483C,true,Rx,0,8,08,E9,6A,00,44,66,FC,52,
11030895,00800006,true,Rx,0,8,81,E5,0E,6B,41,E5,2E,6F,
11031185,0090411E,true,Rx,0,8,02,00,60,00,00,00,00,00,
11031453,0300410E,true,Rx,0,8,B8,B1,28,29,87,D2,FC,00,
11031732,03800006,true,Rx,0,8,38,00,DE,61,0E,22,04,01,
11036262,01C04026,true,Rx,0,8,80,00,80,00,80,00,80,00,
11036537,02000026,true,Rx,0,8,7F,34,00,DC,4B,00,E0,AC,
11036828,02104136,true,Rx,0,8,BB,00,3F,FF,07,E0,00,00,
11037108,02804026,true,Rx,0,8,37,FF,77,FF,F2,00,0E,0C,
11037387,0100082C,true,Rx,0,8,00,C0,84,E8,75,F3,00,6B,
11037668,0110483C,true,Rx,0,8,08,E9,6A,00,44,66,FC,52,
11037959,02C00020,true,Rx,0,8,00,00,00,00,00,02,75,81,
11038248,19A00002,true,Rx,0,8,12,00,00,00,00,00,00,F7,
11040053,1B200002,true,Rx,0,8,00,00,00,00,00,00,0F,71,
11040927,0300410E,true,Rx,0,8,38,B1,A8,29,07,D2,6C,00,
11041207,1B600002,true,Rx,0,8,00,80,00,0C,00,1A,4C,00,
11047086,0100082C,true,Rx,0,8,00,C0,84,E8,65,F3,00,6B,
11047361,0110483C,true,Rx,0,8,08,E9,6A,00,44,66,FC,52,
11050265,01C04026,true,Rx,0,8,80,00,80,00,80,00,80,00,
11050544,02000026,true,Rx,0,8,7F,34,00,DC,4B,00,E0,AC,
11050835,02104136,true,Rx,0,8,BB,00,3F,FF,07,E0,00,00,
11051105,00800006,true,Rx,0,8,C9,E5,0E,6B,41,E5,2E,6F,
11051398,0090411E,true,Rx,0,8,02,00,E0,00,00,00,00,00,
11051677,02804026,true,Rx,0,8,37,FF,77,F6,F2,00,0E,0C,
11051968,02C00020,true,Rx,0,8,00,00,00,00,00,02,75,81,
11052238,0300410E,true,Rx,0,8,B8,B1,28,29,87,D2,FC,00,
11052518,03800006,true,Rx,0,8,38,00,DE,61,0E,22,04,01,
11057133,0100082C,true,Rx,0,8,00,C0,84,E8,65,F3,00,6B,
11057418,0110483C,true,Rx,0,8,08,E9,6A,00,44,66,FC,52,
11060951,0300410E,true,Rx,0,8,B8,B1,28,29,87,D2,FC,00,
11064303,01C04026,true,Rx,0,8,80,00,80,00,80,00,80,00,
11064580,02000026,true,Rx,0,8,7F,34,00,DC,4B,00,E0,AC,
11064869,02104136,true,Rx,0,8,BB,00,3F,FF,07,E0,00,00,
11065151,02804026,true,Rx,0,8,37,FF,77,CD,F6,86,0E,07,
11065441,02C00020,true,Rx,0,8,00,00,00,00,00,02,75,81,
11065730,19A00002,true,Rx,0,8,02,00,00,00,00,00,00,F7,
11067170,0100082C,true,Rx,0,8,00,C0,84,E8,65,F3,00,6B,
11067450,0110483C,true,Rx,0,8,08,E9,EA,00,44,66,FC,52,
11070926,00800006,true,Rx,0,8,09,E5,0E,6B,41,E5,AE,6F,
11071211,0090411E,true,Rx,0,8,42,00,E0,00,00,00,00,00,
11071492,0300410E,true,Rx,0,8,38,B1,A8,29,07,D2,6C,00,
11071771,03800006,true,Rx,0,8,38,00,DE,61,0E,22,04,01,
11072063,19E00006,true,Rx,0,8,00,00,18,C0,49,00,40,00,
11077130,0100082C,true,Rx,0,8,00,C0,84,E8,65,F3,00,6B,
11077405,0110483C,true,Rx,0,8,08,E9,6A,00,44,66,FC,52,
11078295,01C04026,true,Rx,0,8,80,00,80,00,80,00,80,00,
11078574,02000026,true,Rx,0,8,7F,34,00,DC,4B,00,E0,AC,
11078864,02104136,true,Rx,0,8,BB,00,3F,FF,07,E0,00,00,
11079135,02804026,true,Rx,0,8,37,FF,77,90,F6,ED,0E,01,
11079429,02C00020,true,Rx,0,8,00,00,00,00,00,02,75,81,
11080968,0300410E,true,Rx,0,8,B8,AB,28,29,87,D1,FC,00,
11087029,0100082C,true,Rx,0,8,00,C0,84,E8,65,F3,00,6B,
11087304,0110483C,true,Rx,0,8,08,E9,6A,00,44,66,FC,52,
11090950,00800006,true,Rx,0,8,41,E4,0E,67,41,E4,2E,6F,
11091245,0090411E,true,Rx,0,8,02,00,60,00,00,00,00,00,
11091516,0300410E,true,Rx,0,8,38,AB,28,29,07,D1,6C,00,
11091795,03800006,true,Rx,0,8,38,00,DE,61,0E,22,04,01,
11092282,01C04026,true,Rx,0,8,80,00,80,00,80,00,80,00,
11092562,02000026,true,Rx,0,8,7F,34,00,DC,4B,00,E0,AC,
11092842,02104136,true,Rx,0,8,BB,00,3F,FF,07,E0,00,00,
11093119,02804026,true,Rx,0,8,37,FF,77,47,F7,3C,0D,FF,
11093419,02C00020,true,Rx,0,8,00,00,00,00,00,02,75,81,
11093699,19A00002,true,Rx,0,8,12,00,00,00,00,00,00,F7,
11097226,0100082C,true,Rx,0,8,00,C0,84,E8,65,F3,00,6B,
11097502,0110483C,true,Rx,0,8,08,E9,6A,00,44,66,FC,52,
11100953,0300410E,true,Rx,0,8,B8,AB,A8,29,87,D1,FC,00,
11106315,01C04026,true,Rx,0,8,80,00,80,00,80,00,80,00,
11106591,02000026,true,Rx,0,8,7F,34,00,DC,4B,00,E0,AC,
11106883,02104136,true,Rx,0,8,BB,00,3F,FF,07,E0,00,00,
11107162,0100082C,true,Rx,0,8,00,C0,84,E8,65,F3,00,6B,
11107443,0110483C,true,Rx,0,8,08,E9,6A,00,44,66,FC,52,
11107722,02804026,true,Rx,0,8,37,FF,77,09,F7,30,0D,FF,
11108013,02C00020,true,Rx,0,8,00,00,00,00,00,02,75,81,
11110992,00800006,true,Rx,0,8,89,E4,0E,67,41,E4,AE,6F,
11111289,0090411E,true,Rx,0,8,C2,00,E0,00,00,00,00,00,
11111558,0300410E,true,Rx,0,8,B8,AB,28,29,87,D1,FC,00,
11111837,03800006,true,Rx,0,8,78,00,DE,61,0E,22,04,01,
11117088,0100082C,true,Rx,0,8,00,C0,84,E8,65,F3,00,6B,
11117375,0110483C,true,Rx,0,8,08,E9,EA,00,44,66,FC,52,
11120308,01C04026,true,Rx,0,8,80,00,80,00,80,00,80,00,
11120578,02000026,true,Rx,0,8,7F,34,00,DC,4B,00,E0,AC,
11120868,02104136,true,Rx,0,8,BB,00,3F,FF,07,E0,00,00,
11121149,02804026,true,Rx,0,8,37,FF,77,04,F6,EA,0D,FA,
11121439,02C00020,true,Rx,0,8,00,00,00,00,00,02,75,81,
11121719,0300410E,true,Rx,0,8,38,AB,28,29,07,D1,6C,00,
11122000,19A00002,true,Rx,0,8,6E,00,00,00,00,00,00,F7,
11122290,19E00006,true,Rx,0,8,00,00,18,E0,49,00,40,00,
11125037,1B200002,true,Rx,0,8,00,00,00,00,00,00,0F,71,
11127220,0100082C,true,Rx,0,8,00,C0,84,E8,65,F3,00,6B,
11127496,0110483C,true,Rx,0,8,08,E9,6A,00,44,66,FC,52,
11130989,00800006,true,Rx,0,8,C9,E4,0E,67,41,E4,2E,6F,
11131276,0090411E,true,Rx,0,8,02,00,E0,00,00,00,00,00,
11131555,0300410E,true,Rx,0,8,B8,AB,A8,29,87,D1,FC,00,
11131834,03800006,true,Rx,0,8,38,00,DE,61,0E,22,04,01,
11134332,01C04026,true,Rx,0,8,80,00,80,00,80,00,80,00,
11134611,02000026,true,Rx,0,8,7F,34,00,DC,4B,00,E0,AC,
11134901,02104136,true,Rx,0,8,BB,00,3F,FF,07,E0,00,00,
11135172,02804026,true,Rx,0,8,37,FF,77,24,F6,B3,0D,EF,
11135463,02C00020,true,Rx,0,8,00,00,00,00,00,02,75,81,
11137237,0100082C,true,Rx,0,8,00,C0,84,E8,65,F3,00,6B,
11137516,0110483C,true,Rx,0,8,08,E9,6A,00,44,66,FC,52,
11140996,0300410E,true,Rx,0,8,B8,AA,28,29,87,D4,FC,00,
11147013,0100082C,true,Rx,0,8,00,C0,84,E8,65,F3,00,6B,
11147298,0110483C,true,Rx,0,8,08,E9,6A,00,44,66,FC,52,
11148321,01C04026,true,Rx,0,8,80,00,80,00,80,00,80,00,
11148600,02000026,true,Rx,0,8,7F,34,00,DC,4B,00,E0,AC,
11148892,02104136,true,Rx,0,8,BB,00,3F,FF,07,E0,00,00,
11149164,02804026,true,Rx,0,8,37,FF,77,5B,F6,89,0D,E1,
11149453,02C00020,true,Rx,0,8,00,00,00,00,00,02,75,81,
11149744,19A00002,true,Rx,0,8,12,00,00,00,00,00,00,F7,
11151046,00800006,true,Rx,0,8,01,E6,0E,66,41,E6,2E,6F,
11151329,0090411E,true,Rx,0,8,02,00,60,00,00,00,00,00,
11151619,0300410E,true,Rx,0,8,38,AA,28,29,07,D4,6C,00,
11151899,03800006,true,Rx,0,8,38,00,DE,61,0E,22,04,01,
11157096,0100082C,true,Rx,0,8,00,C0,84,E8,65,F3,00,6B,
11157373,0110483C,true,Rx,0,8,08,E9,6A,00,44,66,FC,52,
11161018,0300410E,true,Rx,0,8,B8,A4,A8,2A,87,D4,FC,00,
11162334,01C04026,true,Rx,0,8,80,00,80,00,80,00,80,00,
11162614,02000026,true,Rx,0,8,7F,34,00,DC,4B,00,E0,AC,
11162895,02104136,true,Rx,0,8,BB,00,3F,FF,07,E0,00,00,
11163175,02804026,true,Rx,0,8,37,FF,77,6B,F6,F0,0D,D6,
11163466,02C00020,true,Rx,0,8,00,00,00,00,00,02,75,81,
11167133,0100082C,true,Rx,0,8,00,C0,84,E8,65,F3,00,6B,
11167410,0110483C,true,Rx,0,8,08,E9,EA,00,44,66,FC,52,
11171025,00800006,true,Rx,0,8,49,E6,0E,62,41,E6,AE,6F,
11171312,0090411E,true,Rx,0,8,42,00,E0,EA,00,00,00,00,
11171591,0300410E,true,Rx,0,8,38,A4,28,2A,07,D4,6C,00,
11171871,03800006,true,Rx,0,8,38,00,DE,61,0E,22,04,01,
11172163,19E00006,true,Rx,0,8,00,00,18,C0,49,00,40,00,
11176294,01C04026,true,Rx,0,8,80,00,80,00,80,00,80,00,
11176580,02000026,true,Rx,0,8,7F,34,00,DC,4B,00,E0,AC,
11176860,02104136,true,Rx,0,8,BB,00,3F,FF,07,E0,00,00,
11177140,02804026,true,Rx,0,8,37,FF,77,52,F7,3E,0D,D3,
11177421,0100082C,true,Rx,0,8,00,C0,84,E8,75,F3,00,6B,
11177700,0110483C,true,Rx,0,8,08,E9,6A,00,44,66,FC,52,
11177991,02C00020,true,Rx,0,8,00,00,00,00,00,02,75,81,
11178281,19A00002,true,Rx,0,8,02,00,00,00,00,00,00,F7,
11181067,0300410E,true,Rx,0,8,B8,93,28,2A,87,C3,FC,00,
11187043,0100082C,true,Rx,0,8,00,C0,84,E8,65,F3,00,6B,
11187319,0110483C,true,Rx,0,8,08,E9,6A,00,44,66,FC,52,
11190294,01C04026,true,Rx,0,8,80,00,80,00,80,00,80,00,
11190574,02000026,true,Rx,0,8,7F,34,00,DC,4B,00,E0,AC,
11190854,02104136,true,Rx,0,8,BB,00,3F,FF,07,E0,00,00,
11191136,00800006,true,Rx,0,8,89,DE,0E,59,41,DE,2E,65,
11191415,0090411E,true,Rx,0,8,02,00,E0,EA,00,00,00,00,
11191694,02804026,true,Rx,0,8,37,FF,77,1F,F7,63,0D,DB,
11191976,02C00020,true,Rx,0,8,00,00,00,00,00,02,75,81,
11192256,0300410E,true,Rx,0,8,B8,95,A8,2A,87,C7,FC,00,
11192535,03800006,true,Rx,0,8,38,00,DE,61,0E,22,04,01,
11197151,0100082C,true,Rx,0,8,00,C0,84,E8,65,F3,00,6B,
11197437,0110483C,true,Rx,0,8,08,E9,6A,00,44,66,FC,52,
11201062,0300410E,true,Rx,0,8,38,95,28,2A,07,C7,6C,00,
11204293,01C04026,true,Rx,0,8,80,00,80,00,80,00,80,00,
11204579,02000026,true,Rx,0,8,7F,34,00,DC,4B,00,E0,AC,
11204858,02104136,true,Rx,0,8,BB,00,3F,FF,07,E0,00,00,
11205140,02804026,true,Rx,0,8,37,FF,76,EF,F7,60,0D,E6,
11205429,02C00020,true,Rx,0,8,00,00,00,00,00,02,75,81,
11205720,19A00002,true,Rx,0,8,12,00,00,00,00,00,00,F7,
11207232,0100082C,true,Rx,0,8,00,C0,84,E8,65,F3,00,6B,
11207511,0110483C,true,Rx,0,8,08,E9,6A,00,44,66,FC,52,
11207791,1AE0092C,true,Rx,0,8,40,00,22,E0,41,A0,00,00,
11208083,1B700030,true,Rx,0,8,25,8F,22,00,00,00,03,00,
11210004,1B200002,true,Rx,0,8,00,00,00,00,00,00,0F,71,
11211074,00800006,true,Rx,0,8,C1,DE,0E,59,41,DE,AE,65,
11211354,0090411E,true,Rx,0,8,C2,00,60,EA,00,00,00,00,
11211633,0300410E,true,Rx,0,8,B8,95,28,3B,87,C7,FC,00,
11211915,03800006,true,Rx,0,8,78,00,DE,61,0E,22,04,01,
11212194,1B600002,true,Rx,0,8,00,80,00,1C,00,1A,4C,00,
11217215,0100082C,true,Rx,0,8,00,C0,84,E8,65,F3,00,6B,
11217490,0110483C,true,Rx,0,8,08,E9,EA,00,44,66,FC,52,
11217779,0340412E,true,Rx,0,8,00,00,00,00,00,00,00,00,
11218072,19000026,true,Rx,0,8,00,00,00,00,00,00,00,00,
11218362,01C04026,true,Rx,0,8,80,00,80,00,80,00,80,00,
11218641,02000026,true,Rx,0,8,7F,34,00,DC,4B,00,E0,AC,
11218933,02104136,true,Rx,0,8,BB,00,3F,FF,07,E0,00,00,
11219202,02804026,true,Rx,0,8,37,FF,76,F4,F7,0F,0D,F4,
11219490,02C00020,true,Rx,0,8,00,00,00,00,00,02,75,81,
11221236,0300410E,true,Rx,0,8,B8,93,A8,3B,87,C7,FC,00,
11221524,19E00006,true,Rx,0,8,00,00,18,E0,49,00,40,00,
11227098,0100082C,true,Rx,0,8,00,C0,84,E8,65,F3,00,6B,
11227375,0110483C,true,Rx,0,8,08,E9,6A,00,44,66,FC,52,
11227726,0340412E,true,Rx,0,8,00,00,00,00,00,00,00,00,
11231087,00800006,true,Rx,0,8,09,DE,0E,58,41,DE,2E,65,
11231372,0090411E,true,Rx,0,8,02,00,E0,EA,00,00,00,00,
11231652,0300410E,true,Rx,0,8,38,93,28,3B,07,C7,6C,00,
11231933,03800006,true,Rx,0,8,38,00,DE,61,0E,22,04,01,
11232316,01C04026,true,Rx,0,8,80,00,80,00,80,00,80,00,
11232596,02000026,true,Rx,0,8,7F,34,00,DC,4B,00,E0,AC,
11232887,02104136,true,Rx,0,8,BB,00,3F,FF,07,E0,00,00,
11233183,02804026,true,Rx,0,8,37,FF,77,1A,F6,CE,0D,FF,
11233453,02C00020,true,Rx,0,8,00,00,00,00,00,02,75,81,
11233753,19000026,true,Rx,0,8,00,00,00,00,00,00,04,00,
11234033,19A00002,true,Rx,0,8,6E,00,00,00,00,00,00,F7,
11237367,0100082C,true,Rx,0,8,00,C0,84,E8,65,F3,00,6B,
11237653,0110483C,true,Rx,0,8,08,E9,6A,00,44,66,FC,52,
11237945,0340412E,true,Rx,0,8,00,00,00,00,00,00,00,00,
11241097,0300410E,true,Rx,0,8,B8,93,28,3B,87,C7,FC,00,
11246315,01C04026,true,Rx,0,8,80,00,80,00,80,00,80,00,
11246592,02000026,true,Rx,0,8,7F,34,00,DC,4B,00,E0,AC,
11246882,02104136,true,Rx,0,8,BB,00,3F,FF,07,E0,00,00,
11247163,0100082C,true,Rx,0,8,00,C0,84,E8,65,F3,00,6B,
11247442,0110483C,true,Rx,0,8,08,E9,6A,00,44,66,FC,52,
11247721,02804026,true,Rx,0,8,37,FF,77,55,F6,9F,0E,01,
11248003,02C00020,true,Rx,0,8,00,00,00,00,00,02,75,81,
11248293,0340412E,true,Rx,0,8,70,80,00,FD,80,00,00,00,
11248581,19000026,true,Rx,0,8,00,00,00,00,38,13,04,00,
11251146,00800006,true,Rx,0,8,49,DE,0E,58,41,DE,2E,65,
11251425,0090411E,true,Rx,0,8,02,00,E0,EA,00,00,00,00,
11251704,0300410E,true,Rx,0,8,38,93,A8,3B,07,C7,6C,00,
11251986,03800006,true,Rx,0,8,38,00,DE,61,0E,22,04,01,
11252358,1BA0493C,true,Rx,0,8,08,02,01,12,01,01,01,02,
11257130,0100082C,true,Rx,0,8,00,C0,84,E8,65,F3,00,6B,
11257406,0110483C,true,Rx,0,8,08,E9,6A,00,44,66,FC,52,
11257819,0340412E,true,Rx,0,8,71,80,00,ED,80,00,00,00,
11260315,01C04026,true,Rx,0,8,80,00,80,00,80,00,80,00,
11260594,02000026,true,Rx,0,8,7F,34,00,DC,4B,00,E0,AC,
11260885,02104136,true,Rx,0,8,BB,00,3F,FF,07,E0,00,00,
11261166,02804026,true,Rx,0,8,37,FF,77,89,F6,C0,0E,04,
11261447,02C00020,true,Rx,0,8,00,00,00,00,00,02,75,81,
11261726,0300410E,true,Rx,0,8,B8,93,28,3B,87,C7,FC,00,
11262018,19A00002,true,Rx,0,8,12,00,00,00,00,00,00,F7,
11262700,19000026,true,Rx,0,8,00,00,01,40,38,11,84,00,
11267177,0100082C,true,Rx,0,8,00,C0,84,E8,75,F3,00,6B,
11267453,0110483C,true,Rx,0,8,08,E9,EA,00,44,66,FC,52,
11267804,0340412E,true,Rx,0,8,72,80,00,DD,80,00,00,00,
11271123,00800006,true,Rx,0,8,81,DD,0E,58,41,DD,AE,65,
11271409,0090411E,true,Rx,0,8,42,00,60,EA,00,00,00,00,
11271688,0300410E,true,Rx,0,8,B8,93,28,3B,87,C5,FC,00,
11271970,03800006,true,Rx,0,8,38,00,DE,61,0E,22,04,01,
11272259,19E00006,true,Rx,0,8,00,00,18,C0,49,00,40,00,
11274397,01C04026,true,Rx,0,8,80,00,80,00,80,00,80,00,
11274676,02000026,true,Rx,0,8,7F,34,00,DC,4B,00,E0,AC,
11274968,02104136,true,Rx,0,8,BB,00,3F,FF,07,E0,00,00,
11275237,02804026,true,Rx,0,8,37,FF,77,88,F7,1A,0E,01,
11275529,02C00020,true,Rx,0,8,00,00,00,00,00,02,75,81,
11277253,0100082C,true,Rx,0,8,00,C0,84,E8,65,F3,00,6B,
11277530,0110483C,true,Rx,0,8,08,E9,6A,00,44,66,FC,52,
11277820,0340412E,true,Rx,0,8,73,80,00,CD,80,00,00,00,
11278102,19000026,true,Rx,0,8,00,00,01,40,38,11,84,00,
11281144,0300410E,true,Rx,0,8,38,93,A8,3B,07,C5,6C,00,
11287088,0100082C,true,Rx,0,8,00,C0,84,E8,65,F3,00,6B,
11287364,0110483C,true,Rx,0,8,08,E9,6A,00,44,66,FC,52,
11287839,0340412E,true,Rx,0,8,74,80,00,BD,80,00,00,00,
11288306,01C04026,true,Rx,0,8,80,00,80,00,80,00,80,00,
11288585,02000026,true,Rx,0,8,7F,34,00,DC,4B,00,E0,AC,
11288877,02104136,true,Rx,0,8,BB,00,3F,FF,07,E0,00,00,
11289151,02804026,true,Rx,0,8,37,FF,77,64,F7,60,0D,FF,
11289441,02C00020,true,Rx,0,8,00,00,00,00,00,02,75,81,
11289731,19A00002,true,Rx,0,8,02,00,00,00,00,00,00,F7,
11291166,00800006,true,Rx,0,8,C9,DD,0E,57,41,DD,2E,65,
11291456,0090411E,true,Rx,0,8,02,03,E1,05,00,00,00,00,
11291736,0300410E,true,Rx,0,8,B8,90,28,3B,87,C5,FC,00,
11292017,03800006,true,Rx,0,8,38,00,DE,61,0E,22,04,01,
11292729,19000026,true,Rx,0,8,00,00,01,40,38,11,84,00,
11294992,1B200002,true,Rx,0,8,00,00,00,00,00,00,0F,71,
11297195,0100082C,true,Rx,0,8,00,C0,84,E8,65,F3,00,6B,
11297471,0110483C,true,Rx,0,8,08,E9,6A,00,44,66,FC,52,
11297842,0340412E,true,Rx,0,8,75,80,00,AD,80,00,00,00,
11301224,0300410E,true,Rx,0,8,B8,90,28,3B,87,C5,FC,00,
11302323,01C04026,true,Rx,0,8,80,00,80,00,80,00,80,00,
11302604,02000026,true,Rx,0,8,7F,34,00,DC,4B,00,E0,AC,
11302894,02104136,true,Rx,0,8,BB,00,3F,FF,07,E0,00,00,
11303173,02804026,true,Rx,0,8,37,FF,77,2B,F7,63,0D,FF,
11303466,02C00020,true,Rx,0,8,00,00,00,00,00,02,75,81,
11307216,0100082C,true,Rx,0,8,00,C0,84,E8,65,F3,00,6B,
11307491,0110483C,true,Rx,0,8,08,E9,6A,00,44,66,FC,52,
11307844,0340412E,true,Rx,0,8,76,80,00,9D,80,00,00,00,
11308124,19000026,true,Rx,0,8,00,00,01,40,38,11,84,00,
11311176,00800006,true,Rx,0,8,09,DD,0E,57,41,DD,AE,65,
11311462,0090411E,true,Rx,0,8,C2,03,E1,05,00,00,00,00,
11311742,0300410E,true,Rx,0,8,38,90,A8,3B,07,C5,6C,00,
11312012,03800006,true,Rx,0,8,58,00,DE,61,0E,22,04,01,
11312302,1A200020,true,Rx,0,8,CE,00,02,3E,00,01,02,3E,
11316290,01C04026,true,Rx,0,8,80,00,80,00,80,00,80,00,
11316565,02000026,true,Rx,0,8,7F,34,00,DC,4B,00,E0,AC,
11316855,02104136,true,Rx,0,8,BB,00,3F,FF,07,E0,00,00,
11317126,02804026,true,Rx,0,8,37,FF,76,E4,F7,63,0D,FD,
11317405,0100082C,true,Rx,0,8,00,C0,84,E8,65,F3,00,6B,
11317685,0110483C,true,Rx,0,8,08,E9,EA,00,44,66,FC,52,
11317977,02C00020,true,Rx,0,8,00,00,00,00,00,02,75,81,
11318256,0340412E,true,Rx,0,8,77,80,00,8D,80,00,00,00,
11318544,19A00002,true,Rx,0,8,12,00,00,00,00,00,00,F7,
11321201,0300410E,true,Rx,0,8,B8,90,28,3B,87,C5,FC,00,
11321491,19E00006,true,Rx,0,8,00,00,18,E0,49,00,40,00,
11322738,19000026,true,Rx,0,8,00,00,01,40,38,11,84,00,
11327172,0100082C,true,Rx,0,8,00,C0,84,E8,65,F3,00,6B,
11327447,0110483C,true,Rx,0,8,08,E9,6A,00,44,66,FC,52,
11327893,0340412E,true,Rx,0,8,78,80,00,7D,80,00,00,00,
11330335,01C04026,true,Rx,0,8,80,00,80,00,80,00,80,00,
11330614,02000026,true,Rx,0,8,7F,34,00,DC,4B,00,E0,AC,
11330896,02104136,true,Rx,0,8,BB,00,3F,FF,07,E0,00,00,
11331176,02804026,true,Rx,0,8,37,FF,76,94,F7,63,0D,FF,
11331457,00800006,true,Rx,0,8,41,DD,0E,57,41,DD,2E,65,
11331738,0090411E,true,Rx,0,8,02,03,61,05,00,00,00,00,
11332028,02C00020,true,Rx,0,8,00,00,00,00,00,02,75,81,
11332308,0300410E,true,Rx,0,8,38,90,28,3B,07,C5,6C,00,
11332588,03800006,true,Rx,0,8,18,00,DE,61,0E,22,04,01,
11337109,0100082C,true,Rx,0,8,00,C0,84,E8,65,F3,00,6B,
11337384,0110483C,true,Rx,0,8,08,E9,6A,00,44,66,FC,52,
11337839,0340412E,true,Rx,0,8,79,80,00,6D,80,00,00,00,
11338130,19000026,true,Rx,0,8,00,00,01,40,38,11,84,00,
11341203,0300410E,true,Rx,0,8,B8,90,A8,3B,87,C5,FC,00,
11344329,01C04026,true,Rx,0,8,80,00,80,00,80,00,80,00,
11344604,02000026,true,Rx,0,8,7F,34,00,DC,4B,00,E0,AC,
11344896,02104136,true,Rx,0,8,BB,00,3F,FF,07,E0,00,00,
11345165,02804026,true,Rx,0,8,37,FF,76,3E,F7,63,0D,FF,
11345454,02C00020,true,Rx,0,8,00,00,00,00,00,02,75,81,
11345745,19A00002,true,Rx,0,8,6E,00,00,00,00,00,00,F7,
11347206,0100082C,true,Rx,0,8,00,C0,84,E8,65,F3,00,6B,
11347485,0110483C,true,Rx,0,8,08,E9,6A,00,44,66,FC,52,
11347838,0340412E,true,Rx,0,8,7A,80,00,5D,80,00,00,00,
11351205,00800006,true,Rx,0,8,89,DD,0E,57,41,DD,2E,65,
11351490,0090411E,true,Rx,0,8,02,03,E1,05,00,00,00,00,
11351771,0300410E,true,Rx,0,8,B8,91,28,3B,87,C5,FC,00,
11352051,03800006,true,Rx,0,8,18,00,DE,61,0E,22,04,01,
11352732,19000026,true,Rx,0,8,00,00,01,40,38,11,84,00,
11357201,0100082C,true,Rx,0,8,00,C0,84,E8,75,F3,00,6B,
11357476,0110483C,true,Rx,0,8,08,E9,6A,00,44,66,FC,52,
11357838,0340412E,true,Rx,0,8,7B,80,00,4D,80,00,00,00,
11358314,01C04026,true,Rx,0,8,80,00,80,00,80,00,80,00,
11358595,02000026,true,Rx,0,8,7F,34,00,DC,4B,00,E0,AC,
11358885,02104136,true,Rx,0,8,BB,00,3F,FF,07,E0,00,00,
11359165,02804026,true,Rx,0,8,37,FF,75,E5,F7,63,0D,FD,
11359452,02C00020,true,Rx,0,8,00,00,00,00,00,02,75,81,
11361603,0300410E,true,Rx,0,8,38,91,28,3B,07,C5,6C,00,
11367022,0100082C,true,Rx,0,8,00,C0,84,E8,65,F3,00,6B,
11367297,0110483C,true,Rx,0,8,08,E9,EA,00,44,66,FC,52,
11367897,0340412E,true,Rx,0,8,7C,80,00,3D,80,00,00,00,
11368187,19000026,true,Rx,0,8,00,00,01,40,38,11,84,00,
11371229,00800006,true,Rx,0,8,C9,DD,0E,57,41,DD,AE,65,
11371515,0090411E,true,Rx,0,8,42,02,E1,14,00,00,00,00,
11371785,0300410E,true,Rx,0,8,B8,91,A8,3B,87,C4,FC,00,
11372077,03800006,true,Rx,0,8,18,00,DE,61,0E,22,04,01,
11372367,01C04026,true,Rx,0,8,80,00,80,00,80,00,80,00,
11372647,02000026,true,Rx,0,8,7F,34,00,DC,4B,00,E0,AC,
11372927,02104136,true,Rx,0,8,BB,00,3F,FF,07,E0,00,00,
11373208,02804026,true,Rx,0,8,37,FF,75,89,F7,63,0D,FA,
11373496,02C00020,true,Rx,0,8,00,00,00,00,00,02,75,81,
11373785,19A00002,true,Rx,0,8,12,00,00,00,00,00,00,F7,
11374067,19E00006,true,Rx,0,8,00,00,18,C0,49,00,40,00,
11377335,0100082C,true,Rx,0,8,00,C0,84,E8,65,F3,00,6B,
11377610,0110483C,true,Rx,0,8,08,E9,6A,00,44,66,FC,52,
11377902,0340412E,true,Rx,0,8,7D,80,00,2D,80,00,00,00,
11380004,1B200002,true,Rx,0,8,00,00,00,00,00,00,0F,71,
11381294,0300410E,true,Rx,0,8,B8,8F,28,3B,87,C4,FC,00,
11381582,1B600002,true,Rx,0,8,00,80,00,0C,00,1A,4C,00,
11382737,19000026,true,Rx,0,8,00,00,01,40,38,11,84,00,
11386329,01C04026,true,Rx,0,8,80,00,80,00,80,00,80,00,
11386605,02000026,true,Rx,0,8,7F,34,00,DC,4B,00,E0,AC,
11386895,02104136,true,Rx,0,8,BB,00,3F,FF,07,E0,00,00,
11387165,02804026,true,Rx,0,8,37,FF,75,2D,F7,63,0D,FA,
11387455,0100082C,true,Rx,0,8,00,C0,84,E8,65,F3,00,6B,
11387736,0110483C,true,Rx,0,8,08,E9,6A,00,44,66,FC,52,
11388016,02C00020,true,Rx,0,8,00,00,00,00,00,02,75,81,
11388306,0340412E,true,Rx,0,8,7E,80,00,1D,80,00,00,00,
11391279,00800006,true,Rx,0,8,01,DD,0E,56,41,DD,2E,65,
11391555,0090411E,true,Rx,0,8,02,02,61,14,00,00,00,00,
11391834,0300410E,true,Rx,0,8,38,8F,28,3B,07,C4,6C,00,
11392115,03800006,true,Rx,0,8,18,00,DE,61,0E,22,04,01,
11397084,0100082C,true,Rx,0,8,00,C0,84,E8,65,F3,00,6B,
11397359,0110483C,true,Rx,0,8,08,E9,6A,00,44,66,FC,52,
11397918,0340412E,true,Rx,0,8,7F,80,00,0D,80,00,00,00,
11398197,19000026,true,Rx,0,8,00,00,01,40,38,11,84,00,
11400342,01C04026,true,Rx,0,8,80,00,80,00,80,00,80,00,
11400622,02000026,true,Rx,0,8,7F,34,00,DC,4B,00,E0,AC,
11400903,02104136,true,Rx,0,8,BB,00,3F,FF,07,E0,00,00,
11401183,02804026,true,Rx,0,8,37,FF,74,CF,F7,63,0D,FD,
11401473,02C00020,true,Rx,0,8,00,00,00,00,00,02,75,81,
11401753,0300410E,true,Rx,0,8,B8,8F,A8,3B,87,C4,FC,00,
11402034,19A00002,true,Rx,0,8,02,00,00,00,00,00,00,F7,
11407078,0100082C,true,Rx,0,8,00,C0,84,E8,65,F3,00,6B,
11407354,0110483C,true,Rx,0,8,08,E9,6A,00,44,66,FC,52,
11407913,0340412E,true,Rx,0,8,70,80,00,FD,80,00,00,00,
11411262,00800006,true,Rx,0,8,49,DD,0E,56,41,DD,AE,65,
11411549,0090411E,true,Rx,0,8,C2,02,E1,14,00,00,00,00,
11411828,0300410E,true,Rx,0,8,38,8F,28,3B,07,C4,6C,00,
11412109,03800006,true,Rx,0,8,58,00,DE,61,0E,22,04,01,
11412739,19000026,true,Rx,0,8,00,FF,01,40,38,11,8C,00,
11414382,01C04026,true,Rx,0,8,80,00,80,00,80,00,80,00,
11414662,02000026,true,Rx,0,8,7F,34,00,DC,4B,00,E0,AC,
11414943,02104136,true,Rx,0,8,BB,00,3F,FF,07,E0,00,00,
11415222,02804026,true,Rx,0,8,37,FF,74,70,F7,63,0D,FD,
11415515,02C00020,true,Rx,0,8,00,00,00,00,00,02,75,81,
11417330,0100082C,true,Rx,0,8,00,C0,84,E8,65,F3,00,6B,
11417608,0110483C,true,Rx,0,8,08,E9,EA,00,44,66,FC,52,
11417890,0340412E,true,Rx,0,8,71,80,00,ED,80,00,00,00,
11418179,1B700030,true,Rx,0,8,25,8F,22,00,00,00,03,00,
11421282,0300410E,true,Rx,0,8,B8,8F,28,3B,87,C4,FC,00,
11421569,19E00006,true,Rx,0,8,00,00,18,E0,49,00,40,00,
11427070,0100082C,true,Rx,0,8,00,C0,84,E8,65,F3,00,6B,
11427345,0110483C,true,Rx,0,8,08,E9,6A,00,44,66,FC,52,
11427841,0340412E,true,Rx,0,8,72,80,00,DD,80,00,00,00,
11428133,19000026,true,Rx,0,8,00,FF,01,40,38,11,84,00,
11428423,01C04026,true,Rx,0,8,80,00,80,00,80,00,80,00,
11428703,02000026,true,Rx,0,8,7F,34,00,DC,4B,00,E0,AC,
11428984,02104136,true,Rx,0,8,BB,00,3F,FF,07,E0,00,00,
11429261,02804026,true,Rx,0,8,37,FF,74,12,F7,63,0D,FD,
11429551,02C00020,true,Rx,0,8,00,00,00,00,00,02,75,81,
11429840,19A00002,true,Rx,0,8,12,00,00,00,00,00,00,F7,
11431316,00800006,true,Rx,0,8,89,DD,0E,56,41,DD,2E,65,
11431597,0090411E,true,Rx,0,8,02,02,E1,14,00,00,00,00,
11431877,0300410E,true,Rx,0,8,B8,8F,A8,3B,87,C4,FC,00,
11432157,03800006,true,Rx,0,8,18,00,DE,61,0E,22,04,01,
11437130,0100082C,true,Rx,0,8,00,C0,84,E8,65,F3,00,6B,
11437405,0110483C,true,Rx,0,8,08,E9,6A,00,44,66,FC,52,
11437902,0340412E,true,Rx,0,8,73,80,00,CD,80,00,00,00,
11441302,0300410E,true,Rx,0,8,38,8F,28,3B,07,C4,6C,00,
11442382,01C04026,true,Rx,0,8,80,00,80,00,80,00,80,00,
11442662,02000026,true,Rx,0,8,7F,34,00,DC,4B,00,E0,AC,
11442943,02104136,true,Rx,0,8,BB,00,3F,FF,07,E0,00,00,
11443223,02804026,true,Rx,0,8,37,FF,73,B3,F7,63,0D,FD,
11443515,02C00020,true,Rx,0,8,00,00,00,00,00,02,75,81,
11443796,19000026,true,Rx,0,8,00,FF,01,40,38,11,84,00,
11447227,0100082C,true,Rx,0,8,00,C0,84,E8,75,F3,00,6B,
11447502,0110483C,true,Rx,0,8,08,E9,6A,00,44,66,FC,52,
11447897,0340412E,true,Rx,0,8,74,80,00,BD,80,00,00,00,
11451306,00800006,true,Rx,0,8,C1,DD,0E,56,41,DD,2E,65,
11451593,0090411E,true,Rx,0,8,02,02,61,14,00,00,00,00,
11451862,0300410E,true,Rx,0,8,B8,8F,28,3B,87,C4,FC,00,
11452153,03800006,true,Rx,0,8,18,00,DE,61,0E,22,04,01,
11456313,01C04026,true,Rx,0,8,80,00,80,00,80,00,80,00,
11456588,02000026,true,Rx,0,8,7F,34,00,DC,4B,00,E0,AC,
11456880,02104136,true,Rx,0,8,BB,00,3F,FF,07,E0,00,00,
11457160,0100082C,true,Rx,0,8,00,C0,84,E8,65,F3,00,6B,
11457439,0110483C,true,Rx,0,8,08,E9,6A,00,44,66,FC,52,
11457709,02804026,true,Rx,0,8,37,FF,73,54,F7,63,0D,FD,
11458000,02C00020,true,Rx,0,8,00,00,00,00,00,02,75,81,
11458289,0340412E,true,Rx,0,8,75,80,00,AD,80,00,00,00,
11458569,19000026,true,Rx,0,8,00,FF,01,40,38,11,84,00,
11458858,19A00002,true,Rx,0,8,6E,00,00,00,00,00,00,F7,
11461414,0300410E,true,Rx,0,8,B8,8F,A8,3B,87,C4,FC,00,
11464961,1B200002,true,Rx,0,8,00,00,00,00,00,00,0F,71,
11467061,0100082C,true,Rx,0,8,00,C0,84,E8,65,F3,00,6B,
11467336,0110483C,true,Rx,0,8,08,E9,EA,00,44,66,FC,52,
11467917,0340412E,true,Rx,0,8,76,80,00,9D,80,00,00,00,
11470327,01C04026,true,Rx,0,8,80,00,80,00,80,00,80,00,
11470617,02000026,true,Rx,0,8,7F,34,00,DC,4B,00,E0,AC,
11470899,02104136,true,Rx,0,8,BB,00,3F,FF,07,E0,00,00,
11471178,02804026,true,Rx,0,8,37,FF,72,F5,F7,63,0D,FD,
11471458,00800006,true,Rx,0,8,09,DD,0E,56,41,DD,AE,65,
11471738,0090411E,true,Rx,0,8,42,02,E1,14,00,00,00,00,
11472028,02C00020,true,Rx,0,8,00,00,00,00,00,02,75,81,
11472299,0300410E,true,Rx,0,8,38,8F,28,3B,07,C4,6C,00,
11472588,03800006,true,Rx,0,8,18,00,DE,61,0E,22,04,01,
11472868,19000026,true,Rx,0,8,00,FF,01,40,38,11,84,00,
11473159,19E00006,true,Rx,0,8,00,00,18,C0,49,00,40,00,
11477247,0100082C,true,Rx,0,8,00,C0,84,E8,65,F3,00,6B,
11477522,0110483C,true,Rx,0,8,08,E9,6A,00,44,66,FC,52,
11477823,0340412E,true,Rx,0,8,77,80,00,8D,80,00,00,00,
11481339,0300410E,true,Rx,0,8,B8,8F,28,3B,87,C4,FC,00,
11484340,01C04026,true,Rx,0,8,80,00,80,00,80,00,80,00,
11484627,02000026,true,Rx,0,8,7F,34,00,DC,4B,00,E0,AC,
11484908,02104136,true,Rx,0,8,BB,00,3F,FF,07,E0,00,00,
11485187,02804026,true,Rx,0,8,37,FF,72,95,F7,63,0D,FD,
11485478,02C00020,true,Rx,0,8,00,00,00,00,00,02,75,81,
11485767,19A00002,true,Rx,0,8,12,00,00,00,00,00,00,F7,
11487248,0100082C,true,Rx,0,8,00,C0,84,E8,65,F3,00,6B,
11487527,0110483C,true,Rx,0,8,08,E9,6A,00,44,66,FC,52,
11487828,0340412E,true,Rx,0,8,78,80,00,7D,80,00,00,00,
11488109,19000026,true,Rx,0,8,00,FF,01,40,38,11,84,00,
11491353,00800006,true,Rx,0,8,49,DC,0E,56,41,DC,2E,65,
11491640,0090411E,true,Rx,0,8,02,03,E1,24,00,00,00,00,
11491921,0300410E,true,Rx,0,8,38,8F,A8,3B,07,C4,6C,00,
11492201,03800006,true,Rx,0,8,18,00,DE,61,0E,22,04,01,
11497086,0100082C,true,Rx,0,8,00,C0,84,E8,65,F3,00,6B,
11497362,0110483C,true,Rx,0,8,08,E9,6A,00,44,66,FC,52,
11497900,0340412E,true,Rx,0,8,79,80,00,6D,80,00,00,00,
11498325,01C04026,true,Rx,0,8,80,00,80,00,80,00,80,00,
11498604,02000026,true,Rx,0,8,7F,34,00,DC,4B,00,E0,AC,
11498894,02104136,true,Rx,0,8,BB,00,3F,FF,07,E0,00,00,
11499169,02804026,true,Rx,0,8,37,FF,72,36,F7,63,0D,FD,
11499459,02C00020,true,Rx,0,8,00,00,00,00,00,02,75,81,
11501386,0300410E,true,Rx,0,8,B8,8D,28,3B,87,C4,FC,00,
11502181,1BA0493C,true,Rx,0,8,09,00,00,01,01,01,01,01,
11502461,1BE0493C,true,Rx,0,8,01,00,2A,88,9B,B0,FD,FB,
11502802,19000026,true,Rx,0,8,00,FF,01,40,38,11,8C,00,
11507136,0100082C,true,Rx,0,8,00,C0,84,E8,65,F3,00,6B,
11507411,0110483C,true,Rx,0,8,08,E9,6A,00,44,66,FC,52,
11507909,0340412E,true,Rx,0,8,7A,80,00,5D,80,00,00,00,
11511373,00800006,true,Rx,0,8,81,DC,0E,55,41,DC,AE,65,
11511648,0090411E,true,Rx,0,8,C2,03,61,24,00,00,00,00,
11511929,0300410E,true,Rx,0,8,B8,8D,28,3C,87,C4,FC,00,
11512209,03800006,true,Rx,0,8,58,00,DE,61,0E,22,04,01,
11512499,01C04026,true,Rx,0,8,80,00,80,00,80,00,80,00,
11512778,02000026,true,Rx,0,8,7F,34,00,DC,4B,00,E0,AC,
11513060,02104136,true,Rx,0,8,BB,00,3F,FF,07,E0,00,00,
11513339,02804026,true,Rx,0,8,37,FF,71,D7,F7,63,0D,FD,
11513627,02C00020,true,Rx,0,8,00,00,00,00,00,02,75,81,
11513919,19A00002,true,Rx,0,8,02,00,00,00,00,00,00,F7,
11517246,0100082C,true,Rx,0,8,00,C0,84,E8,65,F3,00,6B,
11517523,0110483C,true,Rx,0,8,08,E9,EA,00,44,66,FC,52,
11517823,0340412E,true,Rx,0,8,7B,80,00,4D,80,00,00,00,
11518103,19000026,true,Rx,0,8,00,FF,01,40,38,11,84,00,
11521383,0300410E,true,Rx,0,8,38,8D,A8,3C,07,C4,6C,00,
11521668,19E00006,true,Rx,0,8,00,00,18,E0,49,00,40,00,
11526297,01C04026,true,Rx,0,8,80,00,80,00,80,00,80,00,
11526573,02000026,true,Rx,0,8,7F,34,00,DC,4B,00,E0,AC,
11526863,02104136,true,Rx,0,8,BB,00,3F,FF,07,E0,00,00,
11527134,02804026,true,Rx,0,8,37,FF,71,78,F7,63,0D,FD,
11527413,0100082C,true,Rx,0,8,00,C0,84,E8,65,F3,00,6B,
11527693,0110483C,true,Rx,0,8,08,E9,6A,00,44,66,FC,52,
11527984,02C00020,true,Rx,0,8,00,00,00,00,00,02,75,81,
11528265,0340412E,true,Rx,0,8,7C,80,00,3D,80,00,00,00,
11531414,00800006,true,Rx,0,8,C9,DC,0E,54,41,DC,2E,65,
11531700,0090411E,true,Rx,0,8,02,03,E1,24,00,00,00,00,
11531980,0300410E,true,Rx,0,8,B8,8C,28,3C,87,C4,FC,00,
11532261,03800006,true,Rx,0,8,18,00,DE,61,0E,22,04,01,
11532735,19000026,true,Rx,0,8,00,FF,01,40,38,11,84,00,
11537202,0100082C,true,Rx,0,8,00,C0,84,E8,75,F3,00,6B,
11537478,0110483C,true,Rx,0,8,08,E9,6A,00,44,66,FC,52,
11537850,0340412E,true,Rx,0,8,7D,80,00,2D,80,00,00,00,
11540323,01C04026,true,Rx,0,8,80,00,80,00,80,00,80,00,
11540604,02000026,true,Rx,0,8,7F,34,00,DC,4B,00,E0,AC,
11540884,02104136,true,Rx,0,8,BB,00,3F,FF,07,E0,00,00,
11541163,02804026,true,Rx,0,8,37,FF,71,18,F7,63,0D,FF,
11541456,02C00020,true,Rx,0,8,00,00,00,00,00,02,75,81,
11541736,0300410E,true,Rx,0,8,38,8C,28,3C,07,C4,6C,00,
11542027,19A00002,true,Rx,0,8,12,00,00,00,00,00,00,F7,
11547078,0100082C,true,Rx,0,8,00,C0,84,E8,65,F3,00,6B,
11547364,0110483C,true,Rx,0,8,08,E9,6A,00,44,66,FC,52,
11547850,0340412E,true,Rx,0,8,7E,80,00,1D,80,00,00,00,
11548130,19000026,true,Rx,0,8,00,FF,01,40,38,11,84,00,
11550070,1B200002,true,Rx,0,8,00,00,00,00,00,00,0F,71,
11551407,00800006,true,Rx,0,8,09,D9,0E,52,41,D9,2E,65,
11551697,0090411E,true,Rx,0,8,02,27,E1,D3,00,00,00,00,
11551977,0300410E,true,Rx,0,8,B8,88,A8,3C,87,BE,FC,00,
11552258,03800006,true,Rx,0,8,18,00,DE,61,0E,22,04,01,
11552547,1B600002,true,Rx,0,8,00,80,00,0C,00,1A,4C,00,
11554370,01C04026,true,Rx,0,8,80,00,80,00,80,00,80,00,
11554650,02000026,true,Rx,0,8,7F,34,00,DC,4B,00,E0,AC,
11554941,02104136,true,Rx,0,8,BB,00,3F,FF,07,E0,00,00,
11555211,02804026,true,Rx,0,8,37,FF,70,B9,F7,63,0D,FF,
11555501,02C00020,true,Rx,0,8,00,00,00,00,00,02,75,81,
11557345,0100082C,true,Rx,0,8,00,C0,84,E8,65,F3,00,6B,
11557625,0110483C,true,Rx,0,8,08,E9,6A,00,44,66,FC,52,
11557916,0340412E,true,Rx,0,8,7F,80,00,0D,80,00,00,00,
11561423,0300410E,true,Rx,0,8,B8,88,28,3C,87,BE,FC,00,
11562738,19000026,true,Rx,0,8,00,FF,01,40,38,11,8C,00,
11567105,0100082C,true,Rx,0,8,00,C0,84,E8,65,F3,00,6B,
11567381,0110483C,true,Rx,0,8,08,E9,EA,00,44,66,FC,52,
11567857,0340412E,true,Rx,0,8,70,80,00,FD,80,00,00,00,
11568323,01C04026,true,Rx,0,8,80,00,80,00,80,00,80,00,
11568603,02000026,true,Rx,0,8,7F,34,00,DC,4B,00,E0,AC,
11568893,02104136,true,Rx,0,8,BB,00,3F,FF,07,E0,00,00,
11569168,02804026,true,Rx,0,8,37,FF,70,5A,F7,63,0D,FA,
11569458,02C00020,true,Rx,0,8,00,00,00,00,00,02,75,81,
11569738,19A00002,true,Rx,0,8,6E,00,00,00,00,00,00,F7,
11571451,00800006,true,Rx,0,8,41,D9,0E,52,41,D9,AE,65,
11571730,0090411E,true,Rx,0,8,42,27,61,D3,00,00,00,00,
11572022,0300410E,true,Rx,0,8,38,88,28,3C,07,BE,6C,00,
11572301,03800006,true,Rx,0,8,18,00,DE,61,0E,22,04,01,
11572591,19E00006,true,Rx,0,8,00,00,18,C0,49,00,40,00,
11577143,0100082C,true,Rx,0,8,00,C0,84,E8,65,F3,00,6B,
11577430,0110483C,true,Rx,0,8,08,E9,6A,00,44,66,FC,52,
11577916,0340412E,true,Rx,0,8,71,80,00,ED,80,00,00,00,
11578207,19000026,true,Rx,0,8,00,FF,01,40,38,11,84,00,
11581445,0300410E,true,Rx,0,8,B8,88,B8,3C,87,BE,FC,00,
11582339,01C04026,true,Rx,0,8,80,00,80,00,80,00,80,00,
11582618,02000026,true,Rx,0,8,7F,34,00,DC,4B,00,E0,AC,
11582910,02104136,true,Rx,0,8,BB,00,3F,FF,07,E0,00,00,
11583190,02804026,true,Rx,0,8,37,FF,70,00,F7,63,0D,F7,
11583492,02C00020,true,Rx,0,8,00,00,00,00,00,02,75,81,
11587169,0100082C,true,Rx,0,8,00,C0,84,E8,65,F3,00,6B,
11587439,0110483C,true,Rx,0,8,08,E9,6A,00,44,66,FC,52,
11587913,0340412E,true,Rx,0,8,72,80,00,DD,80,00,00,00,
11591445,00800006,true,Rx,0,8,89,E2,0E,56,41,E2,2E,75,
11591731,0090411E,true,Rx,0,8,02,44,E2,8C,00,00,00,00,
11592012,0300410E,true,Rx,0,8,B8,90,38,3C,87,CE,FC,00,
11592291,03800006,true,Rx,0,8,18,00,DE,61,0E,22,04,01,
11592735,19000026,true,Rx,0,8,00,FF,01,40,38,11,8C,00,
11596320,01C04026,true,Rx,0,8,80,00,80,00,80,00,80,00,
11596595,02000026,true,Rx,0,8,7F,34,00,DC,4B,00,E0,AC,
11596887,02104136,true,Rx,0,8,BB,00,3F,FF,07,E0,00,00,
11597167,02804026,true,Rx,0,8,37,FF,70,00,F7,63,0D,FA,
11597447,0100082C,true,Rx,0,8,00,C0,84,E8,65,F3,00,6B,
11597726,0110483C,true,Rx,0,8,08,E9,6A,00,44,66,FC,52,
11598017,02C00020,true,Rx,0,8,00,00,00,00,00,02,75,81,
11598298,0340412E,true,Rx,0,8,73,80,00,CD,80,00,00,00,
11598586,19A00002,true,Rx,0,8,12,00,00,00,00,00,00,F7,
11601490,0300410E,true,Rx,0,8,38,90,38,3C,07,CE,6C,00,
11607037,0100082C,true,Rx,0,8,00,C0,84,E8,65,F3,00,6B,
11607313,0110483C,true,Rx,0,8,08,E9,6A,00,44,66,FC,52,
11607850,0340412E,true,Rx,0,8,74,80,00,BD,80,00,00,00,
11608132,19000026,true,Rx,0,8,00,FF,01,40,38,11,84,00,
11610328,01C04026,true,Rx,0,8,80,00,80,00,80,00,80,00,
11610609,02000026,true,Rx,0,8,7F,34,00,DC,4B,00,E0,AC,
11610889,02104136,true,Rx,0,8,BB,00,3F,FF,07,E0,00,00,
11611168,02804026,true,Rx,0,8,37,FF,70,00,F7,63,0D,FF,
11611459,02C00020,true,Rx,0,8,00,00,00,00,00,02,75,81,
11611738,00800006,true,Rx,0,8,C9,E2,0E,56,41,E2,AE,75,
11612021,0090411E,true,Rx,0,8,C2,44,E2,8C,01,00,00,00,
11612290,0300410E,true,Rx,0,8,B8,90,B8,2C,87,CE,FC,00,
11612569,03800006,true,Rx,0,8,58,00,DE,61,0E,22,04,01,
11617827,0340412E,true,Rx,0,8,75,80,00,AD,80,00,00,00,
11619228,0100082C,true,Rx,0,8,00,C0,84,E8,65,F3,00,6B,
11619507,0110483C,true,Rx,0,8,08,E7,EA,00,44,66,FC,52,
11621486,0300410E,true,Rx,0,8,38,90,38,2C,07,CE,6C,00,
11621765,19E00006,true,Rx,0,8,00,00,18,E0,49,00,40,00,
11622755,19000026,true,Rx,0,8,00,FF,01,40,38,11,84,00,
11624319,01C04026,true,Rx,0,8,80,00,80,00,80,00,80,00,
11624599,02000026,true,Rx,0,8,7F,34,00,DC,4B,00,E0,AC,
11624890,02104136,true,Rx,0,8,BB,00,3F,FF,07,E0,00,00,
11625170,02804026,true,Rx,0,8,37,FF,70,00,F7,63,0D,FF,
11625460,02C00020,true,Rx,0,8,00,00,00,00,00,02,75,81,
11625739,19A00002,true,Rx,0,8,02,00,00,00,00,00,00,F7,
11627418,0100082C,true,Rx,0,8,00,C0,84,E8,65,F3,00,6B,
11627698,0110483C,true,Rx,0,8,08,E7,62,00,44,66,FC,52,
11627976,0340412E,true,Rx,0,8,76,80,00,9D,80,00,00,00,
11628257,1A200020,true,Rx,0,8,0E,00,A2,3E,00,00,02,3E,
11628546,1AE0092C,true,Rx,0,8,80,00,22,E0,41,A0,00,00,
11628836,1B700030,true,Rx,0,8,35,8F,22,00,00,00,03,00,
11631511,00800006,true,Rx,0,8,01,E2,0E,52,41,E2,2E,7A,
11631790,0090411E,true,Rx,0,8,02,44,62,8C,01,00,00,00,
11632070,0300410E,true,Rx,0,8,B8,88,38,2C,87,CD,FC,00,
11632350,03800006,true,Rx,0,8,18,00,DE,61,0E,22,04,01,
11635091,1B200002,true,Rx,0,8,00,00,00,00,00,00,0F,71,
11637087,0100082C,true,Rx,0,8,00,C0,84,E8,65,F3,00,6B,
11637368,0110483C,true,Rx,0,8,08,E7,62,00,44,66,FC,52,
11637852,0340412E,true,Rx,0,8,77,80,00,8D,80,00,00,00,
11638134,19000026,true,Rx,0,8,00,FF,01,40,38,11,8C,00,
11638424,01C04026,true,Rx,0,8,80,00,80,00,80,00,80,00,
11638703,02000026,true,Rx,0,8,7F,34,00,DC,4B,00,E0,AC,
11638995,02104136,true,Rx,0,8,BB,00,3F,FF,07,E0,00,00,
11639275,02804026,true,Rx,0,8,37,FF,70,00,F7,63,0D,FD,
11639564,02C00020,true,Rx,0,8,00,00,00,00,00,02,75,81,
11641531,0300410E,true,Rx,0,8,B8,88,B8,2C,87,CD,FC,00,
11647049,0100082C,true,Rx,0,8,00,C0,84,E8,65,F3,00,6B,
11647325,0110483C,true,Rx,0,8,08,E7,62,00,44,66,FC,52,
11647924,0340412E,true,Rx,0,8,78,80,00,7D,80,00,00,00,
11651503,00800006,true,Rx,0,8,49,E2,0E,52,41,E2,2E,7A,
11651788,0090411E,true,Rx,0,8,02,42,E3,17,01,00,00,00,
11652070,0300410E,true,Rx,0,8,38,88,38,2C,07,CD,6C,00,
11652360,01C04026,true,Rx,0,8,80,00,80,00,80,00,80,00,
11652639,02000026,true,Rx,0,8,7F,34,00,DC,4B,00,E0,AC,
11652921,02104136,true,Rx,0,8,BB,00,3F,FF,07,E0,00,00,
11653200,02804026,true,Rx,0,8,37,FF,70,00,F7,63,0D,FA,
11653491,02C00020,true,Rx,0,8,00,00,00,00,00,02,75,81,
11653779,03800006,true,Rx,0,8,18,00,DE,61,0E,22,04,01,
11654059,19000026,true,Rx,0,8,00,FF,01,40,38,11,84,00,
11654350,19A00002,true,Rx,0,8,12,00,00,00,00,00,00,F7,
11657371,0100082C,true,Rx,0,8,00,C0,84,E8,65,F3,00,6B,
11657646,0110483C,true,Rx,0,8,08,E7,62,00,44,66,FC,52,
11657927,0340412E,true,Rx,0,8,79,80,00,6D,80,00,00,00,
11661522,0300410E,true,Rx,0,8,B8,85,38,2F,87,CC,FC,00,
11666327,01C04026,true,Rx,0,8,80,00,80,00,80,00,80,00,
11666613,02000026,true,Rx,0,8,7F,34,00,DC,4B,00,E0,AC,
11666894,02104136,true,Rx,0,8,BB,00,3F,FF,07,E0,00,00,
11667184,0100082C,true,Rx,0,8,00,C0,84,E8,75,F3,00,6B,
11667464,0110483C,true,Rx,0,8,08,E7,E2,00,44,66,FC,52,
11667743,02804026,true,Rx,0,8,37,FF,70,00,F7,63,0D,F7,
11668035,02C00020,true,Rx,0,8,00,00,00,00,00,02,75,81,
11668315,0340412E,true,Rx,0,8,7A,80,00,5D,80,00,00,00,
11668603,19000026,true,Rx,0,8,00,FF,01,40,38,11,8C,00,
11671558,00800006,true,Rx,0,8,89,E1,0E,4F,41,E1,AE,80,
11671837,0090411E,true,Rx,0,8,42,5E,E3,B8,01,00,00,00,
11672119,0300410E,true,Rx,0,8,B8,84,B8,2F,87,CC,FC,00,
11672409,03800006,true,Rx,0,8,18,00,DE,61,0E,22,04,01,
11672689,19E00006,true,Rx,0,8,00,00,18,C0,49,00,40,00,
11677165,0100082C,true,Rx,0,8,00,C0,84,E8,65,F3,00,6B,
11677441,0110483C,true,Rx,0,8,08,E7,62,00,44,66,FC,52,
11677854,0340412E,true,Rx,0,8,7B,80,00,4D,80,00,00,00,
11680329,01C04026,true,Rx,0,8,80,00,80,00,80,00,80,00,
11680618,02000026,true,Rx,0,8,7F,34,00,DC,4B,00,E0,AC,
11680899,02104136,true,Rx,0,8,BB,00,3F,FF,07,E0,00,00,
11681179,02804026,true,Rx,0,8,37,FF,70,00,F7,63,0D,FD,
11681471,02C00020,true,Rx,0,8,00,00,00,00,00,02,75,81,
11681751,0300410E,true,Rx,0,8,38,84,38,2F,07,CC,6C,00,
11682032,19A00002,true,Rx,0,8,6E,00,00,00,00,00,00,F7,
11682755,19000026,true,Rx,0,8,00,FF,01,40,38,11,84,00,
11687212,0100082C,true,Rx,0,8,00,C0,84,E8,65,F3,00,6B,
11687499,0110483C,true,Rx,0,8,08,E7,62,00,44,66,FC,52,
11687860,0340412E,true,Rx,0,8,7C,80,00,3D,80,00,00,00,
11691552,00800006,true,Rx,0,8,C1,E1,0E,4C,41,E1,2E,83,
11691839,0090411E,true,Rx,0,8,02,5E,63,B8,01,00,00,00,
11692119,0300410E,true,Rx,0,8,B8,7F,38,2F,87,CB,FC,00,
11692399,03800006,true,Rx,0,8,18,00,DE,61,0E,22,04,01,
11694360,01C04026,true,Rx,0,8,80,00,80,00,80,00,80,00,
11694639,02000026,true,Rx,0,8,7F,34,00,DC,4B,00,E0,AC,
11694931,02104136,true,Rx,0,8,BB,00,3F,FF,07,E0,00,00,
11695211,02804026,true,Rx,0,8,37,FF,70,00,F7,63,0D,FF,
11695500,02C00020,true,Rx,0,8,00,00,00,00,00,02,75,81,
11697155,0100082C,true,Rx,0,8,00,C0,84,E8,65,F3,00,6B,
11697436,0110483C,true,Rx,0,8,08,E7,62,00,44,66,FC,52,
11697910,0340412E,true,Rx,0,8,7D,80,00,2D,80,00,00,00,
11698190,19000026,true,Rx,0,8,00,FF,01,40,38,11,84,00,
11701569,0300410E,true,Rx,0,8,38,7F,B8,2F,07,CB,6C,00,
11707068,0100082C,true,Rx,0,8,00,C0,84,E8,65,F3,00,6B,
11707345,0110483C,true,Rx,0,8,08,E7,62,00,44,66,FC,52,
11707850,0340412E,true,Rx,0,8,7E,80,00,1D,80,00,00,00,
11708327,01C04026,true,Rx,0,8,80,00,80,00,80,00,80,00,
11708606,02000026,true,Rx,0,8,7F,34,00,DC,4B,00,E0,AC,
11708898,02104136,true,Rx,0,8,BB,00,3F,FF,07,E0,00,00,
11709172,02804026,true,Rx,0,8,37,FF,70,00,F7,63,0D,FD,
11709461,02C00020,true,Rx,0,8,00,00,00,00,00,02,75,81,
11709752,19A00002,true,Rx,0,8,12,00,00,00,00,00,00,F7,
11711598,00800006,true,Rx,0,8,09,E0,0E,48,41,E0,AE,86,
11711880,0090411E,true,Rx,0,8,C2,3D,E4,14,03,00,00,00,
11712159,0300410E,true,Rx,0,8,B8,78,38,31,87,CB,FC,00,
11712439,03800006,true,Rx,0,8,58,00,DE,61,0E,22,04,01,
11712740,19000026,true,Rx,0,8,00,FF,01,40,38,11,8C,00,
11717220,0100082C,true,Rx,0,8,00,C0,84,E8,65,F3,00,6B,
11717495,0110483C,true,Rx,0,8,08,E7,E2,00,44,66,FC,52,
11717930,0340412E,true,Rx,0,8,7F,80,00,0D,80,00,00,00,
11720074,1B200002,true,Rx,0,8,00,00,00,00,00,00,0F,71,
11721575,0300410E,true,Rx,0,8,B8,77,38,31,87,CB,FC,00,
11721866,19E00006,true,Rx,0,8,00,00,18,E0,49,00,40,00,
11722147,1B600002,true,Rx,0,8,00,80,00,0C,00,1A,4C,00,
11722436,01C04026,true,Rx,0,8,80,00,80,00,80,00,80,00,
11722717,02000026,true,Rx,0,8,7F,34,00,DC,4C,00,E0,AC,
11723007,02104136,true,Rx,0,8,BB,00,3F,FF,07,E0,00,00,
11723304,02804026,true,Rx,0,8,37,FF,70,00,F7,63,0D,FA,
11723574,02C00020,true,Rx,0,8,00,00,00,00,00,02,75,81,
11727326,0100082C,true,Rx,0,8,00,C0,84,E8,65,F3,00,6B,
11727601,0110483C,true,Rx,0,8,08,E7,62,00,44,66,FC,52,
11727892,0340412E,true,Rx,0,8,70,80,00,FD,80,00,00,00,
11728172,19000026,true,Rx,0,8,00,FF,01,40,38,11,84,00,
11731595,00800006,true,Rx,0,8,49,E0,0E,48,41,E0,2E,86,
11731872,0090411E,true,Rx,0,8,02,2A,E4,94,03,00,00,00,
11732152,0300410E,true,Rx,0,8,38,77,B8,31,07,CB,6C,00,
11732442,03800006,true,Rx,0,8,18,00,DE,61,0E,22,04,01,
11736291,01C04026,true,Rx,0,8,80,00,80,00,80,00,80,00,
11736578,02000026,true,Rx,0,8,7F,34,00,DC,4C,00,E0,AC,
11736857,02104136,true,Rx,0,8,BB,00,3F,FF,07,E0,00,00,
11737138,02804026,true,Rx,0,8,37,FF,70,00,F7,63,0D,FA,
11737429,0100082C,true,Rx,0,8,00,C0,84,E8,65,F3,00,00,
11737708,0110483C,true,Rx,0,8,08,E7,62,00,44,66,FC,52,
11737990,02C00020,true,Rx,0,8,00,00,00,00,00,02,75,81,
11738279,0340412E,true,Rx,0,8,71,80,00,ED,80,00,00,00,
11738567,19A00002,true,Rx,0,8,02,00,00,00,00,00,00,F7,
11741625,0300410E,true,Rx,0,8,B8,72,38,31,87,CA,FC,00,
11742747,19000026,true,Rx,0,8,00,FF,01,40,38,11,8C,00,
11747107,0100082C,true,Rx,0,8,00,C0,84,E8,65,F3,00,00,
11747383,0110483C,true,Rx,0,8,08,E7,62,00,44,66,FC,52,
11747858,0340412E,true,Rx,0,8,72,80,00,DD,80,00,00,00,
11750312,01C04026,true,Rx,0,8,80,00,80,00,80,00,80,00,
11750591,02000026,true,Rx,0,8,7F,34,00,DC,4C,00,E0,AC,
11750882,02104136,true,Rx,0,8,BB,00,3F,FF,07,E0,00,00,
11751152,02804026,true,Rx,0,8,37,FF,70,00,F7,63,0D,FF,
11751444,02C00020,true,Rx,0,8,00,00,00,00,00,02,75,81,
11751735,00800006,true,Rx,0,8,81,E0,0E,45,41,E0,2E,88,
11752015,0090411E,true,Rx,0,8,02,2A,64,94,03,00,00,00,
11752294,0300410E,true,Rx,0,8,B8,72,38,31,87,CA,FC,00,
11752575,03800006,true,Rx,0,8,18,00,DE,61,0E,22,04,01,
11752854,1BA0493C,true,Rx,0,8,0A,01,01,01,01,02,06,01,
11753145,1BE0493C,true,Rx,0,8,05,00,00,00,00,00,07,8F,
11757114,0100082C,true,Rx,0,8,00,C0,84,E8,75,F3,00,00,
11757390,0110483C,true,Rx,0,8,08,E7,62,00,44,66,FC,52,
11757918,0340412E,true,Rx,0,8,73,80,00,CD,80,00,00,00,
11758197,19000026,true,Rx,0,8,00,FF,01,40,38,11,84,00,
11761624,0300410E,true,Rx,0,8,38,72,B8,31,07,CA,6C,00,
11764317,01C04026,true,Rx,0,8,80,00,80,00,80,00,80,00,
11764602,02000026,true,Rx,0,8,7F,34,00,DC,4C,00,E0,AC,
11764884,02104136,true,Rx,0,8,BB,00,3F,FF,07,E0,00,00,
11765163,02804026,true,Rx,0,8,37,FF,70,1B,F7,63,0D,FF,
11765453,02C00020,true,Rx,0,8,00,00,00,00,00,02,75,81,
11765743,19A00002,true,Rx,0,8,12,00,00,00,00,00,00,F7,
11767183,0100082C,true,Rx,0,8,00,C0,84,E8,65,F3,00,00,
11767472,0110483C,true,Rx,0,8,08,E7,E2,00,44,66,FC,52,
11767908,0340412E,true,Rx,0,8,74,80,00,BD,80,00,00,00,
11771635,00800006,true,Rx,0,8,C9,E0,0E,40,41,E0,AE,8A,
11771913,0090411E,true,Rx,0,8,42,34,E4,D6,03,00,00,00,
11772192,0300410E,true,Rx,0,8,B8,6A,38,31,87,C9,FC,00,
11772473,03800006,true,Rx,0,8,18,00,DE,61,0E,22,04,01,
11772752,19000026,true,Rx,0,8,00,FF,01,40,38,11,8C,00,
11773043,19E00006,true,Rx,0,8,00,00,18,C0,49,00,40,00,
11777242,0100082C,true,Rx,0,8,00,C0,84,E8,65,F3,00,00,
11777527,0110483C,true,Rx,0,8,08,E7,62,00,44,66,FC,52,
11777859,0340412E,true,Rx,0,8,75,80,00,AD,80,00,00,00,
11778345,01C04026,true,Rx,0,8,80,00,80,00,80,00,80,00,
11778626,02000026,true,Rx,0,8,7F,34,00,DC,4C,00,E0,AC,
11778906,02104136,true,Rx,0,8,BB,00,3F,FF,07,E0,00,00,
11779186,02804026,true,Rx,0,8,37,FF,70,76,F7,63,0D,FD,
11779473,02C00020,true,Rx,0,8,00,00,00,00,00,02,75,81,
11781664,0300410E,true,Rx,0,8,38,6A,38,31,07,C9,6C,00,
11787041,0100082C,true,Rx,0,8,00,C0,84,E8,65,F3,00,00,
11787328,0110483C,true,Rx,0,8,08,E7,62,00,44,66,FC,52,
11787928,0340412E,true,Rx,0,8,76,80,00,9D,80,00,00,00,
11788207,19000026,true,Rx,0,8,00,FF,01,40,38,11,84,00,
11791653,00800006,true,Rx,0,8,09,DF,0E,3D,41,DF,2E,8C,
11791931,0090411E,true,Rx,0,8,02,2E,E5,0C,03,00,00,00,
11792210,0300410E,true,Rx,0,8,B8,66,B8,31,87,C9,FC,00,
11792501,01C04026,true,Rx,0,8,80,00,80,00,80,00,80,00,
11792780,02000026,true,Rx,0,8,7F,34,00,DC,4C,00,E0,AC,
11793071,02104136,true,Rx,0,8,BB,00,3F,FF,07,E0,00,00,
11793341,02804026,true,Rx,0,8,37,FF,70,D3,F7,63,0D,FA,
11793631,02C00020,true,Rx,0,8,00,00,00,00,00,02,75,81,
11793920,03800006,true,Rx,0,8,18,00,DE,61,0E,22,04,01,
11794200,19A00002,true,Rx,0,8,6E,00,00,00,00,00,00,F7,
11797281,0100082C,true,Rx,0,8,00,C0,84,E8,65,F3,00,00,
11797560,0110483C,true,Rx,0,8,08,E7,62,00,44,66,FC,52,
11797839,0340412E,true,Rx,0,8,77,80,00,8D,80,00,00,00,
11801660,0300410E,true,Rx,0,8,B8,5E,38,31,87,C8,FC,00,
11802759,19000026,true,Rx,0,8,00,FF,01,40,38,11,8C,00,
11806139,1B200002,true,Rx,0,8,00,00,00,00,00,00,0F,71,
11806426,01C04026,true,Rx,0,8,80,00,80,00,80,00,80,00,
11806705,02000026,true,Rx,0,8,7F,34,00,DC,4C,00,E0,AC,
11806996,02104136,true,Rx,0,8,BB,00,3F,FF,07,E0,00,00,
11807277,0100082C,true,Rx,0,8,00,C0,84,E8,65,F3,00,00,
11807556,0110483C,true,Rx,0,8,08,E7,62,00,44,66,FC,52,
11807837,02804026,true,Rx,0,8,37,FF,71,31,F7,63,0D,FA,
11808128,02C00020,true,Rx,0,8,00,00,00,00,00,02,75,81,
11808416,0340412E,true,Rx,0,8,78,80,00,7D,80,00,00,00,
11811691,00800006,true,Rx,0,8,41,DF,0E,39,41,DF,AE,8C,
11811972,0090411E,true,Rx,0,8,C2,2E,65,0C,04,00,00,00,
11812249,0300410E,true,Rx,0,8,38,5E,38,33,07,C8,6C,00,
11812530,03800006,true,Rx,0,8,58,00,DE,61,0E,22,04,01,
11817100,0100082C,true,Rx,0,8,00,C0,84,E8,65,F3,00,00,
11817386,0110483C,true,Rx,0,8,08,E7,E2,00,44,66,FC,52,
11817861,0340412E,true,Rx,0,8,79,80,00,6D,80,00,00,00,
11818142,19000026,true,Rx,0,8,00,FF,01,40,38,11,84,00,
11820319,01C04026,true,Rx,0,8,80,00,80,00,80,00,80,00,
11820598,02000026,true,Rx,0,8,7F,34,00,DC,4C,00,E0,AC,
11820880,02104136,true,Rx,0,8,BB,00,3F,FF,07,E0,00,00,
11821170,02804026,true,Rx,0,8,37,FF,71,8F,F7,63,0D,FD,
11821449,02C00020,true,Rx,0,8,00,00,00,00,00,02,75,81,
11821730,0300410E,true,Rx,0,8,B8,5E,B8,33,87,C8,FC,00,
11822020,19A00002,true,Rx,0,8,12,00,00,00,00,00,00,F7,
11822300,19E00006,true,Rx,0,8,00,00,18,E0,49,00,40,00,
11827172,0100082C,true,Rx,0,8,00,C0,84,E8,65,F3,00,00,
11827447,0110483C,true,Rx,0,8,08,E7,62,00,44,66,FC,52,
11827861,0340412E,true,Rx,0,8,7A,80,00,5D,80,00,00,00,
11831686,00800006,true,Rx,0,8,89,DF,0E,35,41,DF,2E,8E,
11831974,0090411E,true,Rx,0,8,02,16,E5,26,04,00,00,00,
