Time Stamp,ID,Extended,Dir,Bus,LEN,D1,D2,D3,D4,D5,D6,D7,D8
4298027396,0100082C,true,Rx,0,8,00,C0,93,5F,61,F0,00,95,
4298027682,1A200020,true,Rx,0,8,EC,00,02,2E,00,00,02,2D,
4298027972,1AE0092C,true,Rx,0,8,20,00,22,20,01,A0,00,00,
4298028253,1B700030,true,Rx,0,8,2C,88,1E,00,00,00,03,00,
4298037500,0100082C,true,Rx,0,8,00,C0,93,5F,61,F0,00,95,
4298037777,0110483C,true,Rx,0,8,08,E4,22,08,44,66,FC,54,
4298047464,0100082C,true,Rx,0,8,00,C0,93,5F,61,F0,00,95,
4298047751,0110483C,true,Rx,0,8,08,E4,A2,00,44,66,FC,54,
4298057478,0100082C,true,Rx,0,8,00,C0,93,5F,61,F0,00,95,
4298057754,0110483C,true,Rx,0,8,08,E4,22,00,44,66,FC,54,
4298067473,0100082C,true,Rx,0,8,00,C0,93,5F,61,F0,00,95,
4298067749,0110483C,true,Rx,0,8,08,E4,22,00,44,66,FC,54,
4298077477,0100082C,true,Rx,0,8,00,C0,93,5F,61,F0,00,95,
4298077764,0110483C,true,Rx,0,8,08,E4,22,00,44,66,FC,54,
4298087472,0100082C,true,Rx,0,8,00,C0,93,5F,61,F0,00,95,
4298087749,0110483C,true,Rx,0,8,08,E6,2A,00,44,66,FC,53,
4298097499,0100082C,true,Rx,0,8,00,C0,93,5F,61,F0,00,95,
4298097775,0110483C,true,Rx,0,8,08,E6,AA,00,44,66,FC,52,
4298107464,0100082C,true,Rx,0,8,00,C0,93,5F,61,F0,00,95,
4298107740,0110483C,true,Rx,0,8,08,E6,2A,00,44,66,FC,52,
4298117468,0100082C,true,Rx,0,8,00,C0,93,5F,61,F0,00,95,
4298117754,0110483C,true,Rx,0,8,08,E6,2A,00,44,66,FC,52,
4298127484,0100082C,true,Rx,0,8,00,C0,93,5F,61,F0,00,95,
4298127759,0110483C,true,Rx,0,8,08,E9,2A,00,44,66,FC,52,
4298130611,00800006,true,Rx,0,8,60,00,00,00,00,00,00,00,
4298130901,0090411E,true,Rx,0,8,00,00,00,00,00,00,00,00,
4298131202,0300410E,true,Rx,0,8,00,00,00,00,00,00,00,00,
4298131493,03800006,true,Rx,0,8,00,00,00,00,00,00,00,00,
4298131785,19E00006,true,Rx,0,8,00,00,00,C0,00,00,00,00,
4298132087,1B600002,true,Rx,0,8,00,00,00,00,00,00,00,00,
4298132510,0300410E,true,Rx,0,8,00,00,00,00,00,00,00,00,
4298134522,00800006,true,Rx,0,8,80,00,00,00,00,00,00,00,
4298134811,0090411E,true,Rx,0,8,00,00,00,00,00,00,00,00,
4298135112,0300410E,true,Rx,0,8,00,00,00,00,00,00,00,00,
4298135403,03800006,true,Rx,0,8,00,00,00,00,00,00,00,00,
4298136479,0300410E,true,Rx,0,8,00,00,00,00,00,00,00,00,
4298137693,0100082C,true,Rx,0,8,00,C0,93,5F,61,F0,00,95,
4298137972,0110483C,true,Rx,0,8,08,E9,2A,00,44,66,FC,52,
4298138490,00800006,true,Rx,0,8,C0,00,00,00,00,00,00,00,
4298138780,0090411E,true,Rx,0,8,00,00,00,00,00,00,00,00,
4298139072,0300410E,true,Rx,0,8,00,00,00,00,00,00,00,00,
4298139372,03800006,true,Rx,0,8,00,00,00,00,00,00,00,00,
4298140482,0300410E,true,Rx,0,8,00,00,00,00,00,00,00,00,
4298140773,19E00006,true,Rx,0,8,00,00,00,C0,00,00,00,00,
4298142483,00800006,true,Rx,0,8,00,00,00,00,00,00,00,00,
4298142773,0090411E,true,Rx,0,8,00,00,00,00,00,00,00,00,
4298143065,0300410E,true,Rx,0,8,00,00,00,00,00,00,00,00,
4298143365,03800006,true,Rx,0,8,00,00,00,00,00,00,00,00,
4298144452,01C04026,true,Rx,0,8,80,00,80,00,80,00,80,00,
4298144741,02000026,true,Rx,0,8,7F,34,00,CC,4C,00,E0,AC,
4298145022,02104136,true,Rx,0,8,BB,00,3F,FF,07,E0,00,00,
4298145303,02804026,true,Rx,0,8,B7,FF,77,FF,F2,00,1E,0A,
4298145603,02C00020,true,Rx,0,8,00,00,00,00,00,00,00,00,
4298145897,0300410E,true,Rx,0,8,00,00,00,00,00,00,00,00,
4298146188,19A00002,true,Rx,0,8,12,00,00,00,00,00,00,07,
4298146488,00800006,true,Rx,0,8,40,00,00,00,00,00,00,00,
4298146779,0090411E,true,Rx,0,8,00,00,00,00,00,00,00,00,
4298147070,0300410E,true,Rx,0,8,00,00,00,00,00,00,00,00,
4298147370,03800006,true,Rx,0,8,00,00,00,00,00,00,00,00,
4298147801,0100082C,true,Rx,0,8,00,C0,93,5F,61,F0,00,95,
4298148081,0110483C,true,Rx,0,8,08,E9,AA,00,44,66,FC,52,
4298148505,0300410E,true,Rx,0,8,00,00,00,00,00,00,00,00,
4298150495,00800006,true,Rx,0,8,80,00,00,00,00,00,00,00,
4298150786,0090411E,true,Rx,0,8,00,00,00,00,00,00,00,00,
4298151077,0300410E,true,Rx,0,8,00,00,00,00,00,00,00,00,
4298151378,03800006,true,Rx,0,8,00,00,00,00,00,00,00,00,
4298151667,19E00006,true,Rx,0,8,00,00,00,C0,00,00,00,00,
4298152488,0300410E,true,Rx,0,8,00,00,00,00,00,00,00,00,
4298154496,00800006,true,Rx,0,8,C0,00,00,00,00,00,00,00,
4298154785,0090411E,true,Rx,0,8,00,00,00,00,00,00,00,00,
4298155076,0300410E,true,Rx,0,8,00,00,00,00,00,00,00,00,
4298155377,03800006,true,Rx,0,8,00,00,00,00,00,00,00,00,
4298156494,0300410E,true,Rx,0,8,00,00,00,00,00,00,00,00,
4298157598,0100082C,true,Rx,0,8,00,C0,93,5F,61,F0,00,95,
4298157876,0110483C,true,Rx,0,8,08,E9,2A,00,44,66,FC,52,
4298158507,00800006,true,Rx,0,8,00,00,00,00,00,00,00,00,
4298158807,0090411E,true,Rx,0,8,00,00,00,00,00,00,00,00,
4298159099,01C04026,true,Rx,0,8,80,00,80,00,80,00,80,00,
4298159378,02000026,true,Rx,0,8,7F,34,00,CC,4C,00,E0,AC,
4298159668,02104136,true,Rx,0,8,BB,00,3F,FF,07,E0,00,00,
4298159945,02804026,true,Rx,0,8,B7,FF,77,FF,F2,00,1E,0A,
4298160235,02C00020,true,Rx,0,8,00,00,00,00,00,00,00,00,
4298160536,0300410E,true,Rx,0,8,00,00,00,00,00,00,00,00,
4298160826,03800006,true,Rx,0,8,00,00,00,00,00,00,00,00,
4298161127,19E00006,true,Rx,0,8,00,00,00,C0,00,00,00,00,
4298162493,00800006,true,Rx,0,8,40,00,00,00,00,00,00,00,
4298162783,0090411E,true,Rx,0,8,00,00,00,00,00,00,00,00,
4298163086,0300410E,true,Rx,0,8,00,00,00,00,00,00,00,00,
4298163375,03800006,true,Rx,0,8,00,00,00,00,00,00,00,00,
4298164493,0300410E,true,Rx,0,8,00,00,00,00,00,00,00,00,
4298164793,1B600002,true,Rx,0,8,00,00,00,00,00,00,00,00,
4298166503,00800006,true,Rx,0,8,80,00,00,00,00,00,00,00,
4298166794,0090411E,true,Rx,0,8,00,00,00,00,00,00,00,00,
4298167085,0300410E,true,Rx,0,8,00,00,00,00,00,00,00,00,
4298167385,03800006,true,Rx,0,8,00,00,00,00,00,00,00,00,
4298167665,0100082C,true,Rx,0,8,00,C0,93,5F,61,F0,00,95,
4298167949,0110483C,true,Rx,0,8,08,E9,2A,00,44,66,FC,52,
4298168518,0300410E,true,Rx,0,8,00,00,00,00,00,00,00,00,
4298170509,00800006,true,Rx,0,8,C0,00,00,00,00,00,00,00,
4298170798,0090411E,true,Rx,0,8,00,00,00,00,00,00,00,00,
4298171089,0300410E,true,Rx,0,8,00,00,00,00,00,00,00,00,
4298171390,03800006,true,Rx,0,8,00,00,00,00,00,00,00,00,
4298171680,19E00006,true,Rx,0,8,00,00,00,C0,00,00,00,00,
4298172470,01C04026,true,Rx,0,8,80,00,80,00,80,00,80,00,
4298172760,02000026,true,Rx,0,8,7F,34,00,CC,4C,00,E0,AC,
4298173041,02104136,true,Rx,0,8,BB,00,3F,FF,07,E0,00,00,
4298173321,02804026,true,Rx,0,8,B7,FF,77,FF,F2,00,1E,0A,
4298173622,02C00020,true,Rx,0,8,00,00,00,00,00,00,00,00,
4298173911,0300410E,true,Rx,0,8,00,00,00,00,00,00,00,00,
4298174199,19A00002,true,Rx,0,8,6E,00,00,00,00,00,00,F7,
4298174520,00800006,true,Rx,0,8,00,00,00,00,00,00,00,00,
4298174810,0090411E,true,Rx,0,8,00,00,00,00,00,00,00,00,
4298175102,0300410E,true,Rx,0,8,00,00,00,00,00,00,00,00,
4298175402,03800006,true,Rx,0,8,00,00,00,00,00,00,00,00,
4298176510,0300410E,true,Rx,0,8,00,00,00,00,00,00,00,00,
4298177790,0100082C,true,Rx,0,8,00,C0,93,5F,61,F0,00,95,
4298178068,0110483C,true,Rx,0,8,08,E9,2A,00,44,66,FC,52,
4298178534,00800006,true,Rx,0,8,40,00,00,00,00,00,00,00,
4298178823,0090411E,true,Rx,0,8,00,00,00,00,00,00,00,00,
4298179125,0300410E,true,Rx,0,8,00,00,00,00,00,00,00,00,
4298179415,03800006,true,Rx,0,8,00,00,00,00,00,00,00,00,
4298180514,0300410E,true,Rx,0,8,00,00,00,00,00,00,00,00,
4298180804,19E00006,true,Rx,0,8,00,00,00,C0,00,00,00,00,
4298182515,00800006,true,Rx,0,8,80,00,00,00,00,00,00,00,
4298182806,0090411E,true,Rx,0,8,00,00,00,00,00,00,00,00,
4298183107,0300410E,true,Rx,0,8,00,00,00,00,00,00,00,00,
4298183397,03800006,true,Rx,0,8,00,00,00,00,00,00,00,00,
4298184514,0300410E,true,Rx,0,8,00,00,00,00,00,00,00,00,
4298186459,01C04026,true,Rx,0,8,80,00,80,00,80,00,80,00,
4298186750,00800006,true,Rx,0,8,C0,00,00,00,00,00,00,00,
4298187041,0090411E,true,Rx,0,8,00,00,00,00,00,00,00,00,
4298187330,02000026,true,Rx,0,8,7F,34,00,CC,4C,00,E0,AC,
4298187611,0100082C,true,Rx,0,8,00,C0,93,5F,61,F0,00,95,
4298187890,0110483C,true,Rx,0,8,08,E9,2A,00,44,66,FC,52,
4298188178,02104136,true,Rx,0,8,BB,00,3F,FF,07,E0,00,00,
4298188468,02804026,true,Rx,0,8,B7,FF,77,FF,F2,00,1E,0C,
4298188757,02C00020,true,Rx,0,8,00,00,00,00,00,00,00,00,
4298189049,0300410E,true,Rx,0,8,00,00,00,00,00,00,00,00,
4298189349,03800006,true,Rx,0,8,00,00,00,00,00,00,00,00,
4298190521,00800006,true,Rx,0,8,00,00,00,00,00,00,00,00,
4298190821,0090411E,true,Rx,0,8,00,00,00,00,00,00,00,00,
4298191112,0300410E,true,Rx,0,8,00,00,00,00,00,00,00,00,
4298191403,03800006,true,Rx,0,8,00,00,00,00,00,00,00,00,
4298191702,19E00006,true,Rx,0,8,00,00,00,C0,00,00,00,00,
4298192523,0300410E,true,Rx,0,8,00,00,00,00,00,00,00,00,
4298194530,00800006,true,Rx,0,8,40,00,00,00,00,00,00,00,
4298194820,0090411E,true,Rx,0,8,00,00,00,00,00,00,00,00,
4298195112,0300410E,true,Rx,0,8,00,00,00,00,00,00,00,00,
4298195412,03800006,true,Rx,0,8,00,00,00,00,00,00,00,00,
4298196528,0300410E,true,Rx,0,8,00,00,00,00,00,00,00,00,
4298197623,0100082C,true,Rx,0,8,00,C0,93,5F,61,F0,00,95,
4298197902,0110483C,true,Rx,0,8,08,E9,AA,00,44,66,FC,52,
4298198554,00800006,true,Rx,0,8,80,00,00,00,00,00,00,00,
4298198844,0090411E,true,Rx,0,8,00,00,00,00,00,00,00,00,
4298199136,0300410E,true,Rx,0,8,00,00,00,00,00,00,00,00,
4298199436,03800006,true,Rx,0,8,00,00,00,00,00,00,00,00,
4298199726,1B600002,true,Rx,0,8,00,00,00,00,00,00,00,00,
4298200475,01C04026,true,Rx,0,8,80,00,80,00,80,00,80,00,
4298200754,02000026,true,Rx,0,8,7F,34,00,CC,4C,00,E0,AC,
4298201045,02104136,true,Rx,0,8,BB,00,3F,FF,07,E0,00,00,
4298201325,02804026,true,Rx,0,8,B7,FF,77,FF,F2,00,1E,0C,
4298201625,02C00020,true,Rx,0,8,00,00,00,00,00,00,00,00,
4298201915,0300410E,true,Rx,0,8,00,00,00,00,00,00,00,00,
4298202207,19A00002,true,Rx,0,8,12,00,00,00,00,00,00,F7,
4298202505,19E00006,true,Rx,0,8,00,00,00,C0,00,00,00,00,
4298202796,00800006,true,Rx,0,8,C0,00,00,00,00,00,00,00,
4298203087,0090411E,true,Rx,0,8,00,00,00,00,00,00,00,00,
4298203387,0300410E,true,Rx,0,8,00,00,00,00,00,00,00,00,
4298203678,03800006,true,Rx,0,8,00,00,00,00,00,00,00,00,
4298204539,0300410E,true,Rx,0,8,00,00,00,00,00,00,00,00,
4298206546,00800006,true,Rx,0,8,00,00,00,00,00,00,00,00,
4298206837,0090411E,true,Rx,0,8,00,00,00,00,00,00,00,00,
4298207127,0300410E,true,Rx,0,8,00,00,00,00,00,00,00,00,
4298207428,03800006,true,Rx,0,8,00,00,00,00,00,00,00,00,
4298207708,0100082C,true,Rx,0,8,00,C0,93,5F,61,F0,00,95,
4298207988,0110483C,true,Rx,0,8,08,E9,2A,00,44,66,FC,52,
4298208563,0300410E,true,Rx,0,8,00,00,00,00,00,00,00,00,
4298210540,00800006,true,Rx,0,8,40,00,00,00,00,00,00,00,
4298210839,0090411E,true,Rx,0,8,00,00,00,00,00,00,00,00,
4298211130,0300410E,true,Rx,0,8,00,00,00,00,00,00,00,00,
4298211431,03800006,true,Rx,0,8,00,00,00,00,00,00,00,00,
4298211721,19E00006,true,Rx,0,8,00,00,00,C0,00,00,00,00,
4298212541,0300410E,true,Rx,0,8,00,00,00,00,00,00,00,00,
4298214549,00800006,true,Rx,0,8,80,00,00,00,00,00,00,00,
4298214838,0090411E,true,Rx,0,8,00,00,00,00,00,00,00,00,
4298215131,01C04026,true,Rx,0,8,80,00,80,00,80,00,80,00,
4298215410,02000026,true,Rx,0,8,7F,34,00,CC,4C,00,E0,AC,
4298215700,02104136,true,Rx,0,8,BB,00,3F,FF,07,E0,00,00,
4298215980,02804026,true,Rx,0,8,37,FF,77,FF,F2,00,0E,0C,
4298216281,02C00020,true,Rx,0,8,00,00,00,00,00,00,00,00,
4298216570,0300410E,true,Rx,0,8,00,00,00,00,00,00,00,00,
4298216870,0300410E,true,Rx,0,8,00,00,00,00,00,00,00,00,
4298217161,03800006,true,Rx,0,8,00,00,00,00,00,00,00,00,
4298217770,0100082C,true,Rx,0,8,00,C0,93,5F,65,F0,01,28,
4298218051,0110483C,true,Rx,0,8,08,E9,2A,00,44,66,FC,52,
4298218572,00800006,true,Rx,0,8,C0,00,00,00,00,00,00,00,
4298218862,0090411E,true,Rx,0,8,00,00,00,00,00,00,00,00,
4298219154,0300410E,true,Rx,0,8,00,00,00,00,00,00,00,00,
4298219454,03800006,true,Rx,0,8,00,00,00,00,00,00,00,00,
4298224530,0300410E,true,Rx,0,8,B7,CA,00,00,87,CA,F0,00,
4298224826,19E00006,true,Rx,0,8,00,00,00,C0,00,00,00,00,
4298227534,0100082C,true,Rx,0,8,00,C0,93,5F,65,F0,01,28,
4298227814,0110483C,true,Rx,0,8,08,E9,2A,00,44,66,FC,52,
4298228782,01C04026,true,Rx,0,8,80,00,80,00,80,00,80,00,
4298229064,02000026,true,Rx,0,8,7F,34,00,DC,4C,00,E0,AC,
4298229343,02104136,true,Rx,0,8,BB,00,3F,FF,07,E0,00,00,
4298229634,02804026,true,Rx,0,8,37,FF,77,FF,F2,00,0E,0C,
4298229923,02C00020,true,Rx,0,8,00,00,00,00,00,00,00,00,
4298230214,19A00002,true,Rx,0,8,02,00,00,00,00,00,00,F7,
4298231634,1B200002,true,Rx,0,8,00,00,00,00,00,00,04,51,
4298232672,1BA0493C,true,Rx,0,8,0A,01,01,01,01,02,06,01,
4298232963,1BE0493C,true,Rx,0,8,05,00,00,00,00,00,07,8F,
4298234573,00800006,true,Rx,0,8,09,E0,0D,E0,41,E0,A6,30,
4298234863,0090411E,true,Rx,0,8,C2,00,E0,00,00,00,00,00,
4298235144,0300410E,true,Rx,0,8,37,CA,98,33,07,CA,6C,00,
4298235444,03800006,true,Rx,0,8,70,00,00,00,00,00,00,00,
4298237610,0100082C,true,Rx,0,8,00,C0,93,5F,65,F0,01,28,
4298237889,0110483C,true,Rx,0,8,08,E9,2A,00,44,66,FC,52,
4298238172,1B700030,true,Rx,0,8,25,88,1E,00,00,C0,03,00,
4298242698,01C04026,true,Rx,0,8,80,00,80,00,80,00,80,00,
4298242984,02000026,true,Rx,0,8,7F,34,00,DC,4C,00,E0,AC,
4298243275,02104136,true,Rx,0,8,BB,00,3F,FF,07,E0,00,00,
4298243555,02804026,true,Rx,0,8,37,FF,77,FF,F2,00,0E,0C,
4298243845,02C00020,true,Rx,0,8,00,00,00,00,00,00,00,00,
4298244579,0300410E,true,Rx,0,8,B7,D1,18,33,87,D2,FC,00,
4298247619,0100082C,true,Rx,0,8,00,C0,93,5F,65,F0,01,28,
4298247905,0110483C,true,Rx,0,8,08,E9,AA,00,44,66,FC,52,
4298254566,00800006,true,Rx,0,8,41,E5,0D,E4,41,E5,26,71,
4298254851,0090411E,true,Rx,0,8,02,00,60,00,00,00,00,00,
4298255133,0300410E,true,Rx,0,8,37,D1,18,33,07,D2,6C,00,
4298255433,03800006,true,Rx,0,8,30,00,00,00,00,00,00,00,
4298256661,01C04026,true,Rx,0,8,80,00,80,00,80,00,80,00,
4298256951,02000026,true,Rx,0,8,7F,34,00,DC,4C,00,E0,AC,
4298257232,02104136,true,Rx,0,8,BB,00,3F,FF,07,E0,00,00,
4298257513,02804026,true,Rx,0,8,37,FF,77,FF,F2,00,0E,0C,
4298257802,0100082C,true,Rx,0,8,00,C0,93,5F,65,F0,01,28,
4298258085,0110483C,true,Rx,0,8,08,E9,2A,00,44,66,FC,52,
4298258375,02C00020,true,Rx,0,8,00,00,00,00,00,00,00,00,
4298258663,19A00002,true,Rx,0,8,12,00,00,00,00,00,00,F7,
4298264566,0300410E,true,Rx,0,8,B7,DB,98,33,87,DB,FC,00,
4298267485,0100082C,true,Rx,0,8,00,C0,93,5F,65,F0,01,28,
4298267761,0110483C,true,Rx,0,8,08,E9,2A,00,44,66,FC,52,
4298270716,01C04026,true,Rx,0,8,80,00,80,00,80,00,80,00,
4298271007,02000026,true,Rx,0,8,7F,34,00,DC,4C,00,E0,AC,
4298271288,02104136,true,Rx,0,8,BB,00,3F,FF,07,E0,00,00,
4298271577,02804026,true,Rx,0,8,37,FF,77,FF,F2,00,0E,0C,
4298271868,02C00020,true,Rx,0,8,00,00,00,00,00,00,00,00,
4298274609,00800006,true,Rx,0,8,89,EA,0D,EA,41,EA,A6,6B,
4298274889,0090411E,true,Rx,0,8,42,00,E0,00,00,00,00,00,
4298275171,0300410E,true,Rx,0,8,B7,DB,18,F5,87,DB,FC,00,
4298275460,03800006,true,Rx,0,8,30,00,00,00,00,00,00,00,
4298275754,19E00006,true,Rx,0,8,00,00,18,E0,5C,00,40,00,
4298277637,0100082C,true,Rx,0,8,00,C8,93,5F,65,F0,01,28,
4298277926,0110483C,true,Rx,0,8,08,E9,2A,00,44,66,FC,52,
4298284590,0300410E,true,Rx,0,8,77,DB,98,F5,07,DB,6C,00,
4298284875,01C04026,true,Rx,0,8,80,00,80,00,80,00,80,00,
4298285157,02000026,true,Rx,0,8,7F,34,00,DC,4C,00,E0,AC,
4298285447,02104136,true,Rx,0,8,BB,00,3F,FF,07,E0,00,00,
4298285727,02804026,true,Rx,0,8,37,FF,77,FF,F2,00,0E,0C,
4298286028,02C00020,true,Rx,0,8,00,00,00,00,00,00,00,00,
4298286307,19A00002,true,Rx,0,8,6E,00,00,00,00,00,00,F7,
4298286598,1B600002,true,Rx,0,8,00,80,00,40,00,17,08,00,
4298287680,0100082C,true,Rx,0,8,00,C8,93,5F,65,F0,01,28,
4298287959,0110483C,true,Rx,0,8,08,E9,2A,00,44,66,FC,52,
4298294599,00800006,true,Rx,0,8,C9,EA,0D,EA,41,EA,26,6D,
4298294884,0090411E,true,Rx,0,8,02,00,E0,00,00,00,00,00,
4298295166,0300410E,true,Rx,0,8,B7,DB,18,F5,87,DB,FC,00,
4298295466,03800006,true,Rx,0,8,30,00,00,00,00,00,00,00,
4298297560,0100082C,true,Rx,0,8,00,C8,93,5F,65,F0,01,28,
4298297839,0110483C,true,Rx,0,8,08,E9,AA,00,44,66,FC,52,
4298298715,01C04026,true,Rx,0,8,80,00,80,00,80,00,80,00,
4298298997,02000026,true,Rx,0,8,7F,34,00,DC,4B,00,E0,AC,
4298299276,02104136,true,Rx,0,8,BB,00,3F,FF,07,E0,00,00,
4298299557,02804026,true,Rx,0,8,37,FF,77,FF,F2,00,0E,0C,
4298299857,02C00020,true,Rx,0,8,00,01,00,00,00,02,75,81,
4298304614,0300410E,true,Rx,0,8,B7,DB,18,F5,87,DB,FC,00,
4298307492,0100082C,true,Rx,0,8,00,C8,93,5F,65,F0,01,28,
4298307767,0110483C,true,Rx,0,8,08,E9,2A,00,44,66,FC,52,
4298312688,01C04026,true,Rx,0,8,80,00,80,00,80,00,80,00,
4298312963,02000026,true,Rx,0,8,7F,34,00,DC,4B,00,E0,AC,
4298313254,02104136,true,Rx,0,8,BB,00,3F,FF,07,E0,00,00,
4298313534,02804026,true,Rx,0,8,37,FF,77,FF,F2,00,0E,0C,
4298313824,02C00020,true,Rx,0,8,00,00,00,00,00,02,75,81,
4298314116,19A00002,true,Rx,0,8,12,00,00,00,00,00,00,F7,
4298314652,00800006,true,Rx,0,8,09,EA,0D,EA,41,EA,26,6D,
4298314940,0090411E,true,Rx,0,8,02,00,E0,00,00,00,00,00,
4298315210,0300410E,true,Rx,0,8,37,DB,98,F5,07,DB,6C,00,
4298315489,03800006,true,Rx,0,8,34,00,78,41,0F,62,02,79,
4298317027,1B200002,true,Rx,0,8,00,00,00,00,00,00,0F,71,
4298317760,0100082C,true,Rx,0,8,00,C8,93,5F,65,F0,01,28,
4298318041,0110483C,true,Rx,0,8,08,E9,2A,00,44,66,FC,52,
4298324628,0300410E,true,Rx,0,8,B7,DB,18,F5,87,DB,FC,00,
4298324914,19E00006,true,Rx,0,8,00,00,18,C0,5C,00,40,00,
4298326684,01C04026,true,Rx,0,8,80,00,80,00,80,00,80,00,
4298326964,02000026,true,Rx,0,8,7F,34,00,DC,4B,00,E0,AC,
4298327256,02104136,true,Rx,0,8,BB,00,3F,FF,07,E0,00,00,
4298327535,02804026,true,Rx,0,8,37,FF,77,F6,F2,00,0E,0C,
4298327824,0100082C,true,Rx,0,8,00,C8,A4,80,E5,F0,01,28,
4298328096,0110483C,true,Rx,0,8,08,E9,2A,00,44,66,FC,52,
4298328385,02C00020,true,Rx,0,8,00,00,00,00,00,02,75,81,
4298334644,00800006,true,Rx,0,8,41,EA,0D,EA,41,EA,A6,6D,
4298334930,0090411E,true,Rx,0,8,C2,00,60,00,00,00,00,00,
4298335211,0300410E,true,Rx,0,8,37,DB,18,F5,07,DB,6C,00,
4298335490,03800006,true,Rx,0,8,50,00,78,41,0F,62,02,79,
4298337574,0100082C,true,Rx,0,8,00,C0,A4,80,65,F0,01,28,
4298337853,0110483C,true,Rx,0,8,08,E9,2A,00,44,66,FC,52,
4298340708,01C04026,true,Rx,0,8,80,00,80,00,80,00,80,00,
4298340996,02000026,true,Rx,0,8,7F,34,00,DC,4B,00,E0,AC,
4298341275,02104136,true,Rx,0,8,BB,00,3F,FF,07,E0,00,00,
4298341564,02804026,true,Rx,0,8,37,FF,77,CD,F6,86,0E,07,
4298341845,02C00020,true,Rx,0,8,00,00,00,00,00,02,75,81,
4298342136,19A00002,true,Rx,0,8,02,00,00,00,00,00,00,F7,
4298342642,1A200020,true,Rx,0,8,0E,00,02,2E,00,00,02,2D,
4298344680,0300410E,true,Rx,0,8,B7,DB,98,F5,87,DB,FC,00,
4298347526,0100082C,true,Rx,0,8,00,C0,A4,80,65,F0,01,28,
4298347802,0110483C,true,Rx,0,8,08,E9,AA,00,44,66,FC,52,
4298354662,00800006,true,Rx,0,8,89,EA,0D,EA,41,EA,3E,6D,
4298354949,0090411E,true,Rx,0,8,02,00,E0,00,00,00,00,00,
4298355240,01C04026,true,Rx,0,8,80,00,80,00,80,00,80,00,
4298355519,02000026,true,Rx,0,8,7F,34,00,DC,4B,00,E0,AC,
4298355810,02104136,true,Rx,0,8,BB,00,3F,FF,07,E0,00,00,
4298356080,02804026,true,Rx,0,8,37,FF,77,90,F6,ED,0E,04,
4298356371,02C00020,true,Rx,0,8,00,00,00,00,00,02,75,81,
4298356651,0300410E,true,Rx,0,8,B7,DB,18,F5,87,DB,FC,00,
4298356928,03800006,true,Rx,0,8,10,00,78,41,0F,62,02,79,
4298357724,0100082C,true,Rx,0,8,00,C0,A4,80,65,F0,01,28,
4298358006,0110483C,true,Rx,0,8,08,E9,2A,00,44,66,FC,52,
4298364665,0300410E,true,Rx,0,8,37,DB,18,F5,07,DB,6C,00,
4298367563,0100082C,true,Rx,0,8,00,C0,A4,80,24,00,01,28,
4298367849,0110483C,true,Rx,0,8,08,E9,2A,00,44,66,FC,52,
4298368707,01C04026,true,Rx,0,8,80,00,80,00,80,00,80,00,
4298368988,02000026,true,Rx,0,8,7F,34,00,DC,4B,00,E0,AC,
4298369267,02104136,true,Rx,0,8,BB,00,3F,FF,07,E0,00,00,
4298369548,02804026,true,Rx,0,8,37,FF,77,47,F7,3C,0E,01,
4298369842,02C00020,true,Rx,0,8,00,00,00,00,00,02,75,81,
4298370133,19A00002,true,Rx,0,8,12,00,00,00,00,00,00,F7,
4298374682,00800006,true,Rx,0,8,C9,EA,0E,6A,41,EA,2E,6D,
4298374979,0090411E,true,Rx,0,8,02,00,E0,00,00,00,00,00,
4298375249,0300410E,true,Rx,0,8,B8,B1,98,F5,87,DB,FC,00,
4298375529,03800006,true,Rx,0,8,10,00,78,41,0F,62,02,79,
4298375819,19E00006,true,Rx,0,8,00,00,18,E0,5C,00,40,00,
4298377637,0100082C,true,Rx,0,8,00,C0,A4,80,24,00,01,28,
4298377917,0110483C,true,Rx,0,8,08,E9,2A,00,44,66,FC,52,
4298382761,01C04026,true,Rx,0,8,80,00,80,00,80,00,80,00,
4298383037,02000026,true,Rx,0,8,7F,34,00,DC,4B,00,E0,AC,
4298383328,02104136,true,Rx,0,8,BB,00,3F,FF,07,E0,00,00,
4298383607,02804026,true,Rx,0,8,37,FF,77,09,F7,30,0E,01,
4298383897,02C00020,true,Rx,0,8,00,00,00,00,00,02,75,81,
4298384713,0300410E,true,Rx,0,8,B8,B1,18,1F,87,DB,FC,00,
4298387609,0100082C,true,Rx,0,8,00,C0,A4,80,24,00,01,28,
4298387896,0110483C,true,Rx,0,8,08,E9,2A,00,44,66,FC,52,
4298394702,00800006,true,Rx,0,8,01,EA,0E,6A,41,EA,AE,6D,
4298395000,0090411E,true,Rx,0,8,42,00,60,00,00,00,00,00,
4298395269,0300410E,true,Rx,0,8,38,B1,18,1F,07,DB,6C,00,
4298395549,03800006,true,Rx,0,8,10,00,78,41,0F,62,02,79,
4298396725,01C04026,true,Rx,0,8,80,00,80,00,80,00,80,00,
4298396998,02000026,true,Rx,0,8,7F,34,00,DC,4B,00,E0,AC,
4298397288,02104136,true,Rx,0,8,BB,00,3F,FF,07,E0,00,00,
4298397568,02804026,true,Rx,0,8,37,FF,77,04,F6,EA,0D,FD,
4298397848,0100082C,true,Rx,0,8,00,C0,A4,80,24,00,01,28,
4298398130,0110483C,true,Rx,0,8,08,E9,AA,00,44,66,FC,52,
4298398419,02C00020,true,Rx,0,8,00,00,00,00,00,02,75,81,
4298398700,19A00002,true,Rx,0,8,6E,00,00,00,00,00,00,F7,
4298401995,1B200002,true,Rx,0,8,00,00,00,00,00,00,0F,71,
4298404715,0300410E,true,Rx,0,8,B8,B1,A8,1F,87,DB,FC,00,
4298407562,0100082C,true,Rx,0,8,00,C0,A4,80,75,FA,01,28,
4298407838,0110483C,true,Rx,0,8,08,E9,2A,00,44,66,FC,52,
4298410753,01C04026,true,Rx,0,8,80,00,80,00,80,00,80,00,
4298411035,02000026,true,Rx,0,8,7F,34,00,DC,4B,00,E0,AC,
4298411324,02104136,true,Rx,0,8,BB,00,3F,FF,07,E0,00,00,
4298411593,02804026,true,Rx,0,8,37,FF,77,24,F6,B3,0D,F2,
4298411886,02C00020,true,Rx,0,8,00,00,00,00,00,02,75,81,
4298414749,00800006,true,Rx,0,8,49,EA,0E,6A,41,EA,2E,6D,
4298415029,0090411E,true,Rx,0,8,02,00,E0,00,00,00,00,00,
4298415319,0300410E,true,Rx,0,8,38,B1,28,1F,07,DB,6C,00,
4298415599,03800006,true,Rx,0,8,10,00,78,41,0F,62,02,79,
4298417592,0100082C,true,Rx,0,8,00,C0,A4,80,65,FA,01,28,
4298417869,0110483C,true,Rx,0,8,08,E9,2A,00,44,66,FC,52,
4298424727,0300410E,true,Rx,0,8,B8,B1,28,1F,87,DB,FC,00,
4298425024,01C04026,true,Rx,0,8,80,00,80,00,80,00,80,00,
4298425303,02000026,true,Rx,0,8,7F,34,00,DC,4B,00,E0,AC,
4298425584,02104136,true,Rx,0,8,BB,00,3F,FF,07,E0,00,00,
4298425863,02804026,true,Rx,0,8,37,FF,77,5B,F6,89,0D,E4,
4298426144,02C00020,true,Rx,0,8,00,00,00,00,00,02,75,81,
4298426434,19A00002,true,Rx,0,8,12,00,00,00,00,00,00,F7,
4298426724,19E00006,true,Rx,0,8,00,00,18,C0,5C,00,40,00,
4298427713,0100082C,true,Rx,0,8,00,C0,A4,80,65,FA,01,28,
4298427995,0110483C,true,Rx,0,8,08,E9,2A,00,44,66,FC,52,
4298434745,00800006,true,Rx,0,8,89,EA,0E,6A,41,EA,AE,6D,
4298435032,0090411E,true,Rx,0,8,C2,00,E0,00,00,00,00,00,
4298435312,0300410E,true,Rx,0,8,B8,B1,A8,1F,87,DB,FC,00,
4298435582,03800006,true,Rx,0,8,58,00,78,41,0F,62,02,79,
4298437603,0100082C,true,Rx,0,8,00,C0,A4,80,65,FA,01,28,
4298437884,0110483C,true,Rx,0,8,08,E9,2A,00,44,66,FC,52,
4298438772,01C04026,true,Rx,0,8,80,00,80,00,80,00,80,00,
4298439053,02000026,true,Rx,0,8,7F,34,00,DC,4B,00,E0,AC,
4298439343,02104136,true,Rx,0,8,BB,00,3F,FF,07,E0,00,00,
4298439613,02804026,true,Rx,0,8,37,FF,77,6B,F6,F0,0D,D8,
4298439902,02C00020,true,Rx,0,8,00,00,00,00,00,02,75,81,
4298444762,0300410E,true,Rx,0,8,38,B1,28,1F,07,DB,6C,00,
4298447515,0100082C,true,Rx,0,8,00,C0,A4,80,65,FA,01,28,
4298447791,0110483C,true,Rx,0,8,08,E9,AA,00,44,66,FC,52,
4298448082,1AE0092C,true,Rx,0,8,40,00,22,E0,40,00,00,00,
4298448372,1B700030,true,Rx,0,8,25,00,1E,00,00,00,00,00,
4298452739,01C04026,true,Rx,0,8,80,00,80,00,80,00,80,00,
4298453015,02000026,true,Rx,0,8,7F,34,00,DC,4B,00,E0,AC,
4298453306,02104136,true,Rx,0,8,BB,00,3F,FF,07,E0,00,00,
4298453585,02804026,true,Rx,0,8,37,FF,77,52,F7,3E,0D,D8,
4298453876,02C00020,true,Rx,0,8,00,00,00,00,00,02,75,81,
4298454157,19A00002,true,Rx,0,8,02,00,00,00,00,00,00,F7,
4298454804,00800006,true,Rx,0,8,C1,EA,0E,6A,41,EA,2E,6D,
4298455074,0090411E,true,Rx,0,8,02,00,60,00,00,00,00,00,
4298455353,0300410E,true,Rx,0,8,B8,B1,28,1F,87,DB,FC,00,
4298455634,03800006,true,Rx,0,8,18,00,78,41,0F,62,02,79,
4298455923,1B600002,true,Rx,0,8,00,80,00,00,00,17,4C,00,
4298457806,0100082C,true,Rx,0,8,00,C0,A4,80,65,FA,01,28,
4298458087,0110483C,true,Rx,0,8,08,E9,2A,00,44,66,FC,52,
4298464765,0300410E,true,Rx,0,8,B8,B1,28,1F,87,DB,FC,00,
4298466719,01C04026,true,Rx,0,8,80,00,80,00,80,00,80,00,
4298466997,02000026,true,Rx,0,8,7F,34,00,DC,4B,00,E0,AC,
4298467277,02104136,true,Rx,0,8,BB,00,3F,FF,07,E0,00,00,
4298467566,0100082C,true,Rx,0,8,00,C0,A4,80,65,FA,01,28,
4298467847,0110483C,true,Rx,0,8,08,E9,2A,00,44,66,FC,52,
4298468117,02804026,true,Rx,0,8,37,FF,77,1F,F7,63,0D,DE,
4298468407,02C00020,true,Rx,0,8,00,00,00,00,00,02,75,81,
4298474775,00800006,true,Rx,0,8,09,EA,0E,6A,41,EA,AE,6D,
4298475062,0090411E,true,Rx,0,8,42,00,E0,00,00,00,00,00,
4298475352,0300410E,true,Rx,0,8,38,B1,A8,1F,07,DB,6C,00,
4298475632,03800006,true,Rx,0,8,18,00,78,41,0F,62,02,79,
4298475911,19E00006,true,Rx,0,8,00,00,18,E0,5C,00,40,00,
4298477647,0100082C,true,Rx,0,8,00,C0,A4,80,65,FA,01,28,
4298477927,0110483C,true,Rx,0,8,08,E9,2A,00,44,66,FC,52,
4298480739,01C04026,true,Rx,0,8,80,00,80,00,80,00,80,00,
4298481017,02000026,true,Rx,0,8,7F,34,00,DC,4B,00,E0,AC,
4298481296,02104136,true,Rx,0,8,BB,00,3F,FF,07,E0,00,00,
4298481577,02804026,true,Rx,0,8,37,FF,76,EF,F7,60,0D,E9,
4298481866,02C00020,true,Rx,0,8,00,00,00,00,00,02,75,81,
4298482157,19A00002,true,Rx,0,8,12,00,00,00,00,00,00,F7,
4298482684,1BA0493C,true,Rx,0,8,0B,01,01,01,02,03,03,01,
4298484815,0300410E,true,Rx,0,8,B8,B1,28,1F,87,DB,FC,00,
4298487031,1B200002,true,Rx,0,8,00,00,00,00,00,00,0F,71,
4298487583,0100082C,true,Rx,0,8,00,C0,A4,80,65,FA,01,28,
4298487864,0110483C,true,Rx,0,8,08,E9,2A,00,44,66,FC,52,
4298494758,01C04026,true,Rx,0,8,80,00,80,00,80,00,80,00,
4298495034,00800006,true,Rx,0,8,41,EA,0E,6A,41,EA,2E,6D,
4298495324,0090411E,true,Rx,0,8,02,00,60,00,00,00,00,00,
4298495604,02000026,true,Rx,0,8,7F,34,00,DC,4B,00,E0,AC,
4298495894,02104136,true,Rx,0,8,BB,00,3F,FF,07,E0,00,00,
4298496165,02804026,true,Rx,0,8,37,FF,76,F4,F7,0F,0D,F7,
4298496455,02C00020,true,Rx,0,8,00,00,00,00,00,02,75,81,
4298496744,0300410E,true,Rx,0,8,38,B1,28,1F,07,DB,6C,00,
4298497025,03800006,true,Rx,0,8,18,00,78,41,0F,62,02,79,
4298497747,0100082C,true,Rx,0,8,00,C0,A4,80,75,F9,01,28,
4298498027,0110483C,true,Rx,0,8,08,E9,AA,00,44,66,FC,52,
4298501557,0340412E,true,Rx,0,8,00,00,00,00,00,00,00,00,
4298501853,19000026,true,Rx,0,8,00,00,00,00,00,00,00,00,
4298504819,0300410E,true,Rx,0,8,B8,AC,A8,1F,87,DB,FC,00,
4298507568,0100082C,true,Rx,0,8,00,C0,A4,80,65,F9,01,28,
4298507855,0110483C,true,Rx,0,8,08,E9,2A,00,44,66,FC,52,
4298508753,01C04026,true,Rx,0,8,80,00,80,00,80,00,80,00,
4298509033,02000026,true,Rx,0,8,7F,34,00,DC,4B,00,E0,AC,
4298509314,02104136,true,Rx,0,8,BB,00,3F,FF,07,E0,00,00,
4298509593,02804026,true,Rx,0,8,37,FF,77,1A,F6,CE,0D,FF,
4298509887,02C00020,true,Rx,0,8,00,00,00,00,00,02,75,81,
4298510169,19A00002,true,Rx,0,8,6E,00,00,00,00,00,00,F7,
4298511552,0340412E,true,Rx,0,8,00,00,00,00,00,00,00,00,
4298514827,00800006,true,Rx,0,8,89,EA,0E,67,41,EA,2E,6D,
4298515124,0090411E,true,Rx,0,8,02,00,E0,00,00,00,00,00,
4298515394,0300410E,true,Rx,0,8,B8,AC,28,1F,87,DB,FC,00,
4298515673,03800006,true,Rx,0,8,18,00,78,41,0F,62,02,79,
4298516540,19000026,true,Rx,0,8,00,00,00,00,00,00,04,00,
4298517668,0100082C,true,Rx,0,8,00,C0,A4,80,65,F9,01,28,
4298517947,0110483C,true,Rx,0,8,08,E9,2A,00,44,66,FC,52,
4298521631,0340412E,true,Rx,0,8,50,80,00,FD,80,00,00,00,
4298522771,01C04026,true,Rx,0,8,80,00,80,00,80,00,80,00,
4298523053,02000026,true,Rx,0,8,7F,34,00,DC,4B,00,E0,AC,
4298523343,02104136,true,Rx,0,8,BB,00,3F,FF,07,E0,00,00,
4298523622,02804026,true,Rx,0,8,37,FF,77,55,F6,9F,0E,01,
4298523915,02C00020,true,Rx,0,8,00,00,00,00,00,02,75,81,
4298524865,0300410E,true,Rx,0,8,38,AC,A8,1F,07,DB,6C,00,
4298525156,19E00006,true,Rx,0,8,00,00,18,C0,5C,00,40,00,
4298527703,0100082C,true,Rx,0,8,00,C0,A4,80,65,F9,01,28,
4298527978,0110483C,true,Rx,0,8,08,E9,2A,00,44,66,FC,52,
4298531635,0340412E,true,Rx,0,8,71,80,00,ED,80,00,00,00,
4298531931,19000026,true,Rx,0,8,00,00,00,00,38,13,04,00,
4298534845,00800006,true,Rx,0,8,C9,EA,0E,67,41,EA,AE,6D,
4298535136,0090411E,true,Rx,0,8,C2,00,E0,00,00,00,00,00,
4298535416,0300410E,true,Rx,0,8,B8,AC,28,20,87,DB,FC,00,
4298535696,03800006,true,Rx,0,8,58,00,78,41,0F,62,02,79,
4298536750,01C04026,true,Rx,0,8,80,00,80,00,80,00,80,00,
4298537032,02000026,true,Rx,0,8,7F,34,00,DC,4B,00,E0,AC,
4298537311,02104136,true,Rx,0,8,BB,00,3F,FF,07,E0,00,00,
4298537592,02804026,true,Rx,0,8,37,FF,77,89,F6,C0,0E,04,
4298537884,0100082C,true,Rx,0,8,00,C0,A4,80,65,F9,01,28,
4298538164,0110483C,true,Rx,0,8,08,E9,2A,00,44,66,FC,52,
4298538455,02C00020,true,Rx,0,8,00,00,00,00,00,02,75,81,
4298538745,19A00002,true,Rx,0,8,12,00,00,00,00,00,00,F7,
4298541634,0340412E,true,Rx,0,8,72,80,00,DD,80,00,00,00,
4298544852,0300410E,true,Rx,0,8,B8,AB,28,20,87,DD,FC,00,
4298546530,19000026,true,Rx,0,8,00,00,01,40,38,11,84,00,
4298547620,0100082C,true,Rx,0,8,00,C0,A4,80,65,F9,01,28,
4298547899,0110483C,true,Rx,0,8,08,E9,AA,00,44,66,FC,52,
4298550805,01C04026,true,Rx,0,8,80,00,80,00,80,00,80,00,
4298551082,02000026,true,Rx,0,8,7F,34,00,DC,4B,00,E0,AC,
4298551372,02104136,true,Rx,0,8,BB,00,3F,FF,07,E0,00,00,
4298551642,02804026,true,Rx,0,8,37,FF,77,88,F7,1A,0E,01,
4298551931,02C00020,true,Rx,0,8,00,00,00,00,00,02,75,81,
4298552213,0340412E,true,Rx,0,8,73,80,00,CD,80,00,00,00,
4298554887,00800006,true,Rx,0,8,09,EB,0E,67,41,EB,2E,6D,
4298555174,0090411E,true,Rx,0,8,02,00,E0,EB,00,00,00,00,
4298555454,0300410E,true,Rx,0,8,38,AB,A8,20,07,DD,6C,00,
4298555734,03800006,true,Rx,0,8,18,00,78,41,0F,62,02,79,
4298557643,0100082C,true,Rx,0,8,00,C0,A4,80,65,F9,01,28,
4298557922,0110483C,true,Rx,0,8,08,E9,2A,00,44,66,FC,52,
4298561667,0340412E,true,Rx,0,8,74,80,00,BD,80,00,00,00,
4298561962,19000026,true,Rx,0,8,00,00,01,40,38,11,84,00,
4298564743,01C04026,true,Rx,0,8,80,00,80,00,80,00,80,00,
4298565023,02000026,true,Rx,0,8,7F,34,00,DC,4B,00,E0,AC,
4298565314,02104136,true,Rx,0,8,BB,00,3F,FF,07,E0,00,00,
4298565583,02804026,true,Rx,0,8,37,FF,77,64,F7,60,0E,01,
4298565875,02C00020,true,Rx,0,8,00,00,00,00,00,02,75,81,
4298566157,0300410E,true,Rx,0,8,B8,91,28,20,87,CC,FC,00,
4298566446,19A00002,true,Rx,0,8,02,00,00,00,00,00,00,F7,
4298567777,0100082C,true,Rx,0,8,00,C0,A4,80,65,F9,01,28,
4298568058,0110483C,true,Rx,0,8,08,E9,2A,00,44,66,FC,52,
4298571664,0340412E,true,Rx,0,8,75,80,00,AD,80,00,00,00,
4298571960,1B200002,true,Rx,0,8,00,00,00,00,00,00,0F,71,
4298574884,00800006,true,Rx,0,8,41,E1,0E,57,41,E1,2E,63,
4298575175,0090411E,true,Rx,0,8,02,00,60,EB,00,00,00,00,
4298575455,0300410E,true,Rx,0,8,38,91,28,20,07,CC,6C,00,
4298575735,03800006,true,Rx,0,8,18,00,78,41,0F,62,02,79,
4298576019,19E00006,true,Rx,0,8,00,00,18,E0,5C,00,40,00,
4298576555,19000026,true,Rx,0,8,00,00,01,40,38,11,84,00,
4298577763,0100082C,true,Rx,0,8,00,C0,A4,80,65,F9,01,28,
4298578044,0110483C,true,Rx,0,8,08,E9,2A,00,44,66,FC,52,
4298578746,01C04026,true,Rx,0,8,80,00,80,00,80,00,80,00,
4298579027,02000026,true,Rx,0,8,7F,34,00,DC,4B,00,E0,AC,
4298579308,02104136,true,Rx,0,8,BB,00,3F,FF,07,E0,00,00,
4298579587,02804026,true,Rx,0,8,37,FF,77,2B,F7,63,0E,01,
4298579882,02C00020,true,Rx,0,8,00,00,00,00,00,02,75,81,
4298581667,0340412E,true,Rx,0,8,76,80,00,9D,80,00,00,00,
4298584897,0300410E,true,Rx,0,8,B8,91,A8,32,87,CC,FC,00,
4298587568,0100082C,true,Rx,0,8,00,C0,A4,80,65,F9,01,28,
4298587844,0110483C,true,Rx,0,8,08,E9,2A,00,44,66,FC,52,
4298591677,0340412E,true,Rx,0,8,77,80,00,8D,80,00,00,00,
4298591963,19000026,true,Rx,0,8,00,00,01,40,38,11,84,00,
4298592727,01C04026,true,Rx,0,8,80,00,80,00,80,00,80,00,
4298593009,02000026,true,Rx,0,8,7F,34,00,DC,4B,00,E0,AC,
4298593298,02104136,true,Rx,0,8,BB,00,3F,FF,07,E0,00,00,
4298593568,02804026,true,Rx,0,8,37,FF,76,E4,F7,63,0D,FF,
4298593863,02C00020,true,Rx,0,8,00,00,00,00,00,02,75,81,
4298594153,19A00002,true,Rx,0,8,12,00,00,00,00,00,00,F7,
4298594937,00800006,true,Rx,0,8,89,E4,0E,59,41,E4,AE,63,
4298595219,0090411E,true,Rx,0,8,42,00,E0,EB,00,00,00,00,
4298595499,0300410E,true,Rx,0,8,B8,93,28,32,87,D0,FC,00,
4298595772,03800006,true,Rx,0,8,18,00,78,41,0F,62,02,79,
4298597872,0100082C,true,Rx,0,8,00,C0,A4,80,65,F9,01,28,
4298598153,0110483C,true,Rx,0,8,08,E9,AA,00,44,66,FC,52,
4298601667,0340412E,true,Rx,0,8,78,80,00,7D,80,00,00,00,
4298604918,0300410E,true,Rx,0,8,38,93,28,32,07,D0,6C,00,
4298606554,19000026,true,Rx,0,8,00,00,01,40,38,11,84,00,
4298606845,01C04026,true,Rx,0,8,80,00,80,00,80,00,80,00,
4298607124,02000026,true,Rx,0,8,7F,34,00,DC,4B,00,E0,AC,
4298607413,02104136,true,Rx,0,8,BB,00,3F,FF,07,E0,00,00,
4298607694,0100082C,true,Rx,0,8,00,C0,A4,80,65,F9,01,28,
4298607973,0110483C,true,Rx,0,8,08,E9,2A,00,44,66,FC,52,
4298608255,02804026,true,Rx,0,8,37,FF,76,94,F7,63,0D,FF,
4298608544,02C00020,true,Rx,0,8,00,00,00,00,00,02,75,81,
4298611669,0340412E,true,Rx,0,8,79,80,00,6D,80,00,00,00,
4298614919,00800006,true,Rx,0,8,C9,E4,0E,59,41,E4,2E,63,
4298615207,0090411E,true,Rx,0,8,02,00,E0,EB,00,00,00,00,
4298615486,0300410E,true,Rx,0,8,B8,93,A8,32,87,D0,FC,00,
4298615765,03800006,true,Rx,0,8,18,00,78,41,0F,62,02,79,
4298617614,0100082C,true,Rx,0,8,00,C0,A4,80,65,F9,01,28,
4298617893,0110483C,true,Rx,0,8,08,E9,2A,00,44,66,FC,52,
4298620748,01C04026,true,Rx,0,8,80,00,80,00,80,00,80,00,
4298621024,02000026,true,Rx,0,8,7F,34,00,DC,4B,00,E0,AC,
4298621315,02104136,true,Rx,0,8,BB,00,3F,FF,07,E0,00,00,
4298621584,02804026,true,Rx,0,8,37,FF,76,3E,F7,63,0D,FF,
4298621884,02C00020,true,Rx,0,8,00,00,00,00,00,02,75,81,
4298622165,0340412E,true,Rx,0,8,7A,80,00,5D,80,00,00,00,
4298622444,19000026,true,Rx,0,8,00,00,01,40,38,11,84,00,
4298622734,19A00002,true,Rx,0,8,6E,00,00,00,00,00,00,F7,
4298624960,0300410E,true,Rx,0,8,B8,95,28,32,87,D0,FC,00,
4298625258,19E00006,true,Rx,0,8,00,00,18,C0,5C,00,40,00,
4298625538,1B600002,true,Rx,0,8,00,80,00,00,00,17,4C,00,
4298627794,0100082C,true,Rx,0,8,00,C0,A4,80,65,F9,01,28,
4298628074,0110483C,true,Rx,0,8,08,E9,2A,00,44,66,FC,52,
4298631664,0340412E,true,Rx,0,8,7B,80,00,4D,80,00,00,00,
4298634739,01C04026,true,Rx,0,8,80,00,80,00,80,00,80,00,
4298635025,00800006,true,Rx,0,8,01,E4,0E,59,41,E4,AE,63,
4298635306,0090411E,true,Rx,0,8,C2,00,60,EB,00,00,00,00,
4298635585,02000026,true,Rx,0,8,7F,34,00,DC,4B,00,E0,AC,
4298635875,02104136,true,Rx,0,8,BB,00,3F,FF,07,E0,00,00,
4298636146,02804026,true,Rx,0,8,37,FF,75,E5,F7,63,0D,FF,
4298636436,02C00020,true,Rx,0,8,00,00,00,00,00,02,75,81,
4298636727,0300410E,true,Rx,0,8,38,95,28,31,07,D0,6C,00,
4298637006,03800006,true,Rx,0,8,58,00,78,41,0F,62,02,79,
4298637285,19000026,true,Rx,0,8,00,00,01,40,38,11,84,00,
4298637833,0100082C,true,Rx,0,8,00,C0,A4,80,75,F9,01,28,
4298638113,0110483C,true,Rx,0,8,08,E9,2A,00,44,66,FC,52,
4298641667,0340412E,true,Rx,0,8,7C,80,00,3D,80,00,00,00,
4298644948,0300410E,true,Rx,0,8,B8,95,A8,31,87,D0,FC,00,
4298647536,0100082C,true,Rx,0,8,00,C0,A4,80,65,F9,01,28,
4298647822,0110483C,true,Rx,0,8,08,E9,AA,00,44,66,FC,52,
4298648771,01C04026,true,Rx,0,8,80,00,80,00,80,00,80,00,
4298649053,02000026,true,Rx,0,8,7F,34,00,DC,4B,00,E0,AC,
4298649332,02104136,true,Rx,0,8,BB,00,3F,FF,07,E0,00,00,
4298649614,02804026,true,Rx,0,8,37,FF,75,89,F7,63,0D,FF,
4298649905,02C00020,true,Rx,0,8,00,00,00,00,00,02,75,81,
4298650196,19A00002,true,Rx,0,8,12,00,00,00,00,00,00,F7,
4298651681,0340412E,true,Rx,0,8,7D,80,00,2D,80,00,00,00,
4298651971,19000026,true,Rx,0,8,00,00,01,40,38,11,84,00,
4298654969,00800006,true,Rx,0,8,49,E4,0E,59,41,E4,2E,63,
4298655261,0090411E,true,Rx,0,8,02,00,E0,EB,00,00,00,00,
4298655541,0300410E,true,Rx,0,8,38,95,28,31,07,D0,6C,00,
4298655820,03800006,true,Rx,0,8,18,00,78,41,0F,62,02,79,
4298656956,1B200002,true,Rx,0,8,00,00,00,00,00,00,0F,71,
4298657739,0100082C,true,Rx,0,8,00,C0,A4,80,65,F9,01,28,
4298658020,0110483C,true,Rx,0,8,08,E9,2A,00,44,66,FC,52,
4298658300,1A200020,true,Rx,0,8,4E,00,00,00,00,00,02,2D,
4298658600,1B700030,true,Rx,0,8,25,00,1E,00,00,00,00,00,
4298661676,0340412E,true,Rx,0,8,7E,80,00,1D,80,00,00,00,
4298662787,01C04026,true,Rx,0,8,80,00,80,00,80,00,80,00,
4298663068,02000026,true,Rx,0,8,7F,34,00,DC,4B,00,E0,AC,
4298663358,02104136,true,Rx,0,8,BB,00,3F,FF,07,E0,00,00,
4298663638,02804026,true,Rx,0,8,37,FF,75,2D,F7,63,0D,FF,
4298663930,02C00020,true,Rx,0,8,00,00,00,00,00,02,75,81,
4298664994,0300410E,true,Rx,0,8,B8,95,28,31,87,D0,FC,00,
4298666559,19000026,true,Rx,0,8,00,00,01,40,38,11,84,00,
4298667774,0100082C,true,Rx,0,8,00,C0,A4,80,65,F9,01,28,
4298668055,0110483C,true,Rx,0,8,08,E9,2A,00,44,66,FC,52,
4298671672,0340412E,true,Rx,0,8,7F,80,00,0D,80,00,00,00,
4298674983,00800006,true,Rx,0,8,89,E4,0E,59,41,E4,2E,63,
4298675261,0090411E,true,Rx,0,8,02,00,E0,EB,00,00,00,00,
4298675540,0300410E,true,Rx,0,8,B8,95,A8,31,87,D0,FC,00,
4298675819,03800006,true,Rx,0,8,18,00,78,41,0F,62,02,79,
4298676111,19E00006,true,Rx,0,8,00,00,18,E0,5C,00,40,00,
4298676772,01C04026,true,Rx,0,8,80,00,80,00,80,00,80,00,
4298677047,02000026,true,Rx,0,8,7F,34,00,DC,4B,00,E0,AC,
4298677337,02104136,true,Rx,0,8,BB,00,3F,FF,07,E0,00,00,
4298677617,02804026,true,Rx,0,8,37,FF,74,CF,F7,63,0D,FF,
4298677897,0100082C,true,Rx,0,8,00,C0,A4,80,65,F9,01,28,
4298678178,0110483C,true,Rx,0,8,08,E9,2A,00,44,66,FC,52,
4298678468,02C00020,true,Rx,0,8,00,00,00,00,00,02,75,81,
4298678757,19A00002,true,Rx,0,8,02,00,00,00,00,00,00,F7,
4298681750,0340412E,true,Rx,0,8,70,80,00,FD,80,00,00,00,
4298682038,19000026,true,Rx,0,8,00,00,01,40,38,11,84,00,
4298685002,0300410E,true,Rx,0,8,38,95,28,31,07,D0,6C,00,
4298687576,0100082C,true,Rx,0,8,00,C0,A4,80,65,F9,01,28,
4298687852,0110483C,true,Rx,0,8,08,E9,2A,00,44,66,FC,52,
4298690776,01C04026,true,Rx,0,8,80,00,80,00,80,00,80,00,
4298691056,02000026,true,Rx,0,8,7F,34,00,DC,4B,00,E0,AC,
4298691347,02104136,true,Rx,0,8,BB,00,3F,FF,07,E0,00,00,
4298691626,02804026,true,Rx,0,8,37,FF,74,70,F7,63,0D,FF,
4298691908,02C00020,true,Rx,0,8,00,00,00,00,00,02,75,81,
4298692200,0340412E,true,Rx,0,8,71,80,00,ED,80,00,00,00,
4298695035,00800006,true,Rx,0,8,C1,E4,0E,59,41,E4,AE,63,
4298695314,0090411E,true,Rx,0,8,42,00,60,EB,00,00,00,00,
4298695593,0300410E,true,Rx,0,8,B8,95,28,31,87,D0,FC,00,
4298695874,03800006,true,Rx,0,8,18,00,78,41,0F,62,02,79,
4298696555,19000026,true,Rx,0,8,00,FF,01,40,38,11,8C,00,
4298697742,0100082C,true,Rx,0,8,00,C0,A4,80,65,F9,01,28,
4298698013,0110483C,true,Rx,0,8,08,E9,AA,00,44,66,FC,52,
4298701668,0340412E,true,Rx,0,8,72,80,00,DD,80,00,00,00,
4298704783,01C04026,true,Rx,0,8,80,00,80,00,80,00,80,00,
4298705060,02000026,true,Rx,0,8,7F,34,00,DC,4B,00,E0,AC,
4298705350,02104136,true,Rx,0,8,BB,00,3F,FF,07,E0,00,00,
4298705629,02804026,true,Rx,0,8,37,FF,74,12,F7,63,0D,FF,
4298705920,02C00020,true,Rx,0,8,00,00,00,00,00,02,75,81,
4298706190,0300410E,true,Rx,0,8,B8,95,28,31,87,D2,FC,00,
4298706480,19A00002,true,Rx,0,8,12,00,00,00,00,00,00,F7,
4298707684,0100082C,true,Rx,0,8,00,C0,A4,80,65,F9,01,28,
4298707963,0110483C,true,Rx,0,8,08,E9,2A,00,44,66,FC,52,
4298711679,0340412E,true,Rx,0,8,73,80,00,CD,80,00,00,00,
4298711956,19000026,true,Rx,0,8,00,FF,01,40,38,11,84,00,
4298715025,00800006,true,Rx,0,8,09,E5,0E,59,41,E5,2E,63,
4298715315,0090411E,true,Rx,0,8,01,FC,E0,D3,00,00,00,00,
4298715594,0300410E,true,Rx,0,8,38,95,A8,31,07,D2,6C,00,
4298715875,03800006,true,Rx,0,8,18,00,78,41,0F,62,02,79,
4298717681,0100082C,true,Rx,0,8,00,C0,A4,80,65,F9,01,28,
4298717959,0110483C,true,Rx,0,8,08,E9,2A,00,44,66,FC,52,
4298718816,01C04026,true,Rx,0,8,80,00,80,00,80,00,80,00,
4298719097,02000026,true,Rx,0,8,7F,34,00,DC,4B,00,E0,AC,
4298719377,02104136,true,Rx,0,8,BB,00,3F,FF,07,E0,00,00,
4298719657,02804026,true,Rx,0,8,37,FF,73,B3,F7,63,0D,FF,
4298719951,02C00020,true,Rx,0,8,00,00,00,00,00,02,75,81,
4298721674,0340412E,true,Rx,0,8,74,80,00,BD,80,00,00,00,
4298725034,0300410E,true,Rx,0,8,B8,8E,28,32,87,D2,FC,00,
4298725319,19E00006,true,Rx,0,8,00,00,18,C0,5C,00,40,00,
4298726558,19000026,true,Rx,0,8,00,FF,01,40,38,11,84,00,
4298727577,0100082C,true,Rx,0,8,00,C0,A4,80,75,F9,01,28,
4298727856,0110483C,true,Rx,0,8,08,E9,2A,00,44,66,FC,52,
4298731674,0340412E,true,Rx,0,8,75,80,00,AD,80,00,00,00,
4298732640,1BA0493C,true,Rx,0,8,0C,03,01,01,02,02,01,09,
4298732931,01C04026,true,Rx,0,8,80,00,80,00,80,00,80,00,
4298733212,02000026,true,Rx,0,8,7F,34,00,DC,4B,00,E0,AC,
4298733503,02104136,true,Rx,0,8,BB,00,3F,FF,07,E0,00,00,
4298733785,02804026,true,Rx,0,8,37,FF,73,54,F7,63,0D,FF,
4298734075,02C00020,true,Rx,0,8,00,00,00,00,00,02,75,81,
4298734356,19A00002,true,Rx,0,8,6E,00,00,00,00,00,00,F7,
4298734625,1BE0493C,true,Rx,0,8,11,4D,57,32,31,34,32,37,
4298735081,00800006,true,Rx,0,8,41,E5,0E,55,41,E5,AE,63,
4298735361,0090411E,true,Rx,0,8,C1,FC,60,D3,00,00,00,00,
4298735640,0300410E,true,Rx,0,8,38,8E,28,32,07,D2,6C,00,
4298735919,03800006,true,Rx,0,8,58,00,78,41,0F,62,02,79,
4298737792,0100082C,true,Rx,0,8,00,C0,A4,80,65,F9,01,28,
4298738063,0110483C,true,Rx,0,8,08,E9,2A,00,44,66,FC,52,
4298741678,0340412E,true,Rx,0,8,76,80,00,9D,80,00,00,00,
4298741965,19000026,true,Rx,0,8,00,FF,01,40,38,11,84,00,
4298742255,1B200002,true,Rx,0,8,00,00,00,00,00,00,0F,71,
4298745059,0300410E,true,Rx,0,8,B8,8D,A8,32,87,D2,FC,00,
4298746766,01C04026,true,Rx,0,8,80,00,80,00,80,00,80,00,
4298747046,02000026,true,Rx,0,8,7F,34,00,DC,4B,00,E0,AC,
4298747327,02104136,true,Rx,0,8,BB,00,3F,FF,07,E0,00,00,
4298747606,02804026,true,Rx,0,8,37,FF,72,F5,F7,63,0D,FF,
4298747898,0100082C,true,Rx,0,8,00,C0,A4,80,65,F9,01,28,
4298748170,0110483C,true,Rx,0,8,08,E9,AA,00,44,66,FC,52,
4298748459,02C00020,true,Rx,0,8,00,00,00,00,00,02,75,81,
4298751737,0340412E,true,Rx,0,8,77,80,00,8D,80,00,00,00,
4298755062,00800006,true,Rx,0,8,89,E5,0E,55,41,E5,2E,63,
4298755347,0090411E,true,Rx,0,8,01,FC,E0,D3,00,00,00,00,
4298755626,0300410E,true,Rx,0,8,B8,8D,28,32,87,D2,FC,00,
4298755907,03800006,true,Rx,0,8,18,00,78,41,0F,62,02,79,
4298756558,19000026,true,Rx,0,8,00,FF,01,40,38,11,84,00,
4298757716,0100082C,true,Rx,0,8,00,C0,A4,80,65,F9,01,28,
4298758008,0110483C,true,Rx,0,8,08,E9,2A,00,44,66,FC,52,
4298760757,01C04026,true,Rx,0,8,80,00,80,00,80,00,80,00,
4298761038,02000026,true,Rx,0,8,7F,34,00,DC,4B,00,E0,AC,
4298761327,02104136,true,Rx,0,8,BB,00,3F,FF,07,E0,00,00,
4298761596,02804026,true,Rx,0,8,37,FF,72,95,F7,63,0D,FF,
4298761887,02C00020,true,Rx,0,8,00,00,00,00,00,02,75,81,
4298762177,0340412E,true,Rx,0,8,78,80,00,7D,80,00,00,00,
4298762467,19A00002,true,Rx,0,8,12,00,00,00,00,00,00,F7,
4298765103,0300410E,true,Rx,0,8,38,8D,A8,32,07,D2,6C,00,
4298767616,0100082C,true,Rx,0,8,00,C0,A4,80,65,F9,01,28,
4298767891,0110483C,true,Rx,0,8,08,E9,2A,00,44,66,FC,52,
4298771671,0340412E,true,Rx,0,8,79,80,00,6D,80,00,00,00,
4298771958,19000026,true,Rx,0,8,00,FF,01,40,38,11,84,00,
4298774748,01C04026,true,Rx,0,8,80,00,80,00,80,00,80,00,
4298775030,02000026,true,Rx,0,8,7F,34,00,DC,4B,00,E0,AC,
4298775309,00800006,true,Rx,0,8,C9,E5,0E,55,41,E5,AE,63,
4298775588,0090411E,true,Rx,0,8,41,FC,E0,D3,00,00,00,00,
4298775871,02104136,true,Rx,0,8,BB,00,3F,FF,07,E0,00,00,
4298776151,02804026,true,Rx,0,8,37,FF,72,36,F7,63,0D,FF,
4298776442,02C00020,true,Rx,0,8,00,00,00,00,00,02,75,81,
4298776711,0300410E,true,Rx,0,8,B8,8D,28,32,87,D2,FC,00,
4298776992,03800006,true,Rx,0,8,18,00,78,41,0F,62,02,79,
4298777283,19E00006,true,Rx,0,8,00,00,18,E0,5C,00,40,00,
4298777867,0100082C,true,Rx,0,8,00,C0,A4,80,65,F9,01,28,
4298778148,0110483C,true,Rx,0,8,08,E9,2A,00,44,66,FC,52,
4298781682,0340412E,true,Rx,0,8,7A,80,00,5D,80,00,00,00,
4298785091,0300410E,true,Rx,0,8,B8,8D,28,32,87,D2,FC,00,
4298786563,19000026,true,Rx,0,8,00,FF,01,40,38,11,8C,00,
4298787621,0100082C,true,Rx,0,8,00,C0,A4,80,65,F9,01,28,
4298787900,0110483C,true,Rx,0,8,08,E9,2A,00,44,66,FC,52,
4298788769,01C04026,true,Rx,0,8,80,00,80,00,80,00,80,00,
4298789050,02000026,true,Rx,0,8,7F,34,00,DC,4B,00,E0,AC,
4298789342,02104136,true,Rx,0,8,BB,00,3F,FF,07,E0,00,00,
4298789612,02804026,true,Rx,0,8,37,FF,71,D7,F7,63,0D,FF,
4298789901,02C00020,true,Rx,0,8,00,00,00,00,00,02,75,81,
4298790192,19A00002,true,Rx,0,8,02,00,00,00,00,00,00,F7,
4298791680,0340412E,true,Rx,0,8,7B,80,00,4D,80,00,00,00,
4298795110,00800006,true,Rx,0,8,09,E5,0E,55,41,E5,2E,63,
4298795395,0090411E,true,Rx,0,8,01,FC,E0,D3,00,00,00,00,
4298795676,0300410E,true,Rx,0,8,38,8D,A8,32,07,D2,6C,00,
4298795955,03800006,true,Rx,0,8,18,00,78,41,0F,62,02,79,
4298796236,1B600002,true,Rx,0,8,00,80,00,00,00,17,4C,00,
4298797692,0100082C,true,Rx,0,8,00,C0,A4,80,65,F9,01,28,
4298797973,0110483C,true,Rx,0,8,08,E9,AA,00,44,66,FC,52,
4298801674,0340412E,true,Rx,0,8,7C,80,00,3D,80,00,00,00,
4298801961,19000026,true,Rx,0,8,00,FF,01,40,38,11,84,00,
4298802766,01C04026,true,Rx,0,8,80,00,80,00,80,00,80,00,
4298803047,02000026,true,Rx,0,8,7F,34,00,DC,4B,00,E0,AC,
4298803338,02104136,true,Rx,0,8,BB,00,3F,FF,07,E0,00,00,
4298803607,02804026,true,Rx,0,8,37,FF,71,78,F7,63,0D,FF,
4298803901,02C00020,true,Rx,0,8,00,00,00,00,00,02,75,81,
4298805141,0300410E,true,Rx,0,8,B8,8D,28,32,87,CD,FC,00,
4298807716,0100082C,true,Rx,0,8,00,C0,A4,80,65,F9,01,28,
4298807994,0110483C,true,Rx,0,8,08,E9,2A,00,44,66,FC,52,
4298811679,0340412E,true,Rx,0,8,7D,80,00,2D,80,00,00,00,
4298815127,00800006,true,Rx,0,8,41,E2,0E,55,41,E2,2E,63,
4298815412,0090411E,true,Rx,0,8,01,FC,60,D3,00,00,00,00,
4298815693,0300410E,true,Rx,0,8,38,8D,28,32,07,CD,6C,00,
4298815972,03800006,true,Rx,0,8,18,00,78,41,0F,62,02,79,
4298816562,19000026,true,Rx,0,8,00,FF,01,40,38,11,84,00,
4298816852,01C04026,true,Rx,0,8,80,00,80,00,80,00,80,00,
4298817132,02000026,true,Rx,0,8,7F,34,00,DC,4B,00,E0,AC,
4298817419,02104136,true,Rx,0,8,BB,00,3F,FF,07,E0,00,00,
4298817688,02804026,true,Rx,0,8,37,FF,71,18,F7,63,0D,FF,
4298817979,0100082C,true,Rx,0,8,00,C0,A4,80,75,F9,01,28,
4298818260,0110483C,true,Rx,0,8,08,E9,2A,00,44,66,FC,52,
4298818550,02C00020,true,Rx,0,8,00,00,00,00,00,02,75,81,
4298818840,19A00002,true,Rx,0,8,12,00,00,00,00,00,00,F7,
4298821747,0340412E,true,Rx,0,8,7E,80,00,1D,80,00,00,00,
4298825123,0300410E,true,Rx,0,8,B8,8D,A8,32,87,CD,FC,00,
4298825419,19E00006,true,Rx,0,8,00,00,18,C0,5C,00,40,00,
4298826934,1B200002,true,Rx,0,8,00,00,00,00,00,00,0F,71,
4298827594,0100082C,true,Rx,0,8,00,C0,A4,80,65,F9,01,28,
4298827874,0110483C,true,Rx,0,8,08,E9,2A,00,44,66,FC,52,
4298830770,01C04026,true,Rx,0,8,80,00,80,00,80,00,80,00,
4298831051,02000026,true,Rx,0,8,7F,34,00,DC,4B,00,E0,AC,
4298831339,02104136,true,Rx,0,8,BB,00,3F,FF,07,E0,00,00,
4298831618,02804026,true,Rx,0,8,37,FF,70,B9,F7,63,0D,FF,
4298831909,02C00020,true,Rx,0,8,00,00,00,00,00,02,75,81,
4298832190,0340412E,true,Rx,0,8,7F,80,00,0D,80,00,00,00,
4298832479,19000026,true,Rx,0,8,00,FF,01,40,38,11,84,00,
4298835177,00800006,true,Rx,0,8,89,E2,0E,52,41,E2,AE,63,
4298835462,0090411E,true,Rx,0,8,C2,0B,E1,18,00,00,00,00,
4298835732,0300410E,true,Rx,0,8,B8,89,28,32,87,CD,FC,00,
4298836013,03800006,true,Rx,0,8,58,00,78,41,0F,62,02,79,
4298837725,0100082C,true,Rx,0,8,00,C0,A4,80,65,F9,01,28,
4298838006,0110483C,true,Rx,0,8,08,E9,2A,00,44,66,FC,52,
4298841685,0340412E,true,Rx,0,8,70,80,00,FD,80,00,00,00,
4298844749,01C04026,true,Rx,0,8,80,00,80,00,80,00,80,00,
4298845027,02000026,true,Rx,0,8,7F,34,00,DC,4B,00,E0,AC,
4298845316,02104136,true,Rx,0,8,BB,00,3F,FF,07,E0,00,00,
4298845597,02804026,true,Rx,0,8,37,FF,70,5A,F7,63,0D,FF,
4298845886,02C00020,true,Rx,0,8,00,00,00,00,00,02,75,81,
4298846167,0300410E,true,Rx,0,8,38,89,28,32,07,CD,6C,00,
4298846447,19A00002,true,Rx,0,8,6E,00,00,00,00,00,00,F7,
4298846737,19000026,true,Rx,0,8,00,FF,01,40,38,11,8C,00,
4298847768,0100082C,true,Rx,0,8,00,C0,A4,80,65,F9,01,28,
4298848050,0110483C,true,Rx,0,8,08,E9,AA,00,44,66,FC,52,
4298851681,0340412E,true,Rx,0,8,71,80,00,ED,80,00,00,00,
4298855162,00800006,true,Rx,0,8,C9,E2,0E,52,41,E2,2E,63,
4298855447,0090411E,true,Rx,0,8,02,0B,E1,18,00,00,00,00,
4298855728,0300410E,true,Rx,0,8,B8,89,A8,32,87,CD,FC,00,
4298856008,03800006,true,Rx,0,8,18,00,78,41,0F,62,02,79,
4298857637,0100082C,true,Rx,0,8,00,C0,A4,80,65,F9,01,28,
4298857918,0110483C,true,Rx,0,8,08,E9,2A,00,44,66,FC,52,
4298858785,01C04026,true,Rx,0,8,80,00,80,00,80,00,80,00,
4298859066,02000026,true,Rx,0,8,7F,34,00,DC,4B,00,E0,AC,
4298859347,02104136,true,Rx,0,8,BB,00,3F,FF,07,E0,00,00,
4298859628,02804026,true,Rx,0,8,37,FF,70,00,F7,63,0E,01,
4298859918,02C00020,true,Rx,0,8,00,00,00,00,00,02,75,81,
4298861744,0340412E,true,Rx,0,8,72,80,00,DD,80,00,00,00,
4298862035,19000026,true,Rx,0,8,00,FF,01,40,38,11,84,00,
4298865178,0300410E,true,Rx,0,8,B8,89,28,32,87,CD,FC,00,
4298867601,0100082C,true,Rx,0,8,00,C0,A4,80,65,F9,01,28,
4298867887,0110483C,true,Rx,0,8,08,E9,2A,00,44,66,FC,52,
4298868178,1AE0092C,true,Rx,0,8,80,00,22,E0,41,A0,00,00,
4298868458,1B700030,true,Rx,0,8,35,88,1E,00,00,00,03,00,
4298871738,0340412E,true,Rx,0,8,73,80,00,CD,80,00,00,00,
4298872766,01C04026,true,Rx,0,8,80,00,80,00,80,00,80,00,
4298873046,02000026,true,Rx,0,8,7F,34,00,DC,4B,00,E0,AC,
4298873327,02104136,true,Rx,0,8,BB,00,3F,FF,07,E0,00,00,
4298873606,02804026,true,Rx,0,8,37,FF,70,00,F7,63,0D,FF,
4298873898,02C00020,true,Rx,0,8,00,00,00,00,00,02,75,81,
4298874190,19A00002,true,Rx,0,8,12,00,00,00,00,00,00,F7,
4298875212,00800006,true,Rx,0,8,01,E2,0E,53,41,E2,AE,63,
4298875491,0090411E,true,Rx,0,8,42,0B,61,18,00,00,00,00,
4298875771,0300410E,true,Rx,0,8,38,89,28,32,07,CD,6C,00,
4298876057,03800006,true,Rx,0,8,18,00,78,41,0F,62,02,79,
4298876337,19E00006,true,Rx,0,8,00,00,18,E0,5C,00,40,00,
4298876627,19000026,true,Rx,0,8,00,FF,01,40,38,11,8C,00,
4298877834,0100082C,true,Rx,0,8,00,C0,A4,80,65,F9,01,28,
4298878105,0110483C,true,Rx,0,8,08,E9,2A,00,44,66,FC,52,
4298881680,0340412E,true,Rx,0,8,74,80,00,BD,80,00,00,00,
4298885189,0300410E,true,Rx,0,8,B8,89,A8,32,87,CD,FC,00,
4298886752,01C04026,true,Rx,0,8,80,00,80,00,80,00,80,00,
4298887033,02000026,true,Rx,0,8,7F,34,00,DC,4B,00,E0,AC,
4298887311,02104136,true,Rx,0,8,BB,00,3F,FF,07,E0,00,00,
4298887600,0100082C,true,Rx,0,8,00,C0,A4,80,65,F9,01,28,
4298887881,0110483C,true,Rx,0,8,08,E9,2A,00,44,66,FC,52,
4298888151,02804026,true,Rx,0,8,37,FF,70,00,F7,63,0D,FF,
4298888441,02C00020,true,Rx,0,8,00,00,00,00,00,02,75,81,
4298891747,0340412E,true,Rx,0,8,75,80,00,AD,80,00,00,00,
4298892024,19000026,true,Rx,0,8,00,FF,01,40,38,11,84,00,
4298895205,00800006,true,Rx,0,8,49,E2,0E,53,41,E2,2E,63,
4298895496,0090411E,true,Rx,0,8,02,0B,E1,18,00,00,00,00,
4298895775,0300410E,true,Rx,0,8,38,89,28,32,07,CD,6C,00,
4298896056,03800006,true,Rx,0,8,18,00,78,41,0F,62,02,79,
4298897686,0100082C,true,Rx,0,8,00,C0,A4,80,65,F9,01,28,
4298897964,0110483C,true,Rx,0,8,08,E9,AA,00,44,66,FC,52,
4298900744,01C04026,true,Rx,0,8,80,00,80,00,80,00,80,00,
4298901025,02000026,true,Rx,0,8,7F,34,00,DC,4B,00,E0,AC,
4298901305,02104136,true,Rx,0,8,BB,00,3F,FF,07,E0,00,00,
4298901584,02804026,true,Rx,0,8,37,FF,70,00,F7,63,0D,FF,
4298901877,02C00020,true,Rx,0,8,00,00,00,00,00,02,75,81,
4298902158,0340412E,true,Rx,0,8,76,80,00,9D,80,00,00,00,
4298902448,19A00002,true,Rx,0,8,02,00,00,00,00,00,00,F7,
4298905232,0300410E,true,Rx,0,8,B8,89,28,32,87,CD,FC,00,
4298906569,19000026,true,Rx,0,8,00,FF,01,40,38,11,84,00,
4298907673,0100082C,true,Rx,0,8,00,C0,A4,80,75,FA,01,28,
4298907952,0110483C,true,Rx,0,8,08,E9,2A,00,44,66,FC,52,
4298911681,0340412E,true,Rx,0,8,77,80,00,8D,80,00,00,00,
4298911977,1B200002,true,Rx,0,8,00,00,00,00,00,00,0F,71,
4298914747,01C04026,true,Rx,0,8,80,00,80,00,80,00,80,00,
4298915028,02000026,true,Rx,0,8,7F,34,00,DC,4B,00,E0,AC,
4298915307,00800006,true,Rx,0,8,89,E1,0E,53,41,E1,2E,63,
4298915598,0090411E,true,Rx,0,8,02,03,E1,2A,00,00,00,00,
4298915888,02104136,true,Rx,0,8,BB,00,3F,FF,07,E0,00,00,
4298916163,02804026,true,Rx,0,8,37,FF,70,00,F7,63,0D,FF,
4298916453,02C00020,true,Rx,0,8,00,00,00,00,00,02,75,81,
4298916733,0300410E,true,Rx,0,8,B8,89,A8,32,87,CC,FC,00,
4298917015,03800006,true,Rx,0,8,18,00,78,41,0F,62,02,79,
4298917778,0100082C,true,Rx,0,8,00,C0,A4,80,65,FA,01,28,
4298918053,0110483C,true,Rx,0,8,08,E9,2A,00,44,66,FC,52,
4298921677,0340412E,true,Rx,0,8,78,80,00,7D,80,00,00,00,
4298921967,19000026,true,Rx,0,8,00,FF,01,40,38,11,8C,00,
4298925240,0300410E,true,Rx,0,8,38,89,28,32,07,CC,6C,00,
4298925527,19E00006,true,Rx,0,8,00,00,18,C0,5C,00,40,00,
4298927646,0100082C,true,Rx,0,8,00,C0,A4,80,65,FA,01,28,
4298927927,0110483C,true,Rx,0,8,08,E9,2A,00,44,66,FC,52,
4298928763,01C04026,true,Rx,0,8,80,00,80,00,80,00,80,00,
4298929044,02000026,true,Rx,0,8,7F,34,00,DC,4B,00,E0,AC,
4298929337,02104136,true,Rx,0,8,BB,00,3F,FF,07,E0,00,00,
4298929606,02804026,true,Rx,0,8,37,FF,70,00,F7,63,0D,FF,
4298929906,02C00020,true,Rx,0,8,00,00,00,00,00,02,75,81,
4298930188,19A00002,true,Rx,0,8,12,00,00,00,00,00,00,F7,
4298931747,0340412E,true,Rx,0,8,79,80,00,6D,80,00,00,00,
4298935248,00800006,true,Rx,0,8,C1,E1,0E,51,41,E1,AE,63,
4298935525,0090411E,true,Rx,0,8,C2,03,61,2A,00,00,00,00,
4298935804,0300410E,true,Rx,0,8,B8,86,28,32,87,CC,FC,00,
4298936085,03800006,true,Rx,0,8,58,00,78,41,0F,62,02,79,
4298936560,19000026,true,Rx,0,8,00,FF,01,40,38,11,84,00,
4298937729,0100082C,true,Rx,0,8,00,C0,A4,80,65,FA,01,28,
4298938010,0110483C,true,Rx,0,8,08,E9,2A,00,44,66,FC,52,
4298941741,0340412E,true,Rx,0,8,7A,80,00,5D,80,00,00,00,
4298942800,01C04026,true,Rx,0,8,80,00,80,00,80,00,80,00,
4298943080,02000026,true,Rx,0,8,7F,34,00,DC,4B,00,E0,AC,
4298943371,02104136,true,Rx,0,8,BB,00,3F,FF,07,E0,00,00,
4298943651,02804026,true,Rx,0,8,37,FF,70,00,F7,63,0D,FF,
4298943933,02C00020,true,Rx,0,8,00,00,00,00,00,02,75,81,
4298945275,0300410E,true,Rx,0,8,B8,86,28,32,87,CC,FC,00,
4298947675,0100082C,true,Rx,0,8,00,C0,A4,80,65,FA,01,28,
4298947951,0110483C,true,Rx,0,8,08,E9,AA,00,44,66,FC,52,
4298951681,0340412E,true,Rx,0,8,7B,80,00,4D,80,00,00,00,
4298951966,19000026,true,Rx,0,8,00,FF,01,40,38,11,8C,00,
4298955272,00800006,true,Rx,0,8,09,E1,0E,51,41,E1,2E,63,
4298955553,0090411E,true,Rx,0,8,02,03,E1,2A,00,00,00,00,
4298955851,0300410E,true,Rx,0,8,38,86,A8,32,07,CC,6C,00,
4298956121,03800006,true,Rx,0,8,18,00,78,41,0F,62,02,79,
4298956761,01C04026,true,Rx,0,8,80,00,80,00,80,00,80,00,
4298957043,02000026,true,Rx,0,8,7F,34,00,DC,4B,00,E0,AC,
4298957322,02104136,true,Rx,0,8,BB,00,3F,FF,07,E0,00,00,
4298957601,02804026,true,Rx,0,8,37,FF,70,00,F7,63,0D,FF,
4298957888,0100082C,true,Rx,0,8,00,C0,A4,80,65,FA,01,28,
4298958169,0110483C,true,Rx,0,8,08,E9,2A,00,44,66,FC,52,
4298958460,02C00020,true,Rx,0,8,00,00,00,00,00,02,75,81,
4298958749,19A00002,true,Rx,0,8,6E,00,00,00,00,00,00,F7,
4298961752,0340412E,true,Rx,0,8,7C,80,00,3D,80,00,00,00,
4298965271,0300410E,true,Rx,0,8,B8,85,28,32,87,CC,FC,00,
4298965558,1B600002,true,Rx,0,8,00,80,00,00,00,17,4C,00,
4298966559,19000026,true,Rx,0,8,00,FF,01,40,38,11,84,00,
4298967703,0100082C,true,Rx,0,8,00,C0,A4,80,65,FA,01,28,
4298967982,0110483C,true,Rx,0,8,08,E9,2A,00,44,66,FC,52,
4298970765,01C04026,true,Rx,0,8,80,00,80,00,80,00,80,00,
4298971046,02000026,true,Rx,0,8,7F,34,00,DC,4B,00,E0,AC,
4298971344,02104136,true,Rx,0,8,BB,00,3F,FF,07,E0,00,00,
4298971614,02804026,true,Rx,0,8,37,FF,70,00,F7,63,0E,01,
4298971903,02C00020,true,Rx,0,8,00,00,00,00,00,02,75,81,
4298972184,0340412E,true,Rx,0,8,7D,80,00,2D,80,00,00,00,
4298972670,1A200020,true,Rx,0,8,8E,00,02,2D,00,00,02,2D,
4298975315,00800006,true,Rx,0,8,41,E1,0E,50,41,E1,2E,63,
4298975601,0090411E,true,Rx,0,8,02,03,61,2A,00,00,00,00,
4298975881,0300410E,true,Rx,0,8,38,85,28,32,07,CC,6C,00,
4298976163,03800006,true,Rx,0,8,18,00,78,41,0F,62,02,79,
4298976452,19E00006,true,Rx,0,8,00,00,18,E0,5C,00,40,00,
4298977673,0100082C,true,Rx,0,8,00,C0,A4,80,65,FA,01,28,
4298977952,0110483C,true,Rx,0,8,08,E9,2A,00,44,66,FC,52,
4298981685,0340412E,true,Rx,0,8,7E,80,00,1D,80,00,00,00,
4298981970,19000026,true,Rx,0,8,00,FF,01,40,38,11,84,00,
4298982570,1BA0493C,true,Rx,0,8,0D,01,02,01,01,01,01,01,
4298982860,1BE0493C,true,Rx,0,8,01,00,2A,BC,90,52,02,04,
4298984779,01C04026,true,Rx,0,8,80,00,80,00,80,00,80,00,
4298985060,02000026,true,Rx,0,8,7F,34,00,DC,4B,00,E0,AC,
4298985350,02104136,true,Rx,0,8,BB,00,3F,FF,07,E0,00,00,
4298985619,02804026,true,Rx,0,8,37,FF,70,00,F7,63,0E,01,
4298985911,02C00020,true,Rx,0,8,00,00,00,00,00,02,75,81,
4298986193,0300410E,true,Rx,0,8,B8,81,A8,33,87,C8,FC,00,
4298986483,19A00002,true,Rx,0,8,12,00,00,00,00,00,00,F7,
4298987783,0100082C,true,Rx,0,8,00,C0,A4,80,65,FA,01,28,
4298988063,0110483C,true,Rx,0,8,08,E9,2A,00,44,66,FC,52,
4298991681,0340412E,true,Rx,0,8,7F,80,00,0D,80,00,00,00,
4298995304,00800006,true,Rx,0,8,89,DF,0E,4D,41,DF,AE,62,
4298995580,0090411E,true,Rx,0,8,42,27,E1,D4,00,00,00,00,
4298995860,0300410E,true,Rx,0,8,B8,80,28,33,87,C8,FC,00,
4298996141,03800006,true,Rx,0,8,18,00,78,41,0F,62,02,79,
4298996564,19000026,true,Rx,0,8,00,FF,01,40,38,11,8C,00,
4298997000,1B200002,true,Rx,0,8,00,00,00,00,00,00,0F,71,
4298997778,0100082C,true,Rx,0,8,00,C0,A4,80,75,FA,01,28,
4298998059,0110483C,true,Rx,0,8,08,E9,AA,00,44,66,FC,52,
4298998771,01C04026,true,Rx,0,8,80,00,80,00,80,00,80,00,
4298999052,02000026,true,Rx,0,8,7F,34,00,DC,4B,00,E0,AC,
4298999332,02104136,true,Rx,0,8,BB,00,3F,FF,07,E0,00,00,
4298999616,02804026,true,Rx,0,8,37,FF,70,00,F7,63,0D,FF,
4298999906,02C00020,true,Rx,0,8,00,00,00,00,00,02,75,81,
4299001761,0340412E,true,Rx,0,8,70,80,00,FD,80,00,00,00,
4299005717,0300410E,true,Rx,0,8,38,80,A8,33,07,C8,6C,00,
4299007539,0100082C,true,Rx,0,8,00,C0,A4,80,65,FA,01,28,
4299007815,0110483C,true,Rx,0,8,08,E9,2A,00,44,66,FC,52,
4299011749,0340412E,true,Rx,0,8,71,80,00,ED,80,00,00,00,
4299012025,19000026,true,Rx,0,8,00,FF,01,40,38,11,84,00,
4299012748,01C04026,true,Rx,0,8,80,00,80,00,80,00,80,00,
4299013029,02000026,true,Rx,0,8,7F,34,00,DC,4B,00,E0,AC,
4299013319,02104136,true,Rx,0,8,BB,00,3F,FF,07,E0,00,00,
4299013588,02804026,true,Rx,0,8,37,FF,70,00,F7,63,0D,FF,
4299013883,02C00020,true,Rx,0,8,00,00,00,00,00,02,75,81,
4299014174,19A00002,true,Rx,0,8,02,00,00,00,00,00,00,F7,
4299015351,00800006,true,Rx,0,8,C9,DE,0E,48,41,DE,2E,69,
4299015630,0090411E,true,Rx,0,8,02,27,E1,D4,00,00,00,00,
4299015912,0300410E,true,Rx,0,8,B8,78,28,33,87,C7,FC,00,
4299016193,03800006,true,Rx,0,8,18,00,78,41,0F,62,02,79,
4299017841,0100082C,true,Rx,0,8,00,C0,A4,80,65,FA,01,28,
4299018121,0110483C,true,Rx,0,8,08,E9,2A,00,44,66,FC,52,
4299021686,0340412E,true,Rx,0,8,72,80,00,DD,80,00,00,00,
4299025331,0300410E,true,Rx,0,8,B8,78,28,33,87,C7,FC,00,
4299025616,19E00006,true,Rx,0,8,00,00,18,C0,5C,00,40,00,
4299026566,19000026,true,Rx,0,8,00,FF,01,40,38,11,8C,00,
4299026856,01C04026,true,Rx,0,8,80,00,80,00,80,00,80,00,
4299027137,02000026,true,Rx,0,8,7F,34,00,DC,4B,00,E0,AC,
4299027429,02104136,true,Rx,0,8,BB,00,3F,FF,07,E0,00,00,
4299027710,0100082C,true,Rx,0,8,00,C0,A4,80,65,FA,01,28,
4299027990,0110483C,true,Rx,0,8,08,E9,2A,00,44,66,FC,52,
4299028269,02804026,true,Rx,0,8,37,FF,70,00,F7,63,0D,FF,
4299028560,02C00020,true,Rx,0,8,00,00,00,00,00,02,75,81,
4299031752,0340412E,true,Rx,0,8,73,80,00,CD,80,00,00,00,
4299035335,00800006,true,Rx,0,8,09,DE,0E,48,41,DE,AE,69,
4299035621,0090411E,true,Rx,0,8,C2,55,E2,B4,00,00,00,00,
4299035900,0300410E,true,Rx,0,8,38,78,B8,36,07,C7,6C,00,
4299036172,03800006,true,Rx,0,8,58,00,78,41,0F,62,02,79,
4299037678,0100082C,true,Rx,0,8,00,C0,A4,80,65,FA,01,28,
4299037957,0110483C,true,Rx,0,8,08,E9,2A,00,44,66,FC,52,
4299040730,01C04026,true,Rx,0,8,80,00,80,00,80,00,80,00,
4299041010,02000026,true,Rx,0,8,7F,34,00,DC,4B,00,E0,AC,
4299041300,02104136,true,Rx,0,8,BB,00,3F,FF,07,E0,00,00,
4299041580,02804026,true,Rx,0,8,37,FF,70,1B,F7,63,0D,FF,
4299041870,02C00020,true,Rx,0,8,00,00,00,00,00,02,75,81,
4299042150,0340412E,true,Rx,0,8,74,80,00,BD,80,00,00,00,
4299042431,19000026,true,Rx,0,8,00,FF,01,40,38,11,84,00,
4299042721,19A00002,true,Rx,0,8,12,00,00,00,00,00,00,F7,
4299045376,0300410E,true,Rx,0,8,B8,89,38,36,87,D7,FC,00,
4299047642,0100082C,true,Rx,0,8,00,C0,A4,80,65,FA,01,28,
4299047917,0110483C,true,Rx,0,8,08,E9,AA,00,44,66,FC,52,
4299051686,0340412E,true,Rx,0,8,75,80,00,AD,80,00,00,00,
4299054761,01C04026,true,Rx,0,8,80,00,80,00,80,00,80,00,
4299055048,02000026,true,Rx,0,8,7F,34,00,DC,4B,00,E0,AC,
4299055328,02104136,true,Rx,0,8,BB,00,3F,FF,07,E0,00,00,
4299055607,02804026,true,Rx,0,8,37,FF,70,76,F7,63,0E,01,
4299055897,00800006,true,Rx,0,8,41,E8,0E,52,41,E8,2E,73,
4299056178,0090411E,true,Rx,0,8,02,55,62,B4,00,00,00,00,
4299056468,02C00020,true,Rx,0,8,00,00,00,00,00,02,75,81,
4299056737,0300410E,true,Rx,0,8,38,89,38,36,07,D7,6C,00,
4299057017,03800006,true,Rx,0,8,18,00,78,41,0F,62,02,79,
4299057307,19000026,true,Rx,0,8,00,FF,01,40,38,11,8C,00,
4299057773,0100082C,true,Rx,0,8,00,C0,A4,80,65,FA,01,28,
4299058053,0110483C,true,Rx,0,8,08,E9,2A,00,44,66,FC,52,
4299061678,0340412E,true,Rx,0,8,76,80,00,9D,80,00,00,00,
4299065365,0300410E,true,Rx,0,8,B8,81,B8,36,87,D6,FC,00,
4299067610,0100082C,true,Rx,0,8,00,C0,A4,80,65,FA,01,28,
4299067885,0110483C,true,Rx,0,8,08,E7,2A,00,44,66,FC,52,
4299068763,01C04026,true,Rx,0,8,80,00,80,00,80,00,80,00,
4299069045,02000026,true,Rx,0,8,7F,34,00,DC,4B,00,E0,AC,
4299069334,02104136,true,Rx,0,8,BB,00,3F,FF,07,E0,00,00,
4299069603,02804026,true,Rx,0,8,37,FF,70,D3,F7,63,0D,FF,
4299069898,02C00020,true,Rx,0,8,00,00,00,00,00,02,75,81,
4299070179,19A00002,true,Rx,0,8,6E,00,00,00,00,00,00,F7,
4299071755,0340412E,true,Rx,0,8,77,80,00,8D,80,00,00,00,
4299072045,19000026,true,Rx,0,8,00,FF,01,40,38,11,84,00,
4299075384,00800006,true,Rx,0,8,89,E7,0E,4C,41,E7,AE,7F,
4299075664,0090411E,true,Rx,0,8,42,59,E3,63,00,00,00,00,
4299075941,0300410E,true,Rx,0,8,B8,7F,38,27,87,D5,FC,00,
4299076223,03800006,true,Rx,0,8,18,00,78,41,0F,62,02,79,
4299076513,19E00006,true,Rx,0,8,00,00,18,E0,5C,00,40,00,
4299077772,0100082C,true,Rx,0,8,00,C0,A4,80,65,FA,01,28,
4299078053,0110483C,true,Rx,0,8,08,E7,22,00,44,66,FC,52,
4299078344,1B700030,true,Rx,0,8,25,88,1E,00,00,00,03,00,
4299081704,0340412E,true,Rx,0,8,78,80,00,7D,80,00,00,00,
4299081991,1B200002,true,Rx,0,8,00,00,00,00,00,00,0F,71,
4299082775,01C04026,true,Rx,0,8,80,00,80,00,80,00,80,00,
4299083057,02000026,true,Rx,0,8,7F,34,00,DC,4B,00,E0,AC,
4299083336,02104136,true,Rx,0,8,BB,00,3F,FF,07,E0,00,00,
4299083615,02804026,true,Rx,0,8,37,FF,71,31,F7,63,0D,FF,
4299083911,02C00020,true,Rx,0,8,00,00,00,00,00,02,75,81,
4299085418,0300410E,true,Rx,0,8,38,7F,38,27,07,D5,6C,00,
4299086571,19000026,true,Rx,0,8,00,FF,01,40,38,11,8C,00,
4299087857,0100082C,true,Rx,0,8,00,C0,A4,80,65,FA,01,28,
4299088138,0110483C,true,Rx,0,8,08,E7,22,00,44,66,FC,52,
4299091693,0340412E,true,Rx,0,8,79,80,00,6D,80,00,00,00,
4299095399,00800006,true,Rx,0,8,C9,E7,0E,4C,41,E7,2E,7F,
4299095685,0090411E,true,Rx,0,8,02,64,E4,00,00,00,00,00,
4299095965,0300410E,true,Rx,0,8,B8,7F,B8,27,87,D5,FC,00,
4299096246,03800006,true,Rx,0,8,18,00,78,41,0F,62,02,79,
4299096752,01C04026,true,Rx,0,8,80,00,80,00,80,00,80,00,
4299097033,02000026,true,Rx,0,8,7F,34,00,DC,4B,00,E0,AC,
4299097322,02104136,true,Rx,0,8,BB,00,3F,FF,07,E0,00,00,
4299097599,02804026,true,Rx,0,8,37,FF,71,8F,F7,63,0D,FF,
4299097889,0100082C,true,Rx,0,8,00,C0,A4,80,65,FA,01,28,
4299098159,0110483C,true,Rx,0,8,08,E7,A2,00,44,66,FC,52,
4299098450,02C00020,true,Rx,0,8,00,00,00,00,00,02,75,81,
4299098739,19A00002,true,Rx,0,8,12,00,00,00,00,00,00,F7,
4299101747,0340412E,true,Rx,0,8,7A,80,00,5D,80,00,00,00,
4299102034,19000026,true,Rx,0,8,00,FF,01,40,38,11,84,00,
4299105411,0300410E,true,Rx,0,8,B8,78,38,27,87,D4,FC,00,
4299107604,0100082C,true,Rx,0,8,00,C0,A4,80,65,FA,01,28,
4299107879,0110483C,true,Rx,0,8,08,E7,22,00,44,66,FC,52,
4299110742,01C04026,true,Rx,0,8,80,00,80,00,80,00,80,00,
4299111023,02000026,true,Rx,0,8,7F,34,00,DC,4B,00,E0,AC,
4299111314,02104136,true,Rx,0,8,BB,00,3F,FF,07,E0,00,00,
4299111583,02804026,true,Rx,0,8,37,FF,71,ED,F7,63,0E,04,
4299111875,02C00020,true,Rx,0,8,00,00,00,00,00,02,75,81,
4299112157,0340412E,true,Rx,0,8,7B,80,00,4D,80,00,00,00,
4299115455,00800006,true,Rx,0,8,01,E6,0E,48,41,E6,2E,82,
4299115745,0090411E,true,Rx,0,8,02,64,64,00,00,00,00,00,
4299116024,0300410E,true,Rx,0,8,38,78,38,27,07,D4,6C,00,
4299116304,03800006,true,Rx,0,8,18,00,78,41,0F,62,02,79,
4299116583,19000026,true,Rx,0,8,00,FF,01,40,38,11,84,00,
4299117719,0100082C,true,Rx,0,8,00,C0,A4,80,65,FA,01,28,
4299118001,0110483C,true,Rx,0,8,08,E7,22,00,44,66,FC,52,
4299121688,0340412E,true,Rx,0,8,7C,80,00,3D,80,00,00,00,
4299124751,01C04026,true,Rx,0,8,80,00,80,00,80,00,80,00,
4299125028,02000026,true,Rx,0,8,7F,34,00,DC,4B,00,E0,AC,
4299125308,02104136,true,Rx,0,8,BB,00,3F,FF,07,E0,00,00,
4299125588,02804026,true,Rx,0,8,37,FF,72,4C,F7,63,0E,01,
4299125878,02C00020,true,Rx,0,8,00,00,00,00,00,02,75,81,
4299126159,0300410E,true,Rx,0,8,B8,78,B8,27,87,D4,FC,00,
4299126438,19A00002,true,Rx,0,8,02,00,00,00,00,00,00,F7,
4299126729,19E00006,true,Rx,0,8,00,00,18,C0,5C,00,40,00,
4299127780,0100082C,true,Rx,0,8,00,C0,A4,80,75,FA,01,28,
4299128061,0110483C,true,Rx,0,8,08,E7,22,00,44,66,FC,52,
4299131682,0340412E,true,Rx,0,8,7D,80,00,2D,80,00,00,00,
4299131967,19000026,true,Rx,0,8,00,FF,01,40,38,11,8C,00,
4299135449,00800006,true,Rx,0,8,49,E6,0E,48,41,E6,AE,82,
4299135735,0090411E,true,Rx,0,8,C2,46,E4,B5,02,00,00,00,
4299136006,0300410E,true,Rx,0,8,38,78,38,29,07,D4,6C,00,
4299136285,03800006,true,Rx,0,8,58,00,78,41,0F,62,02,79,
4299136565,1B600002,true,Rx,0,8,00,80,00,1C,00,17,4C,00,
4299137700,0100082C,true,Rx,0,8,00,C0,A4,80,65,FA,01,28,
4299137974,0110483C,true,Rx,0,8,08,E7,22,00,44,66,FC,52,
4299138780,01C04026,true,Rx,0,8,80,00,80,00,80,00,80,00,
4299139061,02000026,true,Rx,0,8,7F,34,00,DC,4B,00,E0,AC,
4299139341,02104136,true,Rx,0,8,BB,00,3F,FF,07,E0,00,00,
4299139620,02804026,true,Rx,0,8,37,FF,72,AB,F7,63,0D,FF,
4299139905,02C00020,true,Rx,0,8,00,00,00,00,00,02,75,81,
4299141761,0340412E,true,Rx,0,8,7E,80,00,1D,80,00,00,00,
4299145450,0300410E,true,Rx,0,8,B8,6F,38,29,87,D4,FC,00,
4299146570,19000026,true,Rx,0,8,00,FF,01,40,38,11,84,00,
4299147538,0100082C,true,Rx,0,8,00,C0,A4,80,65,FA,01,28,
4299147817,0110483C,true,Rx,0,8,08,E7,A2,00,44,66,FC,52,
4299151693,0340412E,true,Rx,0,8,7F,80,00,0D,80,00,00,00,
4299152773,01C04026,true,Rx,0,8,80,00,80,00,80,00,80,00,
4299153054,02000026,true,Rx,0,8,7F,34,00,DC,4B,00,E0,AC,
4299153333,02104136,true,Rx,0,8,BB,00,3F,FF,07,E0,00,00,
4299153614,02804026,true,Rx,0,8,37,FF,73,0A,F7,63,0D,FD,
4299153906,02C00020,true,Rx,0,8,00,00,00,00,00,02,75,81,
4299154186,19A00002,true,Rx,0,8,12,00,00,00,00,00,00,F7,
4299155486,00800006,true,Rx,0,8,89,E5,0E,41,41,E5,2E,87,
4299155766,0090411E,true,Rx,0,8,02,36,E4,F6,02,00,00,00,
4299156048,0300410E,true,Rx,0,8,B8,6C,B8,29,87,D3,FC,00,
4299156327,03800006,true,Rx,0,8,18,00,78,41,0F,62,02,79,
4299157781,0100082C,true,Rx,0,8,00,C0,A4,80,65,FA,01,28,
4299158052,0110483C,true,Rx,0,8,08,E7,22,00,44,66,FC,52,
4299161688,0340412E,true,Rx,0,8,70,80,00,FD,80,00,00,00,
4299161975,19000026,true,Rx,0,8,00,FF,01,40,38,11,8C,00,
4299165476,0300410E,true,Rx,0,8,38,6C,38,29,07,D3,6C,00,
4299166752,01C04026,true,Rx,0,8,80,00,80,00,80,00,80,00,
4299167032,02000026,true,Rx,0,8,7F,34,00,DC,4B,00,E0,AC,
4299167322,02104136,true,Rx,0,8,BB,00,3F,FF,07,E0,00,00,
4299167592,02804026,true,Rx,0,8,37,FF,73,6A,F7,63,0D,FF,
4299167884,0100082C,true,Rx,0,8,00,C0,A4,80,65,FA,01,28,
4299168166,0110483C,true,Rx,0,8,08,E7,22,00,44,66,FC,52,
4299168455,02C00020,true,Rx,0,8,00,00,00,00,00,02,75,81,
4299168745,1B200002,true,Rx,0,8,00,00,00,00,00,00,0F,71,
4299171758,0340412E,true,Rx,0,8,71,80,00,ED,80,00,00,00,
4299175485,00800006,true,Rx,0,8,C1,E5,0E,41,41,E5,AE,89,
4299175760,0090411E,true,Rx,0,8,42,36,64,F6,02,00,00,00,
4299176043,0300410E,true,Rx,0,8,B8,6B,38,2B,87,D3,FC,00,
4299176322,03800006,true,Rx,0,8,18,00,78,41,0F,62,02,79,
4299176603,19000026,true,Rx,0,8,00,FF,01,40,38,11,84,00,
4299176892,19E00006,true,Rx,0,8,00,00,18,E0,5C,00,40,00,
4299177661,0100082C,true,Rx,0,8,00,C0,A4,80,65,FA,00,00,
4299177941,0110483C,true,Rx,0,8,08,E7,22,00,44,66,FC,52,
4299180755,01C04026,true,Rx,0,8,80,00,80,00,80,00,80,00,
4299181036,02000026,true,Rx,0,8,7F,34,00,DC,4B,00,E0,AC,
4299181316,02104136,true,Rx,0,8,BB,00,3F,FF,07,E0,00,00,
4299181596,02804026,true,Rx,0,8,37,FF,73,C9,F7,63,0E,01,
4299181885,02C00020,true,Rx,0,8,00,00,00,00,00,02,75,81,
4299182167,0340412E,true,Rx,0,8,72,80,00,DD,80,00,00,00,
4299182457,19A00002,true,Rx,0,8,6E,00,00,00,00,00,00,F7,
4299185512,0300410E,true,Rx,0,8,B8,64,38,2B,87,D2,FC,00,
4299187612,0100082C,true,Rx,0,8,00,C0,A4,80,65,FA,00,00,
4299187887,0110483C,true,Rx,0,8,08,E7,22,00,44,66,FC,52,
4299191688,0340412E,true,Rx,0,8,73,80,00,CD,80,00,00,00,
4299191974,19000026,true,Rx,0,8,00,FF,01,40,38,11,84,00,
4299194784,01C04026,true,Rx,0,8,80,00,80,00,80,00,80,00,
4299195066,02000026,true,Rx,0,8,7F,34,00,DC,4B,00,E0,AC,
4299195356,02104136,true,Rx,0,8,BB,00,3F,FF,07,E0,00,00,
4299195635,00800006,true,Rx,0,8,09,E5,0E,3D,41,E5,2E,89,
4299195918,0090411E,true,Rx,0,8,02,3E,E5,3E,02,00,00,00,
4299196188,02804026,true,Rx,0,8,37,FF,74,28,F7,63,0D,FF,
4299196488,02C00020,true,Rx,0,8,00,00,00,00,00,02,75,81,
4299196758,0300410E,true,Rx,0,8,38,64,B8,2B,07,D2,6C,00,
4299197039,03800006,true,Rx,0,8,18,00,78,41,0F,62,02,79,
4299197889,0100082C,true,Rx,0,8,00,C0,A4,80,65,FA,00,00,
4299198171,0110483C,true,Rx,0,8,08,E7,A2,00,44,66,FC,52,
4299201683,0340412E,true,Rx,0,8,74,80,00,BD,80,00,00,00,
4299205514,0300410E,true,Rx,0,8,B8,5E,38,2B,87,D2,FC,00,
4299206574,19000026,true,Rx,0,8,00,FF,01,40,38,11,8C,00,
4299207653,0100082C,true,Rx,0,8,00,C0,A4,80,65,FA,00,00,
4299207932,0110483C,true,Rx,0,8,08,E7,22,00,44,66,FC,52,
4299208810,01C04026,true,Rx,0,8,80,00,80,00,80,00,80,00,
4299209092,02000026,true,Rx,0,8,7F,34,00,DC,4B,00,E0,AC,
4299209371,02104136,true,Rx,0,8,BB,00,3F,FF,07,E0,00,00,
4299209646,02804026,true,Rx,0,8,37,FF,74,88,F7,63,0D,FF,
4299209945,02C00020,true,Rx,0,8,00,00,00,00,00,02,75,81,
4299210226,19A00002,true,Rx,0,8,12,00,00,00,00,00,00,F7,
4299211763,0340412E,true,Rx,0,8,75,80,00,AD,80,00,00,00,
4299215512,00800006,true,Rx,0,8,41,E5,0E,39,41,E5,2E,8B,
4299215799,0090411E,true,Rx,0,8,02,3E,65,3E,02,00,00,00,
4299216079,0300410E,true,Rx,0,8,38,5E,38,2B,07,D2,6C,00,
4299216359,03800006,true,Rx,0,8,18,00,78,41,0F,62,02,79,
4299217608,0100082C,true,Rx,0,8,00,C0,A4,80,75,FA,00,00,
4299217889,0110483C,true,Rx,0,8,08,E7,22,00,44,66,FC,52,
4299221701,0340412E,true,Rx,0,8,76,80,00,9D,80,00,00,00,
4299221989,19000026,true,Rx,0,8,00,FF,01,40,38,11,84,00,
4299222793,01C04026,true,Rx,0,8,80,00,80,00,80,00,80,00,
4299223074,02000026,true,Rx,0,8,7F,34,00,DC,4B,00,E0,AC,
4299223363,02104136,true,Rx,0,8,BB,00,3F,FF,07,E0,00,00,
4299223633,02804026,true,Rx,0,8,37,FF,74,E7,F7,63,0D,FF,
4299223928,02C00020,true,Rx,0,8,00,00,00,00,00,02,75,81,
4299225558,0300410E,true,Rx,0,8,B8,58,B8,2C,87,D1,FC,00,
4299225847,19E00006,true,Rx,0,8,00,00,18,C0,5C,00,40,00,
4299227781,0100082C,true,Rx,0,8,00,C0,A4,80,65,FA,00,00,
4299228052,0110483C,true,Rx,0,8,08,E7,22,00,44,66,FC,52,
4299231688,0340412E,true,Rx,0,8,77,80,00,8D,80,00,00,00,
4299232510,1BA0493C,true,Rx,0,8,0E,01,01,01,02,02,01,02,
4299232791,1BE0493C,true,Rx,0,8,02,47,8B,00,33,04,19,24,
4299235552,00800006,true,Rx,0,8,89,E4,0E,31,41,E4,AE,8D,
4299235822,0090411E,true,Rx,0,8,C2,2C,E5,A1,03,00,00,00,
4299236101,0300410E,true,Rx,0,8,B8,52,38,2C,87,D1,FC,00,
4299236380,03800006,true,Rx,0,8,58,00,78,41,0F,62,02,79,
4299236671,19000026,true,Rx,0,8,00,FF,01,40,38,11,8C,00,
4299236960,01C04026,true,Rx,0,8,80,00,80,00,80,00,80,00,
4299237242,02000026,true,Rx,0,8,7F,34,00,DC,4B,00,E0,AC,
4299237521,02104136,true,Rx,0,8,BB,00,3F,FF,07,E0,00,00,
4299237811,0100082C,true,Rx,0,8,00,C0,A4,80,65,FA,00,00,
4299238091,0110483C,true,Rx,0,8,08,E7,22,00,44,66,FC,52,
4299238370,02804026,true,Rx,0,8,37,FF,75,46,F7,63,0D,FF,
4299238660,02C00020,true,Rx,0,8,00,00,00,00,00,02,75,81,
4299238951,19A00002,true,Rx,0,8,02,00,00,00,00,00,00,F7,
4299241758,0340412E,true,Rx,0,8,78,80,00,7D,80,00,00,00,
4299245546,0300410E,true,Rx,0,8,38,52,B8,2C,07,D1,6C,00,
4299247533,0100082C,true,Rx,0,8,00,C0,A4,80,65,FA,00,00,
4299247809,0110483C,true,Rx,0,8,08,E7,A2,00,44,66,FC,52,
4299250784,01C04026,true,Rx,0,8,80,00,80,00,80,00,80,00,
4299251066,02000026,true,Rx,0,8,7F,34,00,DC,4B,00,E0,AC,
4299251345,02104136,true,Rx,0,8,BB,00,3F,FF,07,E0,00,00,
4299251625,02804026,true,Rx,0,8,37,FF,75,A5,F7,63,0E,01,
4299251916,02C00020,true,Rx,0,8,00,00,00,00,00,02,75,81,
4299252207,0340412E,true,Rx,0,8,79,80,00,6D,80,00,00,00,
4299252486,19000026,true,Rx,0,8,00,FF,01,40,38,11,84,00,
4299253117,1B200002,true,Rx,0,8,00,00,00,00,00,00,0F,71,
4299255585,00800006,true,Rx,0,8,C9,E4,0E,31,41,E4,2E,8D,
4299255872,0090411E,true,Rx,0,8,02,29,E5,CB,03,00,00,00,
4299256142,0300410E,true,Rx,0,8,B8,52,38,2C,87,D1,FC,00,
4299256422,03800006,true,Rx,0,8,18,00,78,41,0F,62,02,79,
4299257722,0100082C,true,Rx,0,8,00,C0,A4,80,65,FA,00,00,
4299258004,0110483C,true,Rx,0,8,08,E7,22,00,44,66,FC,52,
4299261691,0340412E,true,Rx,0,8,7A,80,00,5D,80,00,00,00,
4299264776,01C04026,true,Rx,0,8,80,00,80,00,80,00,80,00,
4299265053,02000026,true,Rx,0,8,7F,34,00,DC,4B,00,E0,AC,
4299265343,02104136,true,Rx,0,8,BB,00,3F,FF,07,E0,00,00,
4299265622,02804026,true,Rx,0,8,37,FF,76,05,F7,63,0D,FF,
4299265913,02C00020,true,Rx,0,8,00,00,00,00,00,02,75,81,
4299266183,0300410E,true,Rx,0,8,B8,4B,38,2C,87,D0,FC,00,
4299266474,19A00002,true,Rx,0,8,12,00,00,00,00,00,00,F7,
4299266764,19000026,true,Rx,0,8,00,FF,01,40,38,11,8C,00,
4299267753,0100082C,true,Rx,0,8,00,C0,A4,80,65,FA,00,00,
4299268035,0110483C,true,Rx,0,8,08,E7,22,00,44,66,FC,52,
4299271685,0340412E,true,Rx,0,8,7B,80,00,4D,80,00,00,00,
4299275589,00800006,true,Rx,0,8,09,E4,0E,2E,41,E4,2E,8E,
4299275865,0090411E,true,Rx,0,8,02,1D,E6,18,03,00,00,00,
4299276146,0300410E,true,Rx,0,8,38,4B,B8,2C,07,D0,6C,00,
4299276426,03800006,true,Rx,0,8,18,00,78,41,0F,62,02,79,
4299276716,19E00006,true,Rx,0,8,00,00,18,E0,5C,00,40,00,
4299277678,0100082C,true,Rx,0,8,00,C0,A4,80,65,FA,00,00,
4299277958,0110483C,true,Rx,0,8,08,E7,22,00,44,66,FC,52,
4299278795,01C04026,true,Rx,0,8,80,00,80,00,80,00,80,00,
4299279075,02000026,true,Rx,0,8,7F,34,00,DC,4B,00,E0,AC,
4299279365,02104136,true,Rx,0,8,BB,00,3F,FF,07,E0,00,00,
4299279635,02804026,true,Rx,0,8,37,FF,76,64,F7,63,0D,FF,
4299279921,02C00020,true,Rx,0,8,00,00,00,00,00,02,75,81,
4299281764,0340412E,true,Rx,0,8,7C,80,00,3D,80,00,00,00,
4299282045,19000026,true,Rx,0,8,00,FF,01,40,38,11,84,00,
4299285600,0300410E,true,Rx,0,8,B8,45,38,2D,87,D0,FC,00,
4299287649,0100082C,true,Rx,0,8,00,C0,A4,80,65,FA,00,00,
4299287926,0110483C,true,Rx,0,8,08,E7,22,00,44,66,FC,52,
4299288206,1A200020,true,Rx,0,8,CF,00,AA,2D,00,00,02,2D,
4299288496,1AE0092C,true,Rx,0,8,C0,00,22,E0,41,A0,00,00,
4299288776,1B700030,true,Rx,0,8,24,88,1E,00,00,C0,03,00,
4299291758,0340412E,true,Rx,0,8,7D,80,00,2D,80,00,00,00,
4299292787,01C04026,true,Rx,0,8,80,00,80,00,80,00,80,00,
4299293068,02000026,true,Rx,0,8,7F,34,00,DC,4B,00,E0,AC,
4299293349,02104136,true,Rx,0,8,BB,00,3F,FF,07,E0,00,00,
4299293628,02804026,true,Rx,0,8,37,FF,76,C3,F7,63,0D,FF,
4299293920,02C00020,true,Rx,0,8,00,00,00,00,00,02,75,81,
4299294203,19A00002,true,Rx,0,8,6E,00,00,00,00,00,00,F7,
4299295627,00800006,true,Rx,0,8,41,E3,0E,2A,41,E3,AE,8E,
4299295896,0090411E,true,Rx,0,8,42,1D,66,18,03,00,00,00,
4299296176,0300410E,true,Rx,0,8,38,45,38,2D,07,D0,6C,00,
4299296457,03800006,true,Rx,0,8,18,00,78,41,0F,62,02,79,
4299296746,19000026,true,Rx,0,8,00,FF,01,40,38,11,8C,00,
4299297852,0100082C,true,Rx,0,8,00,C0,A4,80,65,FA,00,00,
4299298134,0110483C,true,Rx,0,8,08,E7,A2,00,44,66,FC,52,
4299301698,0340412E,true,Rx,0,8,7E,80,00,1D,80,00,00,00,
4299305612,0300410E,true,Rx,0,8,B8,40,B8,2D,87,CF,FC,00,
4299305898,1B600002,true,Rx,0,8,00,80,00,0C,00,17,4C,00,
4299306755,01C04026,true,Rx,0,8,80,00,80,00,80,00,80,00,
4299307035,02000026,true,Rx,0,8,7F,34,00,DC,4B,00,E0,AC,
4299307326,02104136,true,Rx,0,8,BB,00,3F,FF,07,E0,00,00,
4299307595,02804026,true,Rx,0,8,37,FF,77,23,F7,63,0D,FF,
4299307889,0100082C,true,Rx,0,8,00,C0,A4,80,75,FA,00,00,
4299308170,0110483C,true,Rx,0,8,08,E7,22,00,44,66,FC,52,
4299308460,02C00020,true,Rx,0,8,00,00,00,00,00,02,75,81,
4299311760,0340412E,true,Rx,0,8,7F,80,00,0D,80,00,00,00,
4299312048,19000026,true,Rx,0,8,00,FF,01,40,38,11,84,00,
4299315621,00800006,true,Rx,0,8,89,E3,0E,24,41,E3,2E,8E,
4299315896,0090411E,true,Rx,0,8,02,1A,E6,31,03,00,00,00,
4299316176,0300410E,true,Rx,0,8,B8,3B,38,2D,87,CF,FC,00,
4299316457,03800006,true,Rx,0,8,18,00,78,41,0F,62,02,79,
4299317704,0100082C,true,Rx,0,8,00,C0,A4,80,65,FA,00,00,
4299317989,0110483C,true,Rx,0,8,08,E7,22,00,44,66,FC,52,
4299320767,01C04026,true,Rx,0,8,80,00,80,00,80,00,80,00,
4299321049,02000026,true,Rx,0,8,7F,34,00,DC,4B,00,E0,AC,
4299321328,02104136,true,Rx,0,8,BB,00,3F,FF,07,E0,00,00,
4299321617,02804026,true,Rx,0,8,37,FF,77,6D,F7,63,0D,FF,
4299321900,02C00020,true,Rx,0,8,00,00,00,00,00,02,75,81,
4299322191,0340412E,true,Rx,0,8,70,80,00,FD,80,00,00,00,
4299322481,19A00002,true,Rx,0,8,12,00,00,00,00,00,00,F7,
4299325658,0300410E,true,Rx,0,8,38,3B,38,2E,07,CF,6C,00,
4299325943,19E00006,true,Rx,0,8,00,00,18,C0,5C,00,40,00,
4299326584,19000026,true,Rx,0,8,00,FF,01,40,38,11,84,00,
4299327657,0100082C,true,Rx,0,8,00,C0,A4,80,65,FA,00,00,
4299327938,0110483C,true,Rx,0,8,08,E7,22,00,44,66,FC,52,
4299331696,0340412E,true,Rx,0,8,71,80,00,ED,80,00,00,00,
4299334759,01C04026,true,Rx,0,8,80,00,80,00,80,00,80,00,
4299335037,02000026,true,Rx,0,8,7F,34,00,DC,4B,00,E0,AC,
4299335327,02104136,true,Rx,0,8,BB,00,3F,FF,07,E0,00,00,
4299335607,02804026,true,Rx,0,8,37,FF,77,9B,F7,63,0D,FF,
4299335887,00800006,true,Rx,0,8,C1,E3,0E,20,41,E3,AE,8E,
4299336167,0090411E,true,Rx,0,8,C2,1A,66,31,04,00,00,00,
4299336458,02C00020,true,Rx,0,8,00,00,00,00,00,02,75,81,
4299336737,0300410E,true,Rx,0,8,B8,36,38,2E,87,CF,FC,00,
4299337016,03800006,true,Rx,0,8,58,00,78,41,0F,62,02,79,
4299337759,0100082C,true,Rx,0,8,00,C0,A4,80,65,FA,00,00,
4299338041,0110483C,true,Rx,0,8,08,E7,22,00,44,66,FC,52,
4299338331,1B200002,true,Rx,0,8,00,00,00,00,00,00,0F,71,
4299341689,0340412E,true,Rx,0,8,72,80,00,DD,80,00,00,00,
4299341975,19000026,true,Rx,0,8,00,FF,01,40,38,11,8C,00,
4299345652,0300410E,true,Rx,0,8,B8,32,B8,2E,87,CE,FC,00,
4299347648,0100082C,true,Rx,0,8,00,C0,A4,80,65,FA,00,00,
4299347925,0110483C,true,Rx,0,8,08,E7,A2,00,44,66,FC,52,
4299348782,01C04026,true,Rx,0,8,80,00,80,00,80,00,80,00,
4299349062,02000026,true,Rx,0,8,7F,34,00,DC,4B,00,E0,AC,
4299349342,02104136,true,Rx,0,8,BB,00,3F,FF,07,E0,00,00,
4299349623,02804026,true,Rx,0,8,37,FF,77,B9,F7,63,0D,FF,
4299349918,02C00020,true,Rx,0,8,00,00,00,00,00,02,75,81,
4299350199,19A00002,true,Rx,0,8,02,00,00,00,00,00,00,F7,
4299351767,0340412E,true,Rx,0,8,73,80,00,CD,80,00,00,00,
4299355655,00800006,true,Rx,0,8,09,E3,0E,1E,41,E3,2E,8E,
4299355940,0090411E,true,Rx,0,8,02,1D,E6,67,04,00,00,00,
4299356221,0300410E,true,Rx,0,8,38,32,38,2E,07,CE,6C,00,
4299356501,03800006,true,Rx,0,8,18,00,78,41,0F,62,02,79,
4299356791,19000026,true,Rx,0,8,00,FF,01,40,38,11,84,00,
4299357658,0100082C,true,Rx,0,8,00,C0,A4,80,65,FA,00,00,
4299357933,0110483C,true,Rx,0,8,08,E7,22,00,44,66,FC,52,
4299361754,0340412E,true,Rx,0,8,74,80,00,BD,80,00,00,00,
4299362781,01C04026,true,Rx,0,8,80,00,80,00,80,00,80,00,
4299363051,02000026,true,Rx,0,8,7F,34,00,DC,4B,00,E0,AC,
4299363342,02104136,true,Rx,0,8,BB,00,3F,FF,07,E0,00,00,
4299363622,02804026,true,Rx,0,8,37,FF,77,CB,F7,63,0D,FF,
4299363914,02C00020,true,Rx,0,8,00,00,00,00,00,02,75,81,
4299365689,0300410E,true,Rx,0,8,B8,32,B8,2E,87,CE,FC,00,
4299367677,0100082C,true,Rx,0,8,00,C0,A4,80,65,FA,00,00,
4299367953,0110483C,true,Rx,0,8,08,E7,22,00,44,66,FC,52,
4299371702,0340412E,true,Rx,0,8,75,80,00,AD,80,00,00,00,
4299371989,19000026,true,Rx,0,8,00,FF,01,40,38,11,8C,00,
4299375676,00800006,true,Rx,0,8,49,E3,0E,1E,41,E3,2E,8E,
4299375961,0090411E,true,Rx,0,8,02,09,E6,80,04,00,00,00,
4299376244,0300410E,true,Rx,0,8,38,32,38,2E,07,CE,6C,00,
4299376523,03800006,true,Rx,0,8,18,00,78,41,0F,62,02,79,
4299376813,01C04026,true,Rx,0,8,80,00,80,00,80,00,80,00,
4299377095,02000026,true,Rx,0,8,7F,34,00,DC,4B,00,E0,AC,
4299377385,02104136,true,Rx,0,8,BB,00,3F,FF,07,E0,00,00,
4299377664,02804026,true,Rx,0,8,37,FF,77,D7,F7,63,0D,FF,
4299377953,0100082C,true,Rx,0,8,00,C0,A4,80,65,FA,00,00,
4299378234,0110483C,true,Rx,0,8,08,E7,22,00,44,66,FC,52,
4299378524,02C00020,true,Rx,0,8,00,00,00,00,00,02,75,81,
4299378814,19A00002,true,Rx,0,8,12,00,00,00,00,00,00,F7,
4299379095,19E00006,true,Rx,0,8,00,00,18,E0,5C,00,40,00,
4299381759,0340412E,true,Rx,0,8,76,80,00,9D,80,00,00,00,
4299385693,0300410E,true,Rx,0,8,B8,2D,38,2F,87,CE,FC,00,
4299386577,19000026,true,Rx,0,8,00,FF,01,40,38,11,84,00,
4299387578,0100082C,true,Rx,0,8,00,C0,A4,80,65,FA,00,00,
4299387857,0110483C,true,Rx,0,8,08,E7,22,00,44,66,FC,52,
4299390780,01C04026,true,Rx,0,8,80,00,80,00,80,00,80,00,
4299391062,02000026,true,Rx,0,8,7F,34,00,DC,4B,00,E0,AC,
4299391341,02104136,true,Rx,0,8,BB,00,3F,FF,07,E0,00,00,
4299391622,02804026,true,Rx,0,8,37,FF,77,DF,F7,63,0D,FF,
4299391913,02C00020,true,Rx,0,8,00,00,00,00,00,02,75,81,
4299392194,0340412E,true,Rx,0,8,77,80,00,8D,80,00,00,00,
4299395738,00800006,true,Rx,0,8,89,E2,0E,19,41,E2,AE,8E,
4299396025,0090411E,true,Rx,0,8,42,07,E6,86,04,00,00,00,
4299396305,0300410E,true,Rx,0,8,B8,29,B8,2F,87,CE,FC,00,
4299396584,03800006,true,Rx,0,8,18,00,78,41,0F,62,02,79,
4299397761,0100082C,true,Rx,0,8,00,C0,A4,80,75,FA,00,00,
4299398044,0110483C,true,Rx,0,8,08,E7,A2,00,44,66,FC,52,
4299401699,0340412E,true,Rx,0,8,78,80,00,7D,80,00,00,00,
4299401985,19000026,true,Rx,0,8,00,FF,01,40,38,11,84,00,
4299404765,01C04026,true,Rx,0,8,80,00,80,00,80,00,80,00,
4299405046,02000026,true,Rx,0,8,7F,34,00,DC,4B,00,E0,AC,
4299405325,02104136,true,Rx,0,8,BB,00,3F,FF,07,E0,00,00,
4299405606,02804026,true,Rx,0,8,37,FF,77,E4,F7,63,0D,FF,
4299405898,02C00020,true,Rx,0,8,00,00,00,00,00,02,75,81,
4299406168,0300410E,true,Rx,0,8,38,29,38,2F,07,CE,6C,00,
4299406459,19A00002,true,Rx,0,8,6E,00,00,00,00,00,00,F7,
4299407810,0100082C,true,Rx,0,8,00,C0,A4,80,65,FA,00,00,
4299408093,0110483C,true,Rx,0,8,08,E7,22,00,44,66,FC,52,
4299411697,0340412E,true,Rx,0,8,79,80,00,6D,80,00,00,00,
4299415723,00800006,true,Rx,0,8,C1,E2,0E,17,41,E2,2E,8E,
4299416010,0090411E,true,Rx,0,8,02,07,66,86,04,00,00,00,
4299416290,0300410E,true,Rx,0,8,B8,25,38,2F,87,CE,FC,00,
4299416569,03800006,true,Rx,0,8,18,00,78,41,0F,62,02,79,
4299416849,19000026,true,Rx,0,8,00,FF,01,40,38,11,8C,00,
4299417654,0100082C,true,Rx,0,8,00,C0,A4,80,65,FA,00,00,
4299417939,0110483C,true,Rx,0,8,08,E7,22,00,44,66,FC,52,
4299418797,01C04026,true,Rx,0,8,80,00,80,00,80,00,80,00,
4299419077,02000026,true,Rx,0,8,7F,34,00,DC,4B,00,E0,AC,
4299419368,02104136,true,Rx,0,8,BB,00,3F,FF,07,E0,00,00,
4299419647,02804026,true,Rx,0,8,37,FF,77,E7,F7,63,0D,FF,
4299419941,02C00020,true,Rx,0,8,00,00,00,00,00,02,75,81,
4299421768,0340412E,true,Rx,0,8,7A,80,00,5D,80,00,00,00,
4299423027,1B200002,true,Rx,0,8,00,00,00,00,00,00,0F,71,
4299425724,0300410E,true,Rx,0,8,38,25,38,2F,07,CE,6C,00,
4299426022,19E00006,true,Rx,0,8,00,00,18,C0,5C,00,40,00,
4299427600,0100082C,true,Rx,0,8,00,C0,A4,80,65,FA,00,00,
4299427878,0110483C,true,Rx,0,8,08,E7,22,00,44,66,FC,52,
4299431761,0340412E,true,Rx,0,8,7B,80,00,4D,80,00,00,00,
4299432037,19000026,true,Rx,0,8,00,FF,01,40,38,11,84,00,
4299432770,01C04026,true,Rx,0,8,80,00,80,00,80,00,80,00,
4299433050,02000026,true,Rx,0,8,7F,34,00,DC,4B,00,E0,AC,
4299433341,02104136,true,Rx,0,8,BB,00,3F,FF,07,E0,00,00,
4299433620,02804026,true,Rx,0,8,37,FF,77,E9,F7,63,0D,FF,
4299433905,02C00020,true,Rx,0,8,00,00,00,00,00,02,75,81,
4299434197,19A00002,true,Rx,0,8,12,00,00,00,00,00,00,F7,
4299435775,00800006,true,Rx,0,8,09,E2,0E,14,41,E2,AE,8E,
4299436055,0090411E,true,Rx,0,8,C1,F9,E6,8D,05,00,00,00,
4299436326,0300410E,true,Rx,0,8,B8,21,B8,30,87,CD,FC,00,
4299436605,03800006,true,Rx,0,8,58,00,78,41,0F,62,02,79,
4299437927,0100082C,true,Rx,0,8,00,C0,A4,80,65,FA,00,00,
4299438197,0110483C,true,Rx,0,8,08,E7,22,00,44,66,FC,52,
4299441700,0340412E,true,Rx,0,8,7C,80,00,3D,80,00,00,00,
4299445747,0300410E,true,Rx,0,8,B8,1D,38,30,87,CD,FC,00,
4299446590,19000026,true,Rx,0,8,00,FF,01,40,38,11,8C,00,
4299446879,01C04026,true,Rx,0,8,80,00,80,00,80,00,80,00,
4299447161,02000026,true,Rx,0,8,7F,34,00,DC,4B,00,E0,AC,
4299447440,02104136,true,Rx,0,8,BB,00,3F,FF,07,E0,00,00,
4299447731,0100082C,true,Rx,0,8,00,C0,A4,80,65,FA,00,00,
4299448006,0110483C,true,Rx,0,8,08,E7,A2,00,44,66,FC,52,
4299448296,02804026,true,Rx,0,8,37,FF,77,E9,F7,63,0D,FF,
4299448576,02C00020,true,Rx,0,8,00,00,00,00,00,02,75,81,
4299451772,0340412E,true,Rx,0,8,7D,80,00,2D,80,00,00,00,
4299455758,00800006,true,Rx,0,8,41,E2,0E,12,41,E2,2E,8E,
4299456045,0090411E,true,Rx,0,8,01,F9,66,8D,05,00,00,00,
4299456325,0300410E,true,Rx,0,8,38,1D,38,30,07,CD,6C,00,
4299456605,03800006,true,Rx,0,8,18,00,78,41,0F,62,02,79,
4299457616,0100082C,true,Rx,0,8,00,C0,A4,80,65,FA,00,00,
4299457899,0110483C,true,Rx,0,8,08,E7,22,00,44,66,FC,52,
4299460762,01C04026,true,Rx,0,8,80,00,80,00,80,00,80,00,
4299461042,02000026,true,Rx,0,8,7F,34,00,DC,4B,00,E0,AC,
4299461332,02104136,true,Rx,0,8,BB,00,3F,FF,07,E0,00,00,
4299461612,02804026,true,Rx,0,8,37,FF,77,EB,F7,63,0D,FF,
4299461904,02C00020,true,Rx,0,8,00,00,00,00,00,02,75,81,
4299462185,0340412E,true,Rx,0,8,7E,80,00,1D,80,00,00,00,
4299462466,19000026,true,Rx,0,8,00,FF,01,40,38,11,84,00,
4299462755,19A00002,true,Rx,0,8,02,00,00,00,00,00,00,F7,
4299465799,0300410E,true,Rx,0,8,B8,1A,B8,30,87,CD,FC,00,
4299467683,0100082C,true,Rx,0,8,00,C0,A4,80,65,FA,00,00,
4299467969,0110483C,true,Rx,0,8,08,E7,22,00,44,66,FC,52,
4299471707,0340412E,true,Rx,0,8,7F,80,00,0D,80,00,00,00,
4299474791,01C04026,true,Rx,0,8,80,00,80,00,80,00,80,00,
4299475067,02000026,true,Rx,0,8,7F,34,00,DC,4B,00,E0,AC,
4299475358,02104136,true,Rx,0,8,BB,00,3F,FF,07,E0,00,00,
4299475637,02804026,true,Rx,0,8,37,FF,77,EC,F7,63,0D,FF,
4299475916,00800006,true,Rx,0,8,89,E2,0E,0E,41,E2,AE,8E,
4299476198,0090411E,true,Rx,0,8,41,E6,E6,66,05,00,00,00,
4299476488,02C00020,true,Rx,0,8,00,00,00,00,00,02,75,81,
4299476767,0300410E,true,Rx,0,8,B8,17,38,31,87,CD,FC,00,
4299477047,03800006,true,Rx,0,8,18,00,78,41,0F,62,02,79,
4299477337,19000026,true,Rx,0,8,00,FF,01,40,38,11,8C,00,
4299477616,19E00006,true,Rx,0,8,00,00,18,E0,5C,00,40,00,
4299477907,0100082C,true,Rx,0,8,00,C0,A4,80,65,FA,00,00,
4299478188,0110483C,true,Rx,0,8,08,E7,22,00,44,66,FC,52,
4299478478,1B600002,true,Rx,0,8,00,80,00,0C,00,17,4C,00,
4299481696,0340412E,true,Rx,0,8,70,80,00,FD,80,00,00,00,
4299482806,1BA0493C,true,Rx,0,8,0F,01,01,01,01,01,00,00,
4299485792,0300410E,true,Rx,0,8,38,17,B8,31,07,CD,6C,00,
4299487635,0100082C,true,Rx,0,8,00,C0,A4,80,65,FA,00,00,
4299487911,0110483C,true,Rx,0,8,08,E7,22,00,44,66,FC,52,
4299488799,01C04026,true,Rx,0,8,80,00,80,00,80,00,80,00,
4299489079,02000026,true,Rx,0,8,7F,34,00,DC,4B,00,E0,AC,
4299489370,02104136,true,Rx,0,8,BB,00,3F,FF,07,E0,00,00,
4299489649,02804026,true,Rx,0,8,37,FF,77,EC,F7,63,0D,FF,
4299489934,02C00020,true,Rx,0,8,00,00,00,00,00,02,75,81,
4299490225,19A00002,true,Rx,0,8,12,00,00,00,00,00,00,F7,
4299491772,0340412E,true,Rx,0,8,71,80,00,ED,80,00,00,00,
4299492053,19000026,true,Rx,0,8,00,FF,01,40,38,11,84,00,
4299495801,00800006,true,Rx,0,8,C9,E2,0E,0E,41,E2,2E,8E,
4299496089,0090411E,true,Rx,0,8,01,F3,E6,5A,05,00,00,00,
4299496368,0300410E,true,Rx,0,8,B8,16,38,31,87,CD,FC,00,
4299496647,03800006,true,Rx,0,8,18,00,78,41,0F,62,02,79,
4299497773,0100082C,true,Rx,0,8,00,C0,A4,80,65,FA,00,00,
4299498056,0110483C,true,Rx,0,8,08,E7,A2,00,44,66,FC,52,
4299498346,1B700030,true,Rx,0,8,34,88,1E,00,00,C0,03,00,
4299501715,0340412E,true,Rx,0,8,72,80,00,DD,80,00,00,00,
4299502836,01C04026,true,Rx,0,8,80,00,80,00,80,00,80,00,
4299503118,02000026,true,Rx,0,8,7F,34,00,DC,4B,00,E0,AC,
4299503397,02104136,true,Rx,0,8,BB,00,3F,FF,07,E0,00,00,
4299503676,02804026,true,Rx,0,8,37,FF,77,ED,F7,63,0D,FF,
4299503969,02C00020,true,Rx,0,8,00,00,00,00,00,02,75,81,
4299505836,0300410E,true,Rx,0,8,B8,13,38,31,87,CD,FC,00,
4299506589,19000026,true,Rx,0,8,00,FF,01,40,38,11,8C,00,
4299507786,0100082C,true,Rx,0,8,00,C0,A4,80,65,FA,00,00,
4299508065,0110483C,true,Rx,0,8,08,E7,22,00,44,66,FC,52,
4299508355,1B200002,true,Rx,0,8,00,00,00,00,00,00,0F,71,
4299511704,0340412E,true,Rx,0,8,73,80,00,CD,80,00,00,00,
4299516052,00800006,true,Rx,0,8,01,E2,0E,0C,41,E2,2E,8E,
4299516338,0090411E,true,Rx,0,8,01,F3,66,5A,05,00,00,00,
4299516617,0300410E,true,Rx,0,8,38,13,38,31,07,CD,6C,00,
4299516908,01C04026,true,Rx,0,8,80,00,80,00,80,00,80,00,
4299517188,02000026,true,Rx,0,8,7F,34,00,DC,4B,00,E0,AC,
4299517478,02104136,true,Rx,0,8,BB,00,3F,FF,07,E0,00,00,
4299517769,0100082C,true,Rx,0,8,00,C0,A4,80,65,FA,00,00,
4299518049,0110483C,true,Rx,0,8,08,E7,22,00,44,66,FC,52,
4299518328,02804026,true,Rx,0,8,37,FF,77,EB,F7,63,0D,FF,
4299518618,02C00020,true,Rx,0,8,00,00,00,00,00,02,75,81,
4299518897,03800006,true,Rx,0,8,18,00,78,41,0F,62,02,79,
4299519179,19A00002,true,Rx,0,8,6E,00,00,00,00,00,00,F7,
4299521769,0340412E,true,Rx,0,8,74,80,00,BD,80,00,00,00,
4299522049,19000026,true,Rx,0,8,00,FF,01,40,38,11,84,00,
4299525830,0300410E,true,Rx,0,8,B8,11,B8,31,87,CD,FC,00,
4299526118,19E00006,true,Rx,0,8,00,00,18,C0,5C,00,40,00,
4299527676,0100082C,true,Rx,0,8,00,C0,A4,80,65,FA,00,00,
4299527953,0110483C,true,Rx,0,8,08,E7,22,00,44,66,FC,52,
4299530795,01C04026,true,Rx,0,8,80,00,80,00,80,00,80,00,
4299531076,02000026,true,Rx,0,8,7F,34,00,DC,4B,00,E0,AC,
4299531355,02104136,true,Rx,0,8,BB,00,3F,FF,07,E0,00,00,
4299531636,02804026,true,Rx,0,8,37,FF,77,EA,F7,63,0D,FF,
4299531928,02C00020,true,Rx,0,8,00,00,00,00,00,02,75,81,
4299532210,0340412E,true,Rx,0,8,75,80,00,AD,80,00,00,00,
4299535866,00800006,true,Rx,0,8,49,E2,0E,0A,41,E2,AE,8E,
4299536143,0090411E,true,Rx,0,8,C1,ED,E6,41,05,00,00,00,
4299536422,0300410E,true,Rx,0,8,38,11,38,31,07,CD,6C,00,
4299536702,03800006,true,Rx,0,8,58,00,78,41,0F,62,02,79,
4299536982,19000026,true,Rx,0,8,00,FF,01,40,38,11,84,00,
4299537706,0100082C,true,Rx,0,8,00,C0,A4,80,75,FA,00,00,
4299537979,0110483C,true,Rx,0,8,08,E7,22,00,44,66,FC,52,
4299541708,0340412E,true,Rx,0,8,76,80,00,9D,80,00,00,00,
4299544770,01C04026,true,Rx,0,8,80,00,80,00,80,00,80,00,
4299545048,02000026,true,Rx,0,8,7F,34,00,DC,4B,00,E0,AC,
4299545338,02104136,true,Rx,0,8,BB,00,3F,FF,07,E0,00,00,
4299545618,02804026,true,Rx,0,8,37,FF,77,E9,F7,63,0D,FF,
4299545907,02C00020,true,Rx,0,8,00,00,00,00,00,02,75,81,
4299546179,0300410E,true,Rx,0,8,B8,0D,38,31,87,CD,FC,00,
4299546468,19A00002,true,Rx,0,8,12,00,00,00,00,00,00,F7,
4299547765,0100082C,true,Rx,0,8,00,C0,A4,80,65,FA,00,00,
4299548035,0110483C,true,Rx,0,8,08,E7,A2,00,44,66,FC,52,
4299551697,0340412E,true,Rx,0,8,77,80,00,8D,80,00,00,00,
4299551983,19000026,true,Rx,0,8,00,FF,01,40,38,11,8C,00,
4299555867,00800006,true,Rx,0,8,89,E2,0E,07,41,E2,2E,8E,
4299556144,0090411E,true,Rx,0,8,01,EE,E6,18,05,00,00,00,
4299556424,0300410E,true,Rx,0,8,B8,0B,B8,31,87,CD,FC,00,
4299556703,03800006,true,Rx,0,8,18,00,78,41,0F,62,02,79,
4299557746,0100082C,true,Rx,0,8,00,C0,A4,80,65,FA,00,00,
4299558029,0110483C,true,Rx,0,8,08,E7,22,00,44,66,FC,52,
4299558803,01C04026,true,Rx,0,8,80,00,80,00,80,00,80,00,
4299559074,02000026,true,Rx,0,8,7F,34,00,DC,4B,00,E0,AC,
4299559364,02104136,true,Rx,0,8,BB,00,3F,FF,07,E0,00,00,
4299559643,02804026,true,Rx,0,8,37,FF,77,EA,F7,63,0D,FF,
4299559949,02C00020,true,Rx,0,8,00,00,00,00,00,02,75,81,
4299561774,0340412E,true,Rx,0,8,78,80,00,7D,80,00,00,00,
4299565865,0300410E,true,Rx,0,8,38,0B,38,31,07,CD,6C,00,
4299566585,19000026,true,Rx,0,8,00,FF,01,40,38,11,84,00,
4299567690,0100082C,true,Rx,0,8,00,C0,A4,80,65,FA,00,00,
4299567977,0110483C,true,Rx,0,8,08,E7,22,00,44,66,FC,52,
4299571707,0340412E,true,Rx,0,8,79,80,00,6D,80,00,00,00,
4299572776,01C04026,true,Rx,0,8,80,00,80,00,80,00,80,00,
4299573047,02000026,true,Rx,0,8,7F,34,00,DC,4B,00,E0,AC,
4299573337,02104136,true,Rx,0,8,BB,00,3F,FF,07,E0,00,00,
4299573616,02804026,true,Rx,0,8,37,FF,77,EB,F7,63,0D,FF,
4299573907,02C00020,true,Rx,0,8,00,00,00,00,00,02,75,81,
4299574192,19A00002,true,Rx,0,8,02,00,00,00,00,00,00,F7,
4299575903,00800006,true,Rx,0,8,C1,E2,0E,06,41,E2,2E,8E,
4299576193,0090411E,true,Rx,0,8,01,EE,66,18,05,00,00,00,
4299576473,0300410E,true,Rx,0,8,B8,0A,38,31,87,CD,FC,00,
4299576753,03800006,true,Rx,0,8,18,00,78,41,0F,62,02,79,
4299577034,19E00006,true,Rx,0,8,00,00,18,E0,5C,00,40,00,
4299577910,0100082C,true,Rx,0,8,00,C0,A4,80,65,FA,00,00,
4299578185,0110483C,true,Rx,0,8,08,E7,22,00,44,66,FC,52,
4299581697,0340412E,true,Rx,0,8,7A,80,00,5D,80,00,00,00,
4299581988,19000026,true,Rx,0,8,00,FF,01,40,38,11,8C,00,
4299585966,0300410E,true,Rx,0,8,B8,09,B8,32,87,CD,FC,00,
4299586768,01C04026,true,Rx,0,8,80,00,80,00,80,00,80,00,
4299587048,02000026,true,Rx,0,8,7F,34,00,DC,4B,00,E0,AC,
4299587338,02104136,true,Rx,0,8,BB,00,3F,FF,07,E0,00,00,
4299587608,02804026,true,Rx,0,8,37,FF,77,EA,F7,63,0D,FF,
4299587898,0100082C,true,Rx,0,8,00,C0,A4,80,65,FA,00,00,
4299588183,0110483C,true,Rx,0,8,08,E7,22,00,44,66,FC,52,
4299588473,02C00020,true,Rx,0,8,00,00,00,00,00,02,75,81,
4299591760,0340412E,true,Rx,0,8,7B,80,00,4D,80,00,00,00,
4299593088,1B200002,true,Rx,0,8,00,00,00,00,00,00,0F,71,
4299595899,00800006,true,Rx,0,8,09,E2,0E,06,41,E2,AE,8E,
4299596185,0090411E,true,Rx,0,8,41,E6,E5,FF,05,00,00,00,
4299596465,0300410E,true,Rx,0,8,38,09,38,32,07,CD,6C,00,
4299596745,03800006,true,Rx,0,8,18,00,78,41,0F,62,02,79,
4299597026,19000026,true,Rx,0,8,00,FF,01,40,38,11,84,00,
4299597779,0100082C,true,Rx,0,8,00,C0,A4,80,65,FA,00,00,
4299598060,0110483C,true,Rx,0,8,08,E7,A2,00,44,66,FC,52,
4299600752,01C04026,true,Rx,0,8,80,00,80,00,80,00,80,00,
4299601039,02000026,true,Rx,0,8,7F,34,00,DC,4B,00,E0,AC,
4299601319,02104136,true,Rx,0,8,BB,00,3F,FF,07,E0,00,00,
4299601598,02804026,true,Rx,0,8,37,FF,77,E9,F7,63,0D,FF,
4299601888,02C00020,true,Rx,0,8,00,00,00,00,00,02,75,81,
4299602180,0340412E,true,Rx,0,8,7C,80,00,3D,80,00,00,00,
4299602470,19A00002,true,Rx,0,8,12,00,00,00,00,00,00,F7,
4299602849,1A200020,true,Rx,0,8,0F,00,AA,2D,00,00,02,2D,
4299605939,0300410E,true,Rx,0,8,B8,08,38,32,87,CD,FC,00,
4299607596,0100082C,true,Rx,0,8,00,C0,A4,80,65,FA,00,00,
4299607885,0110483C,true,Rx,0,8,08,E7,22,00,44,66,FC,52,
4299611703,0340412E,true,Rx,0,8,7D,80,00,2D,80,00,00,00,
4299611989,19000026,true,Rx,0,8,00,FF,01,40,38,11,84,00,
4299614769,01C04026,true,Rx,0,8,80,00,80,00,80,00,80,00,
4299615049,02000026,true,Rx,0,8,7F,34,00,DC,4B,00,E0,AC,
4299615340,02104136,true,Rx,0,8,BB,00,3F,FF,07,E0,00,00,
4299615619,02804026,true,Rx,0,8,37,FF,77,E9,F7,63,0D,FF,
4299615912,02C00020,true,Rx,0,8,00,00,00,00,00,02,75,81,
4299616193,00800006,true,Rx,0,8,49,E2,0E,05,41,E2,2E,8E,
4299616472,0090411E,true,Rx,0,8,01,E6,E5,D0,05,00,00,00,
4299616753,0300410E,true,Rx,0,8,38,08,B8,32,07,CD,6C,00,
4299617033,03800006,true,Rx,0,8,18,00,78,41,0F,62,02,79,
4299617791,0100082C,true,Rx,0,8,00,C0,A4,80,65,FA,00,00,
4299618072,0110483C,true,Rx,0,8,08,E7,22,00,44,66,FC,52,
4299621698,0340412E,true,Rx,0,8,7E,80,00,1D,80,00,00,00,
4299625923,0300410E,true,Rx,0,8,B8,06,38,32,87,CD,FC,00,
4299626209,19E00006,true,Rx,0,8,00,00,18,C0,5C,00,40,00,
4299626581,19000026,true,Rx,0,8,00,FF,01,40,38,11,8C,00,
4299627624,0100082C,true,Rx,0,8,00,C0,A4,80,75,FA,00,00,
4299627904,0110483C,true,Rx,0,8,08,E7,22,00,44,66,FC,52,
4299628774,01C04026,true,Rx,0,8,80,00,80,00,80,00,80,00,
4299629055,02000026,true,Rx,0,8,7F,34,00,DC,4B,00,E0,AC,
4299629335,02104136,true,Rx,0,8,BB,00,3F,FF,07,E0,00,00,
4299629614,02804026,true,Rx,0,8,37,FF,77,E9,F7,63,0D,FF,
4299629905,02C00020,true,Rx,0,8,00,00,00,00,00,02,75,81,
4299630190,19A00002,true,Rx,0,8,6E,00,00,00,00,00,00,F7,
4299631778,0340412E,true,Rx,0,8,7F,80,00,0D,80,00,00,00,
4299635932,00800006,true,Rx,0,8,81,E2,0E,03,41,E2,AE,8D,
4299636219,0090411E,true,Rx,0,8,C1,E6,65,D0,05,00,00,00,
4299636498,0300410E,true,Rx,0,8,B8,05,38,32,87,CD,FC,00,
4299636779,03800006,true,Rx,0,8,58,00,78,41,0F,62,02,79,
4299637698,0100082C,true,Rx,0,8,00,C0,A4,80,65,FA,00,00,
4299637991,0110483C,true,Rx,0,8,08,E7,22,00,44,66,FC,52,
4299641718,0340412E,true,Rx,0,8,70,80,00,FD,80,00,00,00,
4299641999,19000026,true,Rx,0,8,00,FF,01,40,38,11,84,00,
4299642782,01C04026,true,Rx,0,8,80,00,80,00,80,00,80,00,
4299643062,02000026,true,Rx,0,8,7F,34,00,DC,4B,00,E0,AC,
4299643352,02104136,true,Rx,0,8,BB,00,3F,FF,07,E0,00,00,
4299643622,02804026,true,Rx,0,8,37,FF,77,E9,F7,63,0D,FF,
4299643922,02C00020,true,Rx,0,8,00,00,00,00,00,02,75,81,
4299645979,0300410E,true,Rx,0,8,38,05,B8,32,07,CD,6C,00,
4299646266,1B600002,true,Rx,0,8,00,80,00,0C,00,17,4C,00,
4299647874,0100082C,true,Rx,0,8,00,C0,A4,80,65,FA,00,00,
4299648144,0110483C,true,Rx,0,8,08,E7,A2,00,44,66,FC,52,
4299651707,0340412E,true,Rx,0,8,71,80,00,ED,80,00,00,00,
4299656044,00800006,true,Rx,0,8,C9,E2,0E,03,41,E2,2E,8C,
4299656330,0090411E,true,Rx,0,8,01,F0,E5,C0,05,00,00,00,
4299656611,0300410E,true,Rx,0,8,B8,04,38,32,87,CD,FC,00,
4299656900,01C04026,true,Rx,0,8,80,00,80,00,80,00,80,00,
4299657181,02000026,true,Rx,0,8,7F,34,00,DC,4B,00,E0,AC,
4299657472,02104136,true,Rx,0,8,BB,00,3F,FF,07,E0,00,00,
4299657761,0100082C,true,Rx,0,8,00,C0,A4,80,65,FA,00,00,
4299658043,0110483C,true,Rx,0,8,08,E7,22,00,44,66,FC,52,
4299658322,02804026,true,Rx,0,8,37,FF,77,E9,F7,63,0D,FF,
4299658611,02C00020,true,Rx,0,8,00,00,00,00,00,02,75,81,
4299658892,03800006,true,Rx,0,8,18,00,78,41,0F,62,02,79,
4299659172,19000026,true,Rx,0,8,00,FF,01,40,38,11,8C,00,
4299659462,19A00002,true,Rx,0,8,12,00,00,00,00,00,00,F7,
4299661766,0340412E,true,Rx,0,8,72,80,00,DD,80,00,00,00,
4299666331,0300410E,true,Rx,0,8,B8,04,38,32,87,CD,FC,00,
4299667596,0100082C,true,Rx,0,8,00,C0,A4,80,65,FA,00,00,
4299667875,0110483C,true,Rx,0,8,08,E7,22,00,44,66,FC,52,
4299670753,01C04026,true,Rx,0,8,80,00,80,00,80,00,80,00,
4299671039,02000026,true,Rx,0,8,7F,34,00,DC,4B,00,E0,AC,
4299671320,02104136,true,Rx,0,8,BB,00,3F,FF,07,E0,00,00,
4299671599,02804026,true,Rx,0,8,37,FF,77,E9,F7,63,0D,FF,
4299671889,02C00020,true,Rx,0,8,00,00,00,00,00,02,75,81,
4299672171,0340412E,true,Rx,0,8,73,80,00,CD,80,00,00,00,
4299672460,19000026,true,Rx,0,8,00,FF,01,40,38,11,84,00,
4299676011,00800006,true,Rx,0,8,09,E2,0E,03,41,E2,AE,8C,
4299676296,0090411E,true,Rx,0,8,41,EB,E5,92,05,00,00,00,
4299676577,0300410E,true,Rx,0,8,38,04,B8,32,07,CD,6C,00,
4299676856,03800006,true,Rx,0,8,18,00,78,41,0F,62,02,79,
4299677137,19E00006,true,Rx,0,8,00,00,18,E0,5C,00,40,00,
4299677787,0100082C,true,Rx,0,8,00,C0,A4,80,65,FA,00,00,
4299678074,0110483C,true,Rx,0,8,08,E7,22,00,44,66,FC,52,
4299678353,1B200002,true,Rx,0,8,00,00,00,00,00,00,0F,71,
4299681702,0340412E,true,Rx,0,8,74,80,00,BD,80,00,00,00,
4299684753,01C04026,true,Rx,0,8,80,00,80,00,80,00,80,00,
4299685031,02000026,true,Rx,0,8,7F,34,00,DC,4B,00,E0,AC,
4299685320,02104136,true,Rx,0,8,BB,00,3F,FF,07,E0,00,00,
4299685600,02804026,true,Rx,0,8,B7,FF,77,E9,F7,63,3D,FF,
4299685890,02C00020,true,Rx,0,8,00,00,00,00,00,02,75,81,
4299686161,0300410E,true,Rx,0,8,B8,02,38,32,87,CD,FC,00,
4299686450,19A00002,true,Rx,0,8,02,00,00,00,00,00,00,F7,
4299686741,19000026,true,Rx,0,8,00,FF,01,40,38,11,8C,00,
4299687730,0100082C,true,Rx,0,8,00,C0,A4,80,65,FA,00,00,
4299688011,0110483C,true,Rx,0,8,08,E7,22,00,44,66,FC,52,
4299691705,0340412E,true,Rx,0,8,75,80,00,AD,80,00,00,00,
4299696005,00800006,true,Rx,0,8,41,E2,0E,02,41,E2,2E,8C,
4299696290,0090411E,true,Rx,0,8,01,EB,65,92,05,00,00,00,
4299696571,0300410E,true,Rx,0,8,38,02,38,32,07,CD,6C,00,
4299696850,03800006,true,Rx,0,8,18,00,78,41,0F,62,02,79,
4299697666,0100082C,true,Rx,0,8,00,C0,A4,80,65,FA,00,00,
4299697945,0110483C,true,Rx,0,8,08,E7,A2,00,44,66,FC,52,
4299698818,01C04026,true,Rx,0,8,80,00,80,00,80,00,80,00,
4299699099,02000026,true,Rx,0,8,7F,34,00,DC,4B,00,E0,AC,
4299699388,02104136,true,Rx,0,8,BB,00,3F,FF,07,E0,00,00,
4299699669,02804026,true,Rx,0,8,B7,FF,77,E9,F7,63,3D,FF,
4299699958,02C00020,true,Rx,0,8,00,00,00,00,00,02,75,81,
4299701768,0340412E,true,Rx,0,8,76,80,00,9D,80,00,00,00,
4299702060,19000026,true,Rx,0,8,00,FF,01,40,38,11,84,00,
4299706007,0300410E,true,Rx,0,8,B8,02,B8,32,87,CE,FC,00,
4299707662,0100082C,true,Rx,0,8,00,C0,A4,80,65,FA,00,00,
4299707941,0110483C,true,Rx,0,8,08,E7,22,00,44,66,FC,52,
4299708232,1AE0092C,true,Rx,0,8,00,00,22,E0,41,A0,00,00,
4299708511,1B700030,true,Rx,0,8,25,88,1E,00,00,C0,03,00,
4299711766,0340412E,true,Rx,0,8,77,80,00,8D,80,00,00,00,
4299712836,01C04026,true,Rx,0,8,80,00,80,00,80,00,80,00,
4299713117,02000026,true,Rx,0,8,7F,34,00,DC,4B,00,E0,AC,
4299713397,02104136,true,Rx,0,8,BB,00,3F,FF,07,E0,00,00,
4299713677,02804026,true,Rx,0,8,B7,FF,77,EA,F7,63,3D,FF,
4299713966,02C00020,true,Rx,0,8,00,00,00,00,00,02,75,81,
4299714263,19A00002,true,Rx,0,8,12,00,00,00,00,00,00,F7,
4299716037,00800006,true,Rx,0,8,89,E2,0E,01,41,E2,2E,8B,
4299716325,0090411E,true,Rx,0,8,01,EC,E5,7E,05,00,00,00,
4299716606,0300410E,true,Rx,0,8,B8,01,38,32,87,CE,FC,00,
4299716885,03800006,true,Rx,0,8,18,00,78,41,0F,62,02,79,
4299717176,19000026,true,Rx,0,8,00,FF,01,40,38,11,8C,00,
4299717868,0100082C,true,Rx,0,8,00,C0,A4,80,75,FA,00,00,
4299718144,0110483C,true,Rx,0,8,08,E7,22,00,44,66,FC,52,
4299721707,0340412E,true,Rx,0,8,78,80,00,7D,80,00,00,00,
4299726044,0300410E,true,Rx,0,8,38,01,B8,32,07,CE,6C,00,
