Time Stamp,ID,Extended,Dir,Bus,LEN,D1,D2,D3,D4,D5,D6,D7,D8
4418277,0100082C,true,Rx,0,8,00,C0,AF,5E,62,09,00,96,
4418563,1A200020,true,Rx,0,8,EC,00,02,2D,00,00,02,2C,
4418854,1AE0092C,true,Rx,0,8,60,00,22,20,01,A0,00,00,
4419135,1B700030,true,Rx,0,8,2C,86,1E,00,00,00,03,00,
4428384,0100082C,true,Rx,0,8,00,C0,AF,5E,62,09,00,96,
4428670,0110483C,true,Rx,0,8,08,E4,22,08,44,66,FC,54,
4438348,0100082C,true,Rx,0,8,00,C0,AF,5E,62,09,00,96,
4438623,0110483C,true,Rx,0,8,08,E4,22,00,44,66,FC,54,
4448353,0100082C,true,Rx,0,8,00,C0,AF,5E,62,09,00,96,
4448628,0110483C,true,Rx,0,8,08,E4,22,00,44,66,FC,54,
4458348,0100082C,true,Rx,0,8,00,C0,AF,5E,62,09,00,96,
4458623,0110483C,true,Rx,0,8,08,E4,22,00,44,66,FC,54,
4463345,1BA0493C,true,Rx,0,8,07,01,03,00,02,01,01,01,
4468400,0100082C,true,Rx,0,8,00,C0,AF,5E,62,09,00,96,
4468675,0110483C,true,Rx,0,8,08,E4,A2,00,44,66,FC,54,
4478353,0100082C,true,Rx,0,8,00,C0,AF,5E,62,09,00,96,
4478628,0110483C,true,Rx,0,8,08,E4,22,00,44,66,FC,54,
4488379,0100082C,true,Rx,0,8,00,C0,AF,5E,62,09,00,96,
4488664,0110483C,true,Rx,0,8,08,E4,22,00,44,66,FC,54,
4498343,0100082C,true,Rx,0,8,00,C0,AF,5E,62,09,00,96,
4498628,0110483C,true,Rx,0,8,08,E4,22,00,44,66,FC,55,
4508348,0100082C,true,Rx,0,8,00,C0,AF,5E,62,09,00,96,
4508623,0110483C,true,Rx,0,8,08,E6,2A,00,44,66,FC,52,
4518364,0100082C,true,Rx,0,8,00,C0,AF,5E,62,09,00,96,
4518639,0110483C,true,Rx,0,8,08,E6,AA,00,44,66,FC,52,
4528338,0100082C,true,Rx,0,8,00,C0,AF,5E,62,09,00,96,
4528623,0110483C,true,Rx,0,8,08,E6,2A,00,44,66,FC,52,
4538384,0100082C,true,Rx,0,8,00,C0,AF,5E,62,09,00,96,
4538669,0110483C,true,Rx,0,8,08,E6,2A,00,44,66,FC,52,
4545799,00800006,true,Rx,0,8,60,00,00,00,00,00,00,00,
4546085,0090411E,true,Rx,0,8,00,00,00,00,00,00,00,00,
4546385,0300410E,true,Rx,0,8,00,00,00,00,00,00,00,00,
4546676,03800006,true,Rx,0,8,00,00,00,00,00,00,00,00,
4546967,19E00006,true,Rx,0,8,00,00,00,C0,00,00,00,00,
4547269,1B600002,true,Rx,0,8,00,00,00,00,00,00,00,00,
4547693,0300410E,true,Rx,0,8,00,00,00,00,00,00,00,00,
4548556,0100082C,true,Rx,0,8,00,C0,AF,5E,62,09,00,96,
4548827,0110483C,true,Rx,0,8,08,E6,2A,00,44,66,FC,52,
4549725,00800006,true,Rx,0,8,80,00,00,00,00,00,00,00,
4550015,0090411E,true,Rx,0,8,00,00,00,00,00,00,00,00,
4550306,0300410E,true,Rx,0,8,00,00,00,00,00,00,00,00,
4550606,03800006,true,Rx,0,8,00,00,00,00,00,00,00,00,
4551658,0300410E,true,Rx,0,8,00,00,00,00,00,00,00,00,
4553652,00800006,true,Rx,0,8,C0,00,00,00,00,00,00,00,
4553949,0090411E,true,Rx,0,8,00,00,00,00,00,00,00,00,
4554240,0300410E,true,Rx,0,8,00,00,00,00,00,00,00,00,
4554540,03800006,true,Rx,0,8,00,00,00,00,00,00,00,00,
4555655,0300410E,true,Rx,0,8,00,00,00,00,00,00,00,00,
4555948,19E00006,true,Rx,0,8,00,00,00,C0,00,00,00,00,
4557659,00800006,true,Rx,0,8,00,00,00,00,00,00,00,00,
4557960,0090411E,true,Rx,0,8,00,00,00,00,00,00,00,00,
4558249,0300410E,true,Rx,0,8,00,00,00,00,00,00,00,00,
4558528,0100082C,true,Rx,0,8,00,C0,AF,5E,62,09,00,96,
4558810,0110483C,true,Rx,0,8,08,E9,2A,00,44,66,FC,52,
4559110,03800006,true,Rx,0,8,00,00,00,00,00,00,00,00,
4559678,0300410E,true,Rx,0,8,00,00,00,00,00,00,00,00,
4559976,01C04026,true,Rx,0,8,80,00,80,00,80,00,80,00,
4560256,02000026,true,Rx,0,8,7F,34,00,CC,4C,00,E0,AC,
4560536,02104136,true,Rx,0,8,BB,00,3F,FF,07,E0,00,00,
4560816,02804026,true,Rx,0,8,B7,FF,77,FF,F2,00,1E,0A,
4561117,02C00020,true,Rx,0,8,00,00,00,00,00,00,00,00,
4561407,19A00002,true,Rx,0,8,12,00,00,00,00,00,00,07,
4561708,00800006,true,Rx,0,8,40,00,00,00,00,00,00,00,
4562007,0090411E,true,Rx,0,8,00,00,00,00,00,00,00,00,
4562287,0300410E,true,Rx,0,8,00,00,00,00,00,00,00,00,
4562588,03800006,true,Rx,0,8,00,00,00,00,00,00,00,00,
4563661,0300410E,true,Rx,0,8,00,00,00,00,00,00,00,00,
4565665,00800006,true,Rx,0,8,80,00,00,00,00,00,00,00,
4565956,0090411E,true,Rx,0,8,00,00,00,00,00,00,00,00,
4566254,0300410E,true,Rx,0,8,00,00,00,00,00,00,00,00,
4566545,03800006,true,Rx,0,8,00,00,00,00,00,00,00,00,
4566846,19E00006,true,Rx,0,8,00,00,00,C0,00,00,00,00,
4567671,0300410E,true,Rx,0,8,00,00,00,00,00,00,00,00,
4568501,0100082C,true,Rx,0,8,00,C0,AF,5E,62,09,00,96,
4568782,0110483C,true,Rx,0,8,08,E9,AA,00,44,66,FC,52,
4569691,00800006,true,Rx,0,8,C0,00,00,00,00,00,00,00,
4569981,0090411E,true,Rx,0,8,00,00,00,00,00,00,00,00,
4570274,0300410E,true,Rx,0,8,00,00,00,00,00,00,00,00,
4570574,03800006,true,Rx,0,8,00,00,00,00,00,00,00,00,
4571677,0300410E,true,Rx,0,8,00,00,00,00,00,00,00,00,
4573679,00800006,true,Rx,0,8,00,00,00,00,00,00,00,00,
4573970,0090411E,true,Rx,0,8,00,00,00,00,00,00,00,00,
4574259,01C04026,true,Rx,0,8,80,00,80,00,80,00,80,00,
4574538,02000026,true,Rx,0,8,7F,34,00,CC,4C,00,E0,AC,
4574829,02104136,true,Rx,0,8,BB,00,3F,FF,07,E0,00,00,
4575109,02804026,true,Rx,0,8,B7,FF,77,FF,F2,00,1E,0A,
4575409,02C00020,true,Rx,0,8,00,00,00,00,00,00,00,00,
4575701,0300410E,true,Rx,0,8,00,00,00,00,00,00,00,00,
4575991,0300410E,true,Rx,0,8,00,00,00,00,00,00,00,00,
4576289,03800006,true,Rx,0,8,00,00,00,00,00,00,00,00,
4576580,19E00006,true,Rx,0,8,00,00,00,C0,00,00,00,00,
4577673,00800006,true,Rx,0,8,40,00,00,00,00,00,00,00,
4577975,0090411E,true,Rx,0,8,00,00,00,00,00,00,00,00,
4578267,0300410E,true,Rx,0,8,00,00,00,00,00,00,00,00,
4578557,03800006,true,Rx,0,8,00,00,00,00,00,00,00,00,
4578839,0100082C,true,Rx,0,8,00,C0,AF,5E,62,09,00,96,
4579118,0110483C,true,Rx,0,8,08,E9,2A,00,44,66,FC,52,
4579698,0300410E,true,Rx,0,8,00,00,00,00,00,00,00,00,
4579988,1B600002,true,Rx,0,8,00,00,00,00,00,00,00,00,
4581685,00800006,true,Rx,0,8,80,00,00,00,00,00,00,00,
4581977,0090411E,true,Rx,0,8,00,00,00,00,00,00,00,00,
4582265,0300410E,true,Rx,0,8,00,00,00,00,00,00,00,00,
4582566,03800006,true,Rx,0,8,00,00,00,00,00,00,00,00,
4583691,0300410E,true,Rx,0,8,00,00,00,00,00,00,00,00,
4585693,00800006,true,Rx,0,8,C0,00,00,00,00,00,00,00,
4585982,0090411E,true,Rx,0,8,00,00,00,00,00,00,00,00,
4586270,0300410E,true,Rx,0,8,00,00,00,00,00,00,00,00,
4586571,03800006,true,Rx,0,8,00,00,00,00,00,00,00,00,
4586862,19E00006,true,Rx,0,8,00,00,00,C0,00,00,00,00,
4587698,0300410E,true,Rx,0,8,00,00,00,00,00,00,00,00,
4587979,01C04026,true,Rx,0,8,80,00,80,00,80,00,80,00,
4588262,02000026,true,Rx,0,8,7F,34,00,CC,4C,00,E0,AC,
4588552,0100082C,true,Rx,0,8,00,C0,AF,5E,62,09,00,96,
4588834,0110483C,true,Rx,0,8,08,E9,2A,00,44,66,FC,52,
4589113,02104136,true,Rx,0,8,BB,00,3F,FF,07,E0,00,00,
4589403,02804026,true,Rx,0,8,B7,FF,77,FF,F2,00,1E,0A,
4589695,02C00020,true,Rx,0,8,00,00,00,00,00,00,00,00,
4589984,00800006,true,Rx,0,8,00,00,00,00,00,00,00,00,
4590284,0090411E,true,Rx,0,8,00,00,00,00,00,00,00,00,
4590573,0300410E,true,Rx,0,8,00,00,00,00,00,00,00,00,
4590874,03800006,true,Rx,0,8,00,00,00,00,00,00,00,00,
4591155,19A00002,true,Rx,0,8,6E,00,00,00,00,00,00,F7,
4591692,0300410E,true,Rx,0,8,00,00,00,00,00,00,00,00,
4593698,00800006,true,Rx,0,8,40,00,00,00,00,00,00,00,
4593988,0090411E,true,Rx,0,8,00,00,00,00,00,00,00,00,
4594297,0300410E,true,Rx,0,8,00,00,00,00,00,00,00,00,
4594576,03800006,true,Rx,0,8,00,00,00,00,00,00,00,00,
4595703,0300410E,true,Rx,0,8,00,00,00,00,00,00,00,00,
4595993,19E00006,true,Rx,0,8,00,00,00,C0,00,00,00,00,
4597707,00800006,true,Rx,0,8,80,00,00,00,00,00,00,00,
4597998,0090411E,true,Rx,0,8,00,00,00,00,00,00,00,00,
4598288,0300410E,true,Rx,0,8,00,00,00,00,00,00,00,00,
4598567,0100082C,true,Rx,0,8,00,C0,AF,5E,62,09,00,96,
4598849,0110483C,true,Rx,0,8,08,E9,2A,00,44,66,FC,52,
4599149,03800006,true,Rx,0,8,00,00,00,00,00,00,00,00,
4599718,0300410E,true,Rx,0,8,00,00,00,00,00,00,00,00,
4601710,00800006,true,Rx,0,8,C0,00,00,00,00,00,00,00,
4602001,0090411E,true,Rx,0,8,00,00,00,00,00,00,00,00,
4602291,01C04026,true,Rx,0,8,80,00,80,00,80,00,80,00,
4602571,02000026,true,Rx,0,8,7F,34,00,CC,4C,00,E0,AC,
4602862,02104136,true,Rx,0,8,BB,00,3F,FF,07,E0,00,00,
4603141,02804026,true,Rx,0,8,B7,FF,77,FF,F2,00,1E,0C,
4603442,02C00020,true,Rx,0,8,00,00,00,00,00,00,00,00,
4603733,0300410E,true,Rx,0,8,00,00,00,00,00,00,00,00,
4604024,0300410E,true,Rx,0,8,00,00,00,00,00,00,00,00,
4604324,03800006,true,Rx,0,8,00,00,00,00,00,00,00,00,
4605706,00800006,true,Rx,0,8,00,00,00,00,00,00,00,00,
4606006,0090411E,true,Rx,0,8,00,00,00,00,00,00,00,00,
4606295,0300410E,true,Rx,0,8,00,00,00,00,00,00,00,00,
4606597,03800006,true,Rx,0,8,00,00,00,00,00,00,00,00,
4606887,19E00006,true,Rx,0,8,00,00,00,C0,00,00,00,00,
4607714,0300410E,true,Rx,0,8,00,00,00,00,00,00,00,00,
4608580,0100082C,true,Rx,0,8,00,C0,AF,5E,62,09,00,96,
4608852,0110483C,true,Rx,0,8,08,E9,2A,00,44,66,FC,52,
4609729,00800006,true,Rx,0,8,40,00,00,00,00,00,00,00,
4610019,0090411E,true,Rx,0,8,00,00,00,00,00,00,00,00,
4610310,0300410E,true,Rx,0,8,00,00,00,00,00,00,00,00,
4610604,03800006,true,Rx,0,8,00,00,00,00,00,00,00,00,
4611722,0300410E,true,Rx,0,8,00,00,00,00,00,00,00,00,
4613710,00800006,true,Rx,0,8,80,00,00,00,00,00,00,00,
4614011,0090411E,true,Rx,0,8,00,00,00,00,00,00,00,00,
4614301,0300410E,true,Rx,0,8,00,00,00,00,00,00,00,00,
4614601,03800006,true,Rx,0,8,00,00,00,00,00,00,00,00,
4614893,1B600002,true,Rx,0,8,00,00,00,00,00,00,00,00,
4615719,0300410E,true,Rx,0,8,00,00,00,00,00,00,00,00,
4616009,01C04026,true,Rx,0,8,80,00,80,00,80,00,80,00,
4616299,02000026,true,Rx,0,8,7F,34,00,CC,4C,00,E0,AC,
4616584,02104136,true,Rx,0,8,BB,00,3F,FF,07,E0,00,00,
4616864,02804026,true,Rx,0,8,B7,FF,77,FF,F2,00,1E,0C,
4617155,02C00020,true,Rx,0,8,00,00,00,00,00,00,00,00,
4617445,19A00002,true,Rx,0,8,12,00,00,00,00,00,00,F7,
4617747,00800006,true,Rx,0,8,C0,00,00,00,00,00,00,00,
4618038,0090411E,true,Rx,0,8,00,00,00,00,00,00,00,00,
4618327,0300410E,true,Rx,0,8,00,00,00,00,00,00,00,00,
4618627,03800006,true,Rx,0,8,00,00,00,00,00,00,00,00,
4618907,0100082C,true,Rx,0,8,00,C0,AF,5E,62,09,00,96,
4619187,0110483C,true,Rx,0,8,08,E9,AA,00,44,66,FC,52,
4619478,19E00006,true,Rx,0,8,00,00,00,C0,00,00,00,00,
4619779,0300410E,true,Rx,0,8,00,00,00,00,00,00,00,00,
4621723,00800006,true,Rx,0,8,00,00,00,00,00,00,00,00,
4622013,0090411E,true,Rx,0,8,00,00,00,00,00,00,00,00,
4622313,0300410E,true,Rx,0,8,00,00,00,00,00,00,00,00,
4622604,03800006,true,Rx,0,8,00,00,00,00,00,00,00,00,
4623720,0300410E,true,Rx,0,8,00,00,00,00,00,00,00,00,
4625731,00800006,true,Rx,0,8,40,00,00,00,00,00,00,00,
4626021,0090411E,true,Rx,0,8,00,00,00,00,00,00,00,00,
4626322,0300410E,true,Rx,0,8,00,00,00,00,00,00,00,00,
4626612,03800006,true,Rx,0,8,00,00,00,00,00,00,00,00,
4626913,19E00006,true,Rx,0,8,00,00,00,C0,00,00,00,00,
4627729,0300410E,true,Rx,0,8,00,00,00,00,00,00,00,00,
4628461,0100082C,true,Rx,0,8,00,C0,AF,5E,66,09,02,71,
4628745,0110483C,true,Rx,0,8,08,E9,2A,00,44,66,FC,52,
4629025,1B700030,true,Rx,0,8,25,86,1C,00,00,C0,03,00,
4629758,00800006,true,Rx,0,8,80,00,00,00,00,00,00,00,
4630048,0090411E,true,Rx,0,8,00,00,00,00,00,00,00,00,
4630339,01C04026,true,Rx,0,8,80,00,80,00,80,00,80,00,
4630635,02000026,true,Rx,0,8,7F,34,00,CC,4C,00,E0,AC,
4630907,02104136,true,Rx,0,8,BB,00,3F,FF,07,E0,00,00,
4631186,02804026,true,Rx,0,8,37,FF,77,FF,F2,00,0E,0C,
4631486,02C00020,true,Rx,0,8,00,00,00,00,00,00,00,00,
4631778,0300410E,true,Rx,0,8,00,00,00,00,00,00,00,00,
4632078,03800006,true,Rx,0,8,00,00,00,00,00,00,00,00,
4635731,0300410E,true,Rx,0,8,B7,CA,00,00,87,CA,F0,00,
4638400,0100082C,true,Rx,0,8,00,C0,AF,5E,66,09,02,71,
4638676,0110483C,true,Rx,0,8,08,E9,2A,00,44,66,FC,52,
4643981,01C04026,true,Rx,0,8,80,00,80,00,80,00,80,00,
4644267,02000026,true,Rx,0,8,7F,34,00,DC,4C,00,E0,AC,
4644556,02104136,true,Rx,0,8,BB,00,3F,FF,07,E0,00,00,
4644838,02804026,true,Rx,0,8,37,FF,77,FF,F2,00,0E,0C,
4645127,02C00020,true,Rx,0,8,00,00,00,00,00,00,00,00,
4645417,19A00002,true,Rx,0,8,02,00,00,00,00,00,00,F7,
4645750,00800006,true,Rx,0,8,C9,E0,0D,E0,41,E0,A6,30,
4646046,0090411E,true,Rx,0,8,C2,00,E0,00,00,00,00,00,
4646316,0300410E,true,Rx,0,8,37,CA,98,33,07,CA,6C,00,
4646616,03800006,true,Rx,0,8,70,00,00,00,00,00,00,00,
4646948,1B200002,true,Rx,0,8,00,00,00,00,00,00,04,51,
4648622,0100082C,true,Rx,0,8,00,C0,AF,5E,66,09,02,71,
4648902,0110483C,true,Rx,0,8,08,E9,2A,00,44,66,FC,52,
4655735,0300410E,true,Rx,0,8,B7,D0,18,33,87,D0,FC,00,
4656020,19E00006,true,Rx,0,8,00,00,18,E0,58,00,40,00,
4657987,01C04026,true,Rx,0,8,80,00,80,00,80,00,80,00,
4658276,02000026,true,Rx,0,8,7F,34,00,DC,4C,00,E0,AC,
4658557,0100082C,true,Rx,0,8,00,C0,AF,5E,66,09,02,71,
4658837,0110483C,true,Rx,0,8,08,E9,2A,00,44,66,FC,52,
4659127,02104136,true,Rx,0,8,BB,00,3F,FF,07,E0,00,00,
4659407,02804026,true,Rx,0,8,37,FF,77,FF,F2,00,0E,0C,
4659698,02C00020,true,Rx,0,8,00,00,00,00,00,00,00,00,
4665738,00800006,true,Rx,0,8,01,E4,0D,E3,41,E4,26,71,
4666034,0090411E,true,Rx,0,8,02,00,60,00,00,00,00,00,
4666314,0300410E,true,Rx,0,8,37,D0,18,33,07,D0,6C,00,
4666614,03800006,true,Rx,0,8,30,00,00,00,00,00,00,00,
4668453,0100082C,true,Rx,0,8,00,C0,AF,5E,66,09,02,71,
4668735,0110483C,true,Rx,0,8,08,E9,AA,00,44,66,FC,52,
4671983,01C04026,true,Rx,0,8,80,00,80,00,80,00,80,00,
4672268,02000026,true,Rx,0,8,7F,34,00,DC,4C,00,E0,AC,
4672549,02104136,true,Rx,0,8,BB,00,3F,FF,07,E0,00,00,
4672840,02804026,true,Rx,0,8,37,FF,77,FF,F2,00,0E,0C,
4673129,02C00020,true,Rx,0,8,00,00,00,00,00,00,00,00,
4673420,19A00002,true,Rx,0,8,12,00,00,00,00,00,00,F7,
4675776,0300410E,true,Rx,0,8,B7,DA,98,33,87,DA,FC,00,
4678454,0100082C,true,Rx,0,8,00,C0,AF,5E,66,09,02,71,
4678731,0110483C,true,Rx,0,8,08,E9,2A,00,44,66,FC,52,
4685765,00800006,true,Rx,0,8,49,EA,0D,EA,41,EA,A6,6C,
4686050,0090411E,true,Rx,0,8,42,00,E0,00,00,00,00,00,
4686341,01C04026,true,Rx,0,8,80,00,80,00,80,00,80,00,
4686620,02000026,true,Rx,0,8,7F,34,00,DC,4C,00,E0,AC,
4686901,02104136,true,Rx,0,8,BB,00,3F,FF,07,E0,00,00,
4687192,02804026,true,Rx,0,8,37,FF,77,FF,F2,00,0E,0C,
4687481,02C00020,true,Rx,0,8,00,00,00,00,00,00,00,00,
4687763,0300410E,true,Rx,0,8,B7,DA,18,F9,87,DA,FC,00,
4688061,03800006,true,Rx,0,8,30,00,00,00,00,00,00,00,
4688609,0100082C,true,Rx,0,8,00,C0,AF,5E,66,09,02,71,
4688889,0110483C,true,Rx,0,8,08,E9,2A,00,44,66,FC,52,
4695768,0300410E,true,Rx,0,8,77,DA,98,F9,07,DA,6C,00,
4698364,0100082C,true,Rx,0,8,00,C0,AF,5E,66,09,02,71,
4698641,0110483C,true,Rx,0,8,08,E9,2A,00,44,66,FC,52,
4699982,01C04026,true,Rx,0,8,80,00,80,00,80,00,80,00,
4700262,02000026,true,Rx,0,8,7F,34,00,DC,4C,00,E0,AC,
4700552,02104136,true,Rx,0,8,BB,00,3F,FF,07,E0,00,00,
4700835,02804026,true,Rx,0,8,37,FF,77,FF,F2,00,0E,0C,
4701125,02C00020,true,Rx,0,8,00,01,00,00,00,02,75,81,
4701414,19A00002,true,Rx,0,8,6E,00,00,00,00,00,00,F7,
4705796,00800006,true,Rx,0,8,89,EA,0D,EA,41,EA,26,6E,
4706082,0090411E,true,Rx,0,8,02,00,E0,00,00,00,00,00,
4706362,0300410E,true,Rx,0,8,B7,DA,18,F9,87,DA,FC,00,
4706662,03800006,true,Rx,0,8,30,00,00,00,00,00,00,00,
4706954,19E00006,true,Rx,0,8,00,00,18,C0,58,00,40,00,
4708461,0100082C,true,Rx,0,8,00,C0,AF,5E,66,09,02,71,
4708743,0110483C,true,Rx,0,8,08,E9,2A,00,44,66,FC,52,
4713378,1BA0493C,true,Rx,0,8,08,02,01,12,01,01,01,02,
4713994,01C04026,true,Rx,0,8,80,00,80,00,80,00,80,00,
4714273,02000026,true,Rx,0,8,7F,34,00,DC,4B,00,E0,AC,
4714553,02104136,true,Rx,0,8,BB,00,3F,FF,07,E0,00,00,
4714834,02804026,true,Rx,0,8,37,FF,77,FF,F2,00,0E,0C,
4715134,02C00020,true,Rx,0,8,00,00,00,00,00,02,75,81,
4715821,0300410E,true,Rx,0,8,B7,DA,18,F9,87,DA,FC,00,
4716111,1B600002,true,Rx,0,8,00,80,00,40,00,18,08,00,
4718574,0100082C,true,Rx,0,8,00,C8,AF,5E,66,09,02,71,
4718854,0110483C,true,Rx,0,8,08,E9,AA,00,44,66,FC,52,
4725794,00800006,true,Rx,0,8,C9,EA,0D,EA,41,EA,26,6E,
4726090,0090411E,true,Rx,0,8,02,00,E0,00,00,00,00,00,
4726371,0300410E,true,Rx,0,8,37,DA,98,F9,07,DA,6C,00,
4726650,03800006,true,Rx,0,8,34,00,3D,1D,7F,E9,0A,01,
4727983,01C04026,true,Rx,0,8,80,00,80,00,80,00,80,00,
4728263,02000026,true,Rx,0,8,7F,34,00,DC,4B,00,E0,AC,
4728543,0100082C,true,Rx,0,8,00,C8,AF,5E,66,09,02,71,
4728824,0110483C,true,Rx,0,8,08,E9,2A,00,44,66,FC,52,
4729103,02104136,true,Rx,0,8,BB,00,3F,FF,07,E0,00,00,
4729394,02804026,true,Rx,0,8,37,FF,77,FF,F2,00,0E,0C,
4729684,02C00020,true,Rx,0,8,00,00,00,00,00,02,75,81,
4729974,19A00002,true,Rx,0,8,12,00,00,00,00,00,00,F7,
4732393,1B200002,true,Rx,0,8,00,00,00,00,00,00,0F,71,
4733568,1A200020,true,Rx,0,8,0E,00,02,2D,00,00,02,2C,
4735816,0300410E,true,Rx,0,8,B7,DA,18,F9,87,DA,FC,00,
4738381,0100082C,true,Rx,0,8,00,C8,BF,A8,E6,09,02,71,
4738657,0110483C,true,Rx,0,8,08,E9,2A,00,44,66,FC,52,
4742004,01C04026,true,Rx,0,8,80,00,80,00,80,00,80,00,
4742285,02000026,true,Rx,0,8,7F,34,00,DC,4B,00,E0,AC,
4742572,02104136,true,Rx,0,8,BB,00,3F,FF,07,E0,00,00,
4742853,02804026,true,Rx,0,8,37,FF,77,F6,F2,00,0E,0C,
4743143,02C00020,true,Rx,0,8,00,00,00,00,00,02,75,81,
4745845,00800006,true,Rx,0,8,01,EA,0D,EA,41,EA,A6,6E,
4746136,0090411E,true,Rx,0,8,C2,00,60,00,00,00,00,00,
4746415,0300410E,true,Rx,0,8,37,DA,18,F9,07,DA,6C,00,
4746707,03800006,true,Rx,0,8,70,00,3D,1D,7F,E9,0A,01,
4748518,0100082C,true,Rx,0,8,00,C0,BF,A8,66,09,02,71,
4748798,0110483C,true,Rx,0,8,08,E9,2A,00,44,66,FC,52,
4755825,0300410E,true,Rx,0,8,B7,DA,98,F9,87,DA,FC,00,
4756122,01C04026,true,Rx,0,8,80,00,80,00,80,00,80,00,
4756402,02000026,true,Rx,0,8,7F,34,00,DC,4C,00,E0,AC,
4756692,02104136,true,Rx,0,8,BB,00,3F,FF,07,E0,00,00,
4756963,02804026,true,Rx,0,8,17,FF,37,CD,56,86,0E,07,
4757252,02C00020,true,Rx,0,8,00,00,00,00,00,02,75,81,
4757542,19A00002,true,Rx,0,8,02,00,00,00,00,00,00,F7,
4757834,19E00006,true,Rx,0,8,00,00,18,E0,58,00,40,00,
4758565,0100082C,true,Rx,0,8,00,C0,BF,A8,66,09,02,71,
4758845,0110483C,true,Rx,0,8,08,E9,2A,00,44,66,FC,52,
4765845,00800006,true,Rx,0,8,49,EA,0D,EA,41,EA,3E,6E,
4766132,0090411E,true,Rx,0,8,02,00,E0,00,00,00,00,00,
4766411,0300410E,true,Rx,0,8,B7,DA,18,F9,87,DA,FC,00,
4766691,03800006,true,Rx,0,8,30,00,3D,1D,7F,E9,0A,01,
4768455,0100082C,true,Rx,0,8,00,C0,BF,A8,66,09,02,71,
4768726,0110483C,true,Rx,0,8,08,E9,AA,00,44,66,FC,52,
4770035,01C04026,true,Rx,0,8,80,00,80,00,80,00,80,00,
4770314,02000026,true,Rx,0,8,7F,34,00,DC,4B,00,E0,AC,
4770593,02104136,true,Rx,0,8,BB,00,1F,FF,07,E0,00,00,
4770875,02804026,true,Rx,0,8,17,FF,37,90,56,ED,0E,04,
4771165,02C00020,true,Rx,0,8,00,00,00,00,00,02,75,81,
4775871,0300410E,true,Rx,0,8,37,DA,18,F9,07,DA,6C,00,
4778458,0100082C,true,Rx,0,8,00,C0,BF,A8,24,00,02,71,
4778735,0110483C,true,Rx,0,8,08,E9,2A,00,44,66,FC,52,
4783997,01C04026,true,Rx,0,8,80,00,80,00,80,00,80,00,
4784282,02000026,true,Rx,0,8,7F,34,00,DC,4B,00,E0,AC,
4784563,02104136,true,Rx,0,8,BB,00,1F,FF,07,E0,00,00,
4784844,02804026,true,Rx,0,8,17,FF,37,47,57,3C,0E,01,
4785133,02C00020,true,Rx,0,8,00,00,00,00,00,02,75,81,
4785424,19A00002,true,Rx,0,8,12,00,00,00,00,00,00,F7,
4785880,00800006,true,Rx,0,8,89,EA,0E,6B,41,EA,2E,6E,
4786168,0090411E,true,Rx,0,8,02,00,E0,00,00,00,00,00,
4786447,0300410E,true,Rx,0,8,B8,B2,98,F9,87,DA,FC,00,
4786738,03800006,true,Rx,0,8,30,00,3D,1D,7F,E9,0A,01,
4788615,0100082C,true,Rx,0,8,00,C0,BF,A8,24,00,02,71,
4788895,0110483C,true,Rx,0,8,08,E9,2A,00,44,66,FC,52,
4795863,0300410E,true,Rx,0,8,B8,B2,18,21,87,DA,FC,00,
4798036,01C04026,true,Rx,0,8,80,00,80,00,80,00,80,00,
4798321,02000026,true,Rx,0,8,7F,34,00,DC,4B,00,E0,AC,
4798602,0100082C,true,Rx,0,8,00,C0,BF,A8,24,00,02,71,
4798882,0110483C,true,Rx,0,8,08,E9,2A,00,44,66,FC,52,
4799173,02104136,true,Rx,0,8,BB,00,1F,FF,07,E0,00,00,
4799452,02804026,true,Rx,0,8,17,FF,37,09,57,30,0D,FF,
4799743,02C00020,true,Rx,0,8,00,00,00,00,00,02,75,81,
4805884,00800006,true,Rx,0,8,C1,EA,0E,6B,41,EA,AE,6E,
4806170,0090411E,true,Rx,0,8,42,00,60,00,00,00,00,00,
4806449,0300410E,true,Rx,0,8,38,B2,18,21,07,DA,6C,00,
4806731,03800006,true,Rx,0,8,30,00,3D,1D,7F,E9,0A,01,
4807022,19E00006,true,Rx,0,8,00,00,18,C0,58,00,40,00,
4808468,0100082C,true,Rx,0,8,00,C0,BF,A8,24,00,02,71,
4808749,0110483C,true,Rx,0,8,08,E9,2A,00,44,66,FC,52,
4812045,01C04026,true,Rx,0,8,80,00,80,00,80,00,80,00,
4812322,02000026,true,Rx,0,8,7F,34,00,DC,4B,00,E0,AC,
4812611,02104136,true,Rx,0,8,BB,00,1F,FF,07,E0,00,00,
4812882,02804026,true,Rx,0,8,17,FF,37,04,56,EA,0D,FD,
4813172,02C00020,true,Rx,0,8,00,00,00,00,00,02,75,81,
4813462,19A00002,true,Rx,0,8,6E,00,00,00,00,00,00,57,
4815911,0300410E,true,Rx,0,8,B8,B2,98,21,87,DA,FC,00,
4817320,1B200002,true,Rx,0,8,00,00,00,00,00,00,0F,71,
4818616,0100082C,true,Rx,0,8,00,C0,BF,A8,75,FF,02,71,
4818886,0110483C,true,Rx,0,8,08,E9,AA,00,44,66,FC,52,
4825904,00800006,true,Rx,0,8,09,EA,0E,6B,41,EA,2E,6E,
4826191,0090411E,true,Rx,0,8,02,00,E0,00,00,00,00,00,
4826480,01C04026,true,Rx,0,8,80,00,80,00,80,00,80,00,
4826763,02000026,true,Rx,0,8,7F,34,00,DC,4C,00,E0,AC,
4827042,02104136,true,Rx,0,8,BB,00,1F,FF,07,E0,00,00,
4827322,02804026,true,Rx,0,8,17,FF,37,24,56,B3,0D,F2,
4827612,02C00020,true,Rx,0,8,00,00,00,00,00,02,75,81,
4827893,0300410E,true,Rx,0,8,38,B2,18,21,07,DA,6C,00,
4828171,03800006,true,Rx,0,8,30,00,3D,1D,7F,E9,0A,01,
4828626,0100082C,true,Rx,0,8,00,C0,BF,A8,65,FF,02,71,
4828906,0110483C,true,Rx,0,8,08,E9,2A,00,44,66,FC,52,
4835907,0300410E,true,Rx,0,8,B8,B2,18,21,87,DA,FC,00,
4838411,0100082C,true,Rx,0,8,00,C0,BF,A8,65,FF,02,71,
4838687,0110483C,true,Rx,0,8,08,E9,2A,00,44,66,FC,52,
4838977,1AE0092C,true,Rx,0,8,80,00,22,E0,40,00,00,00,
4839268,1B700030,true,Rx,0,8,25,00,1C,00,00,00,00,00,
4840064,01C04026,true,Rx,0,8,80,00,80,00,80,00,80,00,
4840343,02000026,true,Rx,0,8,7F,34,00,DC,4C,00,E0,AC,
4840638,02104136,true,Rx,0,8,BB,00,1F,FF,07,E0,00,00,
4840908,02804026,true,Rx,0,8,17,FF,37,5B,56,89,0D,E4,
4841198,02C00020,true,Rx,0,8,00,00,00,00,00,02,75,81,
4841489,19A00002,true,Rx,0,8,12,00,00,00,00,00,00,57,
4845933,00800006,true,Rx,0,8,49,EA,0E,6B,41,EA,AE,6E,
4846219,0090411E,true,Rx,0,8,C2,00,E0,00,00,00,00,00,
4846499,0300410E,true,Rx,0,8,B8,B2,A8,21,87,DA,FC,00,
4846780,03800006,true,Rx,0,8,78,00,3D,1D,7F,E9,0A,01,
4848502,0100082C,true,Rx,0,8,00,C0,BF,A8,65,FF,02,71,
4848782,0110483C,true,Rx,0,8,08,E9,2A,00,44,66,FC,52,
4854059,01C04026,true,Rx,0,8,80,00,80,00,80,00,80,00,
4854345,02000026,true,Rx,0,8,7F,34,00,DC,4C,00,E0,AC,
4854625,02104136,true,Rx,0,8,BB,00,1F,FF,07,E0,00,00,
4854906,02804026,true,Rx,0,8,17,FF,37,6B,56,F0,0D,D8,
4855197,02C00020,true,Rx,0,8,00,00,00,00,00,02,75,81,
4855961,0300410E,true,Rx,0,8,38,B2,28,21,07,DA,6C,00,
4856245,19E00006,true,Rx,0,8,00,00,18,E0,58,00,40,00,
4858530,0100082C,true,Rx,0,8,00,C0,BF,A8,65,FF,02,71,
4858811,0110483C,true,Rx,0,8,08,E9,2A,00,44,66,FC,52,
4865942,00800006,true,Rx,0,8,81,EA,0E,6B,41,EA,2E,6E,
4866228,0090411E,true,Rx,0,8,02,00,60,00,00,00,00,00,
4866507,0300410E,true,Rx,0,8,B8,B2,28,21,87,DA,FC,00,
4866789,03800006,true,Rx,0,8,38,00,3D,1D,7F,E9,0A,01,
4868037,01C04026,true,Rx,0,8,80,00,80,00,80,00,80,00,
4868317,02000026,true,Rx,0,8,7F,34,00,DC,4C,00,E0,AC,
4868607,0100082C,true,Rx,0,8,00,C0,BF,A8,65,FF,02,71,
4868877,0110483C,true,Rx,0,8,08,E9,AA,00,44,66,FC,52,
4869168,02104136,true,Rx,0,8,BB,00,1F,FF,07,E0,00,00,
4869447,02804026,true,Rx,0,8,17,FF,37,52,57,3E,0D,D8,
4869738,02C00020,true,Rx,0,8,00,00,00,00,00,02,75,81,
4870027,19A00002,true,Rx,0,8,02,00,00,00,00,00,00,57,
4875942,0300410E,true,Rx,0,8,B8,B2,28,21,87,DA,FC,00,
4878384,0100082C,true,Rx,0,8,00,C0,BF,A8,65,FF,02,71,
4878669,0110483C,true,Rx,0,8,08,E9,2A,00,44,66,FC,52,
4882038,01C04026,true,Rx,0,8,80,00,80,00,80,00,80,00,
4882317,02000026,true,Rx,0,8,7F,34,00,DC,4C,00,E0,AC,
4882605,02104136,true,Rx,0,8,BB,00,1F,FF,07,E0,00,00,
4882876,02804026,true,Rx,0,8,17,FF,37,1F,57,63,0D,DE,
4883166,02C00020,true,Rx,0,8,00,00,00,00,00,02,75,81,
4885981,00800006,true,Rx,0,8,C9,EA,0E,6B,41,EA,AE,6E,
4886271,0090411E,true,Rx,0,8,42,00,E0,00,00,00,00,00,
4886548,0300410E,true,Rx,0,8,38,B2,A8,21,07,DA,6C,00,
4886830,03800006,true,Rx,0,8,38,00,3D,1D,7F,E9,0A,01,
4887120,1B600002,true,Rx,0,8,00,80,00,00,00,18,4C,00,
4888595,0100082C,true,Rx,0,8,00,C0,BF,A8,65,FF,02,71,
4888876,0110483C,true,Rx,0,8,08,E9,2A,00,44,66,FC,52,
4895965,0300410E,true,Rx,0,8,B8,B2,28,21,87,DA,FC,00,
4896261,01C04026,true,Rx,0,8,80,00,80,00,80,00,80,00,
4896540,02000026,true,Rx,0,8,7F,34,00,DC,4C,00,E0,AC,
4896822,02104136,true,Rx,0,8,BB,00,1F,FF,07,E0,00,00,
4897101,02804026,true,Rx,0,8,17,FF,36,EF,57,60,0D,E9,
4897391,02C00020,true,Rx,0,8,00,00,00,00,00,02,75,81,
4897681,19A00002,true,Rx,0,8,12,00,00,00,00,00,00,57,
4898556,0100082C,true,Rx,0,8,00,C0,BF,A8,65,FF,02,71,
4898836,0110483C,true,Rx,0,8,08,E9,2A,00,44,66,FC,52,
4902342,1B200002,true,Rx,0,8,00,00,00,00,00,00,0F,71,
4905987,00800006,true,Rx,0,8,01,EA,0E,6B,41,EA,2E,6E,
4906272,0090411E,true,Rx,0,8,02,00,60,00,00,00,00,00,
4906551,0300410E,true,Rx,0,8,38,B2,28,21,07,DA,6C,00,
4906834,03800006,true,Rx,0,8,38,00,3D,1D,7F,E9,0A,01,
4907123,19E00006,true,Rx,0,8,00,00,18,C0,58,00,40,00,
4908508,0100082C,true,Rx,0,8,00,C0,BF,A8,75,FF,02,71,
4908788,0110483C,true,Rx,0,8,08,E9,2A,00,44,66,FC,52,
4910066,01C04026,true,Rx,0,8,80,00,80,00,80,00,80,00,
4910346,02000026,true,Rx,0,8,7F,34,00,DC,4B,00,E0,AC,
4910626,02104136,true,Rx,0,8,BB,00,1F,FF,07,E0,00,00,
4910896,02804026,true,Rx,0,8,17,FF,36,F4,57,0F,0D,F7,
4911186,02C00020,true,Rx,0,8,00,00,00,00,00,02,75,81,
4915125,0340412E,true,Rx,0,8,00,00,00,00,00,00,00,00,
4915421,19000026,true,Rx,0,8,00,00,00,00,00,00,00,00,
4916011,0300410E,true,Rx,0,8,B8,B2,A8,21,87,DA,FC,00,
4918493,0100082C,true,Rx,0,8,00,C0,BF,A8,65,FF,02,71,
4918774,0110483C,true,Rx,0,8,08,E9,AA,00,44,66,FC,52,
4924016,01C04026,true,Rx,0,8,80,00,80,00,80,00,80,00,
4924292,02000026,true,Rx,0,8,7F,34,00,DC,4B,00,E0,AC,
4924582,02104136,true,Rx,0,8,BB,00,1F,FF,07,E0,00,00,
4924863,02804026,true,Rx,0,8,17,FF,37,1A,56,CE,0D,FF,
4925153,02C00020,true,Rx,0,8,00,00,00,00,00,02,75,81,
4925443,0340412E,true,Rx,0,8,00,00,00,00,00,00,00,00,
4925734,19A00002,true,Rx,0,8,6E,00,00,00,00,00,00,57,
4926024,00800006,true,Rx,0,8,49,EA,0E,6B,41,EA,2E,6E,
4926312,0090411E,true,Rx,0,8,02,00,E0,00,00,00,00,00,
4926593,0300410E,true,Rx,0,8,B8,B2,28,21,87,DA,FC,00,
4926874,03800006,true,Rx,0,8,38,00,3D,1D,7F,E9,0A,01,
4928667,0100082C,true,Rx,0,8,00,C0,BF,A8,65,FF,02,71,
4928949,0110483C,true,Rx,0,8,08,E9,2A,00,44,66,FC,52,
4930133,19000026,true,Rx,0,8,00,00,00,00,00,00,04,00,
4935145,0340412E,true,Rx,0,8,50,80,00,FD,80,00,00,00,
4936010,0300410E,true,Rx,0,8,38,B2,A8,21,07,DA,6C,00,
4938047,01C04026,true,Rx,0,8,80,00,80,00,80,00,80,00,
4938327,02000026,true,Rx,0,8,7F,34,00,DC,4B,00,E0,AC,
4938617,0100082C,true,Rx,0,8,00,C0,BF,A8,65,FF,02,71,
4938888,0110483C,true,Rx,0,8,08,E9,2A,00,44,66,FC,52,
4939178,02104136,true,Rx,0,8,BB,00,1F,FF,07,E0,00,00,
4939462,02804026,true,Rx,0,8,17,FF,37,55,56,9F,0E,01,
4939743,02C00020,true,Rx,0,8,00,00,00,00,00,02,75,81,
4945143,0340412E,true,Rx,0,8,71,80,00,ED,80,00,00,00,
4945429,19000026,true,Rx,0,8,00,00,00,00,38,13,04,00,
4946029,00800006,true,Rx,0,8,89,E9,0E,65,41,E9,AE,6E,
4946319,0090411E,true,Rx,0,8,C2,00,E0,00,00,00,00,00,
4946589,0300410E,true,Rx,0,8,B8,A8,28,21,87,D9,FC,00,
4946870,03800006,true,Rx,0,8,78,00,3D,1D,7F,E9,0A,01,
4948565,0100082C,true,Rx,0,8,00,C0,BF,A8,65,FF,02,71,
4948846,0110483C,true,Rx,0,8,08,E9,2A,00,44,66,FC,52,
4952066,01C04026,true,Rx,0,8,80,00,80,00,80,00,80,00,
4952352,02000026,true,Rx,0,8,7F,34,00,DC,4C,00,E0,AC,
4952641,02104136,true,Rx,0,8,BB,00,1F,FF,07,E0,00,00,
4952923,02804026,true,Rx,0,8,17,FF,37,89,56,C0,0E,07,
4953212,02C00020,true,Rx,0,8,00,00,00,00,00,02,75,81,
4953503,19A00002,true,Rx,0,8,12,00,00,00,00,00,00,57,
4955138,0340412E,true,Rx,0,8,72,80,00,DD,80,00,00,00,
4956057,0300410E,true,Rx,0,8,B8,A8,28,21,87,D9,FC,00,
4956345,19E00006,true,Rx,0,8,00,00,18,E0,58,00,40,00,
4958537,0100082C,true,Rx,0,8,00,C0,BF,A8,65,FF,02,71,
4958818,0110483C,true,Rx,0,8,08,E9,2A,00,44,66,FC,52,
4960118,19000026,true,Rx,0,8,00,00,01,40,38,11,84,00,
4963466,1BA0493C,true,Rx,0,8,09,00,00,01,01,01,01,01,
4963743,1BE0493C,true,Rx,0,8,01,00,2A,BC,CF,34,02,04,
4965217,0340412E,true,Rx,0,8,73,80,00,CD,80,00,00,00,
4966052,00800006,true,Rx,0,8,C9,E9,0E,65,41,E9,2E,6E,
4966331,0090411E,true,Rx,0,8,02,00,E0,00,00,00,00,00,
4966622,01C04026,true,Rx,0,8,80,00,80,00,80,00,80,00,
4966913,02000026,true,Rx,0,8,7F,34,00,DC,4C,00,E0,AC,
4967192,02104136,true,Rx,0,8,BB,00,1F,FF,07,E0,00,00,
4967473,02804026,true,Rx,0,8,37,FF,77,88,F7,1A,0E,04,
4967760,02C00020,true,Rx,0,8,00,00,00,00,00,02,75,81,
4968039,0300410E,true,Rx,0,8,38,A8,A8,21,07,D9,6C,00,
4968319,03800006,true,Rx,0,8,38,00,3D,1D,7F,E9,0A,01,
4968650,0100082C,true,Rx,0,8,00,C0,BF,A8,65,FF,02,71,
4968932,0110483C,true,Rx,0,8,08,E9,AA,00,44,66,FC,52,
4975213,0340412E,true,Rx,0,8,74,80,00,BD,80,00,00,00,
4975509,19000026,true,Rx,0,8,00,00,01,40,38,11,84,00,
4976058,0300410E,true,Rx,0,8,B8,A8,28,21,87,D9,FC,00,
4978499,0100082C,true,Rx,0,8,00,C0,BF,A8,65,FF,02,71,
4978779,0110483C,true,Rx,0,8,08,E9,2A,00,44,66,FC,52,
4980047,01C04026,true,Rx,0,8,80,00,80,00,80,00,80,00,
4980326,02000026,true,Rx,0,8,7F,34,00,DC,4C,00,E0,AC,
4980617,02104136,true,Rx,0,8,BB,00,3F,FF,07,E0,00,00,
4980887,02804026,true,Rx,0,8,37,FF,77,64,F7,60,0E,01,
4981178,02C00020,true,Rx,0,8,00,00,00,00,00,02,75,81,
4981472,19A00002,true,Rx,0,8,02,00,00,00,00,00,00,57,
4985221,0340412E,true,Rx,0,8,75,80,00,AD,80,00,00,00,
4986074,00800006,true,Rx,0,8,01,E9,0E,65,41,E9,2E,6E,
4986363,0090411E,true,Rx,0,8,02,00,60,00,00,00,00,00,
4986644,0300410E,true,Rx,0,8,38,A8,28,21,07,D9,6C,00,
4986924,03800006,true,Rx,0,8,38,00,3D,1D,7F,E9,0A,01,
4987277,1B200002,true,Rx,0,8,00,00,00,00,00,00,0F,71,
4988467,0100082C,true,Rx,0,8,00,C0,BF,A8,65,FF,02,71,
4988748,0110483C,true,Rx,0,8,08,E9,2A,00,44,66,FC,52,
4990138,19000026,true,Rx,0,8,00,00,01,40,38,11,84,00,
4994004,01C04026,true,Rx,0,8,80,00,80,00,80,00,80,00,
4994281,02000026,true,Rx,0,8,7F,34,00,DC,4C,00,E0,AC,
4994570,02104136,true,Rx,0,8,BB,00,3F,FF,07,E0,00,00,
4994851,02804026,true,Rx,0,8,37,FF,77,2B,F7,63,0D,FF,
4995142,02C00020,true,Rx,0,8,00,00,00,00,00,02,75,81,
4995421,0340412E,true,Rx,0,8,76,80,00,9D,80,00,00,00,
4996097,0300410E,true,Rx,0,8,B8,A8,A8,21,87,D9,FC,00,
4998588,0100082C,true,Rx,0,8,00,C0,BF,A8,65,FF,02,71,
4998870,0110483C,true,Rx,0,8,08,E9,2A,00,44,66,FC,52,
5005213,0340412E,true,Rx,0,8,77,80,00,8D,80,00,00,00,
5005509,19000026,true,Rx,0,8,00,00,01,40,38,11,84,00,
5006089,00800006,true,Rx,0,8,49,EB,0E,65,41,EB,AE,6E,
5006368,0090411E,true,Rx,0,8,42,00,E0,00,00,00,00,00,
5006649,0300410E,true,Rx,0,8,B8,A7,28,21,87,DD,FC,00,
5006929,03800006,true,Rx,0,8,38,00,3D,1D,7F,E9,0A,01,
5007220,19E00006,true,Rx,0,8,00,00,18,C0,58,00,40,00,
5008012,01C04026,true,Rx,0,8,80,00,80,00,80,00,80,00,
5008301,02000026,true,Rx,0,8,7F,34,00,DC,4C,00,E0,AC,
5008581,02104136,true,Rx,0,8,BB,00,3F,FF,07,E0,00,00,
5008873,0100082C,true,Rx,0,8,00,C0,BF,A8,65,FF,02,71,
5009152,0110483C,true,Rx,0,8,08,E9,2A,00,44,66,FC,52,
5009425,02804026,true,Rx,0,8,37,FF,76,E4,F7,63,0D,FF,
5009717,02C00020,true,Rx,0,8,00,00,00,00,00,02,75,81,
5010007,19A00002,true,Rx,0,8,12,00,00,00,00,00,00,57,
5015225,0340412E,true,Rx,0,8,78,80,00,7D,80,00,00,00,
5016088,0300410E,true,Rx,0,8,38,A7,28,21,07,DD,6C,00,
5018445,0100082C,true,Rx,0,8,00,C0,BF,A8,65,FF,02,71,
5018716,0110483C,true,Rx,0,8,08,E9,AA,00,44,66,FC,52,
5020138,19000026,true,Rx,0,8,00,00,01,40,38,11,84,00,
5022042,01C04026,true,Rx,0,8,80,00,80,00,80,00,80,00,
5022332,02000026,true,Rx,0,8,7F,34,00,DC,4C,00,E0,AC,
5022612,02104136,true,Rx,0,8,BB,00,3F,FF,07,E0,00,00,
5022893,02804026,true,Rx,0,8,37,FF,76,94,F7,63,0D,FF,
5023182,02C00020,true,Rx,0,8,00,00,00,00,00,02,75,81,
5025220,0340412E,true,Rx,0,8,79,80,00,6D,80,00,00,00,
5026124,00800006,true,Rx,0,8,89,EB,0E,65,41,EB,2E,6E,
5026414,0090411E,true,Rx,0,8,02,00,E0,D0,00,00,00,00,
5026695,0300410E,true,Rx,0,8,B8,A7,A8,21,87,DD,FC,00,
5026975,03800006,true,Rx,0,8,38,00,3D,1D,7F,E9,0A,01,
5028596,0100082C,true,Rx,0,8,00,C0,BF,A8,65,FF,02,71,
5028878,0110483C,true,Rx,0,8,08,E9,2A,00,44,66,FC,52,
5035215,0340412E,true,Rx,0,8,7A,80,00,5D,80,00,00,00,
5035511,19000026,true,Rx,0,8,00,00,01,40,38,11,84,00,
5036018,01C04026,true,Rx,0,8,80,00,80,00,80,00,80,00,
5036298,02000026,true,Rx,0,8,7F,34,00,DC,4C,00,E0,AC,
5036578,02104136,true,Rx,0,8,BB,00,3F,FF,07,E0,00,00,
5036859,02804026,true,Rx,0,8,37,FF,76,3E,F7,63,0D,FF,
5037148,02C00020,true,Rx,0,8,00,00,00,00,00,02,75,81,
5037425,0300410E,true,Rx,0,8,B8,97,28,21,87,CC,FC,00,
5037716,19A00002,true,Rx,0,8,6E,00,00,00,00,00,00,F7,
5038654,0100082C,true,Rx,0,8,00,C0,BF,A8,65,FF,02,71,
5038926,0110483C,true,Rx,0,8,08,E9,2A,00,44,66,FC,52,
5045218,0340412E,true,Rx,0,8,7B,80,00,4D,80,00,00,00,
5046123,00800006,true,Rx,0,8,C1,E1,0E,5B,41,E1,AE,64,
5046414,0090411E,true,Rx,0,8,C2,00,60,D0,00,00,00,00,
5046694,0300410E,true,Rx,0,8,38,97,28,33,07,CC,6C,00,
5046973,03800006,true,Rx,0,8,78,00,3D,1D,7F,E9,0A,01,
5048512,0100082C,true,Rx,0,8,00,C0,BF,A8,75,FF,02,71,
5048794,0110483C,true,Rx,0,8,08,E9,2A,00,44,66,FC,52,
5049083,1A200020,true,Rx,0,8,4E,00,00,00,00,00,02,2C,
5049373,1B700030,true,Rx,0,8,25,00,1C,00,00,00,00,00,
5050025,01C04026,true,Rx,0,8,80,00,80,00,80,00,80,00,
5050305,02000026,true,Rx,0,8,7F,34,00,DC,4C,00,E0,AC,
5050595,02104136,true,Rx,0,8,BB,00,3F,FF,07,E0,00,00,
5050875,02804026,true,Rx,0,8,37,FF,75,E5,F7,63,0D,FF,
5051166,02C00020,true,Rx,0,8,00,00,00,00,00,02,75,81,
5051452,19000026,true,Rx,0,8,00,00,01,40,38,11,84,00,
5055222,0340412E,true,Rx,0,8,7C,80,00,3D,80,00,00,00,
5056148,0300410E,true,Rx,0,8,B8,97,A8,33,87,CC,FC,00,
5056438,19E00006,true,Rx,0,8,00,00,18,E0,58,00,40,00,
5056719,1B600002,true,Rx,0,8,00,80,00,00,00,18,4C,00,
5058523,0100082C,true,Rx,0,8,00,C0,BF,A8,65,FF,02,71,
5058805,0110483C,true,Rx,0,8,08,E9,2A,00,44,66,FC,52,
5064012,01C04026,true,Rx,0,8,80,00,80,00,80,00,80,00,
5064298,02000026,true,Rx,0,8,7F,34,00,DC,4C,00,E0,AC,
5064578,02104136,true,Rx,0,8,BB,00,3F,FF,07,E0,00,00,
5064860,02804026,true,Rx,0,8,37,FF,75,89,F7,63,0D,FF,
5065149,02C00020,true,Rx,0,8,00,00,00,00,00,02,75,81,
5065429,0340412E,true,Rx,0,8,7D,80,00,2D,80,00,00,00,
5065721,19000026,true,Rx,0,8,00,00,01,40,38,11,84,00,
5066010,19A00002,true,Rx,0,8,12,00,00,00,00,00,00,F7,
5066288,00800006,true,Rx,0,8,09,E1,0E,5B,41,E1,2E,64,
5066579,0090411E,true,Rx,0,8,02,00,E0,D0,00,00,00,00,
5066849,0300410E,true,Rx,0,8,38,97,28,33,07,CC,6C,00,
5067140,03800006,true,Rx,0,8,38,00,3D,1D,7F,E9,0A,01,
5068731,0100082C,true,Rx,0,8,00,C0,BF,A8,65,FF,02,71,
5069011,0110483C,true,Rx,0,8,08,E9,AA,00,44,66,FC,52,
5072246,1B200002,true,Rx,0,8,00,00,00,00,00,00,0F,71,
5075228,0340412E,true,Rx,0,8,7E,80,00,1D,80,00,00,00,
5076153,0300410E,true,Rx,0,8,B8,98,28,33,87,D1,FC,00,
5078058,01C04026,true,Rx,0,8,80,00,80,00,80,00,80,00,
5078337,02000026,true,Rx,0,8,7F,34,00,DC,4C,00,E0,AC,
5078627,0100082C,true,Rx,0,8,00,C0,BF,A8,65,FF,02,71,
5078909,0110483C,true,Rx,0,8,08,E9,2A,00,44,66,FC,52,
5079188,02104136,true,Rx,0,8,BB,00,3F,FF,07,E0,00,00,
5079473,02804026,true,Rx,0,8,37,FF,75,2D,F7,63,0D,FF,
5079764,02C00020,true,Rx,0,8,00,00,00,00,00,02,75,81,
5080146,19000026,true,Rx,0,8,00,00,01,40,38,11,84,00,
5085220,0340412E,true,Rx,0,8,7F,80,00,0D,80,00,00,00,
5086165,00800006,true,Rx,0,8,49,E4,0E,5C,41,E4,2E,64,
5086446,0090411E,true,Rx,0,8,02,00,E0,D0,00,00,00,00,
5086726,0300410E,true,Rx,0,8,B8,98,A8,33,87,D1,FC,00,
5087005,03800006,true,Rx,0,8,38,00,3D,1D,7F,E9,0A,01,
5088513,0100082C,true,Rx,0,8,00,C0,BF,A8,66,00,02,71,
5088795,0110483C,true,Rx,0,8,08,E9,2A,00,44,66,FC,52,
5092075,01C04026,true,Rx,0,8,80,00,80,00,80,00,80,00,
5092361,02000026,true,Rx,0,8,7F,34,00,DC,4C,00,E0,AC,
5092642,02104136,true,Rx,0,8,BB,00,3F,FF,07,E0,00,00,
5092922,02804026,true,Rx,0,8,37,FF,74,CF,F7,63,0D,FF,
5093212,02C00020,true,Rx,0,8,00,00,00,00,00,02,75,81,
5093492,19A00002,true,Rx,0,8,02,00,00,00,00,00,00,F7,
5095250,0340412E,true,Rx,0,8,70,80,00,FD,80,00,00,00,
5095541,19000026,true,Rx,0,8,00,00,01,40,38,11,84,00,
5096210,0300410E,true,Rx,0,8,38,98,28,32,07,D1,6C,00,
5098567,0100082C,true,Rx,0,8,00,C0,BF,A8,66,00,02,71,
5098850,0110483C,true,Rx,0,8,08,E9,2A,00,44,66,FC,52,
5105234,0340412E,true,Rx,0,8,71,80,00,ED,80,00,00,00,
5106077,01C04026,true,Rx,0,8,80,00,80,00,80,00,80,00,
5106358,00800006,true,Rx,0,8,81,E6,0E,5C,41,E6,AE,64,
5106637,0090411E,true,Rx,0,8,42,00,60,D0,00,00,00,00,
5106918,02000026,true,Rx,0,8,7F,34,00,DC,4C,00,E0,AC,
5107208,02104136,true,Rx,0,8,BB,00,3F,FF,07,E0,00,00,
5107482,02804026,true,Rx,0,8,37,FF,74,70,F7,63,0D,FF,
5107773,02C00020,true,Rx,0,8,00,00,00,00,00,02,75,81,
5108053,0300410E,true,Rx,0,8,B8,98,28,32,87,D3,FC,00,
5108333,03800006,true,Rx,0,8,38,00,3D,1D,7F,E9,0A,01,
5108624,0100082C,true,Rx,0,8,00,C0,BF,A8,66,00,02,71,
5108904,0110483C,true,Rx,0,8,08,E9,2A,00,44,66,FC,52,
5109194,19E00006,true,Rx,0,8,00,00,18,C0,58,00,40,00,
5110143,19000026,true,Rx,0,8,00,FF,01,40,38,11,8C,00,
5115220,0340412E,true,Rx,0,8,72,80,00,DD,80,00,00,00,
5116186,0300410E,true,Rx,0,8,B8,98,28,32,87,D3,FC,00,
5118441,0100082C,true,Rx,0,8,00,C0,BF,A8,66,00,02,71,
5118723,0110483C,true,Rx,0,8,08,E9,AA,00,44,66,FC,52,
5120081,01C04026,true,Rx,0,8,80,00,80,00,80,00,80,00,
5120362,02000026,true,Rx,0,8,7F,34,00,DC,4C,00,E0,AC,
5120652,02104136,true,Rx,0,8,BB,00,3F,FF,07,E0,00,00,
5120923,02804026,true,Rx,0,8,37,FF,74,12,F7,63,0D,FF,
5121213,02C00020,true,Rx,0,8,00,00,00,00,00,02,75,81,
5121507,19A00002,true,Rx,0,8,12,00,00,00,00,00,00,F7,
5125225,0340412E,true,Rx,0,8,73,80,00,CD,80,00,00,00,
5125512,19000026,true,Rx,0,8,00,FF,01,40,38,11,84,00,
5126214,00800006,true,Rx,0,8,C9,E6,0E,5C,41,E6,2E,64,
5126494,0090411E,true,Rx,0,8,02,18,E0,B3,00,00,00,00,
5126775,0300410E,true,Rx,0,8,38,98,A8,32,07,D3,6C,00,
5127055,03800006,true,Rx,0,8,38,00,3D,1D,7F,E9,0A,01,
5128533,0100082C,true,Rx,0,8,00,C0,BF,A8,66,00,02,71,
5128815,0110483C,true,Rx,0,8,08,E9,2A,00,44,66,FC,52,
5134075,01C04026,true,Rx,0,8,80,00,80,00,80,00,80,00,
5134361,02000026,true,Rx,0,8,7F,34,00,DC,4C,00,E0,AC,
5134650,02104136,true,Rx,0,8,BB,00,3F,FF,07,E0,00,00,
5134922,02804026,true,Rx,0,8,37,FF,73,B3,F7,63,0D,FF,
5135212,02C00020,true,Rx,0,8,00,00,00,00,00,02,75,81,
5135503,0340412E,true,Rx,0,8,74,80,00,BD,80,00,00,00,
5136293,0300410E,true,Rx,0,8,B8,90,28,33,87,D3,FC,00,
5138598,0100082C,true,Rx,0,8,00,C0,BF,A8,76,00,02,71,
5138879,0110483C,true,Rx,0,8,08,E9,2A,00,44,66,FC,52,
5140157,19000026,true,Rx,0,8,00,FF,01,40,38,11,84,00,
5145230,0340412E,true,Rx,0,8,75,80,00,AD,80,00,00,00,
5146228,00800006,true,Rx,0,8,01,E6,0E,57,41,E6,AE,64,
5146508,0090411E,true,Rx,0,8,C2,18,60,B3,00,00,00,00,
5146788,0300410E,true,Rx,0,8,38,90,28,33,07,D3,6C,00,
5147069,03800006,true,Rx,0,8,78,00,3D,1D,7F,E9,0A,01,
5148021,01C04026,true,Rx,0,8,80,00,80,00,80,00,80,00,
5148310,02000026,true,Rx,0,8,7F,34,00,DC,4C,00,E0,AC,
5148591,0100082C,true,Rx,0,8,00,C0,BF,A8,66,00,02,71,
5148871,0110483C,true,Rx,0,8,08,E9,2A,00,44,66,FC,52,
5149161,02104136,true,Rx,0,8,BB,00,3F,FF,07,E0,00,00,
5149436,02804026,true,Rx,0,8,37,FF,73,54,F7,63,0D,FF,
5149727,02C00020,true,Rx,0,8,00,00,00,00,00,02,75,81,
5150016,19A00002,true,Rx,0,8,6E,00,00,00,00,00,00,F7,
5155224,0340412E,true,Rx,0,8,76,80,00,9D,80,00,00,00,
5155511,19000026,true,Rx,0,8,00,FF,01,40,38,11,84,00,
5156235,0300410E,true,Rx,0,8,B8,8F,A8,33,87,D3,FC,00,
5156524,19E00006,true,Rx,0,8,00,00,18,E0,58,00,40,00,
5157237,1B200002,true,Rx,0,8,00,00,00,00,00,00,0F,71,
5158530,0100082C,true,Rx,0,8,00,C0,BF,A8,66,00,02,71,
5158810,0110483C,true,Rx,0,8,08,E9,2A,00,44,66,FC,52,
5162070,01C04026,true,Rx,0,8,80,00,80,00,80,00,80,00,
5162357,02000026,true,Rx,0,8,7F,34,00,DC,4C,00,E0,AC,
5162636,02104136,true,Rx,0,8,BB,00,3F,FF,07,E0,00,00,
5162916,02804026,true,Rx,0,8,37,FF,72,F5,F7,63,0D,FF,
5163207,02C00020,true,Rx,0,8,00,00,00,00,00,02,75,81,
5165220,0340412E,true,Rx,0,8,77,80,00,8D,80,00,00,00,
5166269,00800006,true,Rx,0,8,49,E6,0E,56,41,E6,2E,64,
5166549,0090411E,true,Rx,0,8,02,18,E0,B3,00,00,00,00,
5166819,0300410E,true,Rx,0,8,B8,8F,28,33,87,D3,FC,00,
5167110,03800006,true,Rx,0,8,38,00,3D,1D,7F,E9,0A,01,
5168546,0100082C,true,Rx,0,8,00,C0,BF,A8,66,00,02,71,
5168826,0110483C,true,Rx,0,8,08,E9,AA,00,44,66,FC,52,
5170207,19000026,true,Rx,0,8,00,FF,01,40,38,11,84,00,
5175231,0340412E,true,Rx,0,8,78,80,00,7D,80,00,00,00,
5176032,01C04026,true,Rx,0,8,80,00,80,00,80,00,80,00,
5176313,02000026,true,Rx,0,8,7F,34,00,DC,4C,00,E0,AC,
5176602,02104136,true,Rx,0,8,BB,00,3F,FF,07,E0,00,00,
5176873,02804026,true,Rx,0,8,37,FF,72,95,F7,63,0D,FF,
5177163,02C00020,true,Rx,0,8,00,00,00,00,00,02,75,81,
5177447,0300410E,true,Rx,0,8,38,8F,A8,33,07,D3,6C,00,
5177739,19A00002,true,Rx,0,8,12,00,00,00,00,00,00,F7,
5178595,0100082C,true,Rx,0,8,00,C0,BF,A8,66,00,02,71,
5178875,0110483C,true,Rx,0,8,08,E9,2A,00,44,66,FC,52,
5185228,0340412E,true,Rx,0,8,79,80,00,6D,80,00,00,00,
5185515,19000026,true,Rx,0,8,00,FF,01,40,38,11,84,00,
5186259,00800006,true,Rx,0,8,89,E6,0E,56,41,E6,AE,64,
5186548,0090411E,true,Rx,0,8,42,18,E0,B3,00,00,00,00,
5186819,0300410E,true,Rx,0,8,B8,8F,28,33,87,D3,FC,00,
5187099,03800006,true,Rx,0,8,38,00,3D,1D,7F,E9,0A,01,
5188548,0100082C,true,Rx,0,8,00,C0,BF,A8,66,00,02,71,
5188829,0110483C,true,Rx,0,8,08,E9,2A,00,44,66,FC,52,
5190056,01C04026,true,Rx,0,8,80,00,80,00,80,00,80,00,
5190346,02000026,true,Rx,0,8,7F,34,00,DC,4C,00,E0,AC,
5190625,02104136,true,Rx,0,8,BB,00,3F,FF,07,E0,00,00,
5190907,02804026,true,Rx,0,8,37,FF,72,36,F7,63,0D,FF,
5191196,02C00020,true,Rx,0,8,00,00,00,00,00,02,75,81,
5195233,0340412E,true,Rx,0,8,7A,80,00,5D,80,00,00,00,
5196272,0300410E,true,Rx,0,8,B8,8F,28,33,87,D3,FC,00,
5198412,0100082C,true,Rx,0,8,00,C0,BF,A8,66,00,02,71,
5198694,0110483C,true,Rx,0,8,08,E9,2A,00,44,66,FC,52,
5200146,19000026,true,Rx,0,8,00,FF,01,40,38,11,8C,00,
5204013,01C04026,true,Rx,0,8,80,00,80,00,80,00,80,00,
5204299,02000026,true,Rx,0,8,7F,34,00,DC,4C,00,E0,AC,
5204588,02104136,true,Rx,0,8,BB,00,3F,FF,07,E0,00,00,
5204860,02804026,true,Rx,0,8,37,FF,71,D7,F7,63,0D,FF,
5205149,02C00020,true,Rx,0,8,00,00,00,00,00,02,75,81,
5205430,0340412E,true,Rx,0,8,7B,80,00,4D,80,00,00,00,
5205721,19A00002,true,Rx,0,8,02,00,00,00,00,00,00,F7,
5206306,00800006,true,Rx,0,8,C9,E6,0E,56,41,E6,2E,64,
5206585,0090411E,true,Rx,0,8,02,0D,E1,0C,00,00,00,00,
5206866,0300410E,true,Rx,0,8,38,8F,A8,33,07,D3,6C,00,
5207156,03800006,true,Rx,0,8,38,00,3D,1D,7F,E9,0A,01,
5207446,19E00006,true,Rx,0,8,00,00,18,C0,58,00,40,00,
5208701,0100082C,true,Rx,0,8,00,C0,BF,A8,66,00,02,71,
5208980,0110483C,true,Rx,0,8,08,E9,2A,00,44,66,FC,52,
5213429,1BA0493C,true,Rx,0,8,0A,01,01,01,01,02,06,01,
5213716,1BE0493C,true,Rx,0,8,05,00,00,00,00,00,07,8F,
5215242,0340412E,true,Rx,0,8,7C,80,00,3D,80,00,00,00,
5215531,19000026,true,Rx,0,8,00,FF,01,40,38,11,84,00,
5216306,0300410E,true,Rx,0,8,B8,8F,28,33,87,CC,FC,00,
5218048,01C04026,true,Rx,0,8,80,00,80,00,80,00,80,00,
5218327,02000026,true,Rx,0,8,7F,34,00,DC,4C,00,E0,AC,
5218618,0100082C,true,Rx,0,8,00,C0,BF,A8,66,00,02,71,
5218888,0110483C,true,Rx,0,8,08,E9,AA,00,44,66,FC,52,
5219178,02104136,true,Rx,0,8,BB,00,3F,FF,07,E0,00,00,
5219458,02804026,true,Rx,0,8,37,FF,71,78,F7,63,0D,FF,
5219746,02C00020,true,Rx,0,8,00,00,00,00,00,02,75,81,
5225224,0340412E,true,Rx,0,8,7D,80,00,2D,80,00,00,00,
5226304,00800006,true,Rx,0,8,01,E2,0E,56,41,E2,2E,64,
5226593,0090411E,true,Rx,0,8,02,0D,61,0C,00,00,00,00,
5226865,0300410E,true,Rx,0,8,38,8F,28,33,07,CC,6C,00,
5227145,03800006,true,Rx,0,8,38,00,3D,1D,7F,E9,0A,01,
5227437,1B600002,true,Rx,0,8,00,80,00,00,00,18,4C,00,
5228552,0100082C,true,Rx,0,8,00,C0,BF,A8,76,00,02,71,
5228834,0110483C,true,Rx,0,8,08,E9,2A,00,44,66,FC,52,
5230145,19000026,true,Rx,0,8,00,FF,01,40,38,11,84,00,
5232038,01C04026,true,Rx,0,8,80,00,80,00,80,00,80,00,
5232329,02000026,true,Rx,0,8,7F,34,00,DC,4C,00,E0,AC,
5232608,02104136,true,Rx,0,8,BB,00,3F,FF,07,E0,00,00,
5232889,02804026,true,Rx,0,8,37,FF,71,18,F7,63,0D,FF,
5233180,02C00020,true,Rx,0,8,00,00,00,00,00,02,75,81,
5233463,19A00002,true,Rx,0,8,12,00,00,00,00,00,00,F7,
5235227,0340412E,true,Rx,0,8,7E,80,00,1D,80,00,00,00,
5236340,0300410E,true,Rx,0,8,B8,8F,A8,33,87,CC,FC,00,
5238492,0100082C,true,Rx,0,8,00,C0,BF,A8,66,00,02,71,
5238773,0110483C,true,Rx,0,8,08,E9,2A,00,44,66,FC,52,
5242250,1B200002,true,Rx,0,8,00,00,00,00,00,00,0F,71,
5245230,0340412E,true,Rx,0,8,7F,80,00,0D,80,00,00,00,
5245506,19000026,true,Rx,0,8,00,FF,01,40,38,11,84,00,
5246054,01C04026,true,Rx,0,8,80,00,80,00,80,00,80,00,
5246335,00800006,true,Rx,0,8,49,E2,0E,56,41,E2,AE,64,
5246614,0090411E,true,Rx,0,8,C2,0D,E1,0C,00,00,00,00,
5246897,02000026,true,Rx,0,8,7F,34,00,DC,4C,00,E0,AC,
5247186,02104136,true,Rx,0,8,BB,00,3F,FF,07,E0,00,00,
5247462,02804026,true,Rx,0,8,37,FF,70,B9,F7,63,0E,01,
5247754,02C00020,true,Rx,0,8,00,00,00,00,00,02,75,81,
5248023,0300410E,true,Rx,0,8,B8,8E,28,33,87,CC,FC,00,
5248302,03800006,true,Rx,0,8,78,00,3D,1D,7F,E9,0A,01,
5248718,0100082C,true,Rx,0,8,00,C0,BF,A8,66,00,02,71,
5248997,0110483C,true,Rx,0,8,08,E9,2A,00,44,66,FC,52,
5255230,0340412E,true,Rx,0,8,70,80,00,FD,80,00,00,00,
5256331,0300410E,true,Rx,0,8,38,8E,28,33,07,CC,6C,00,
5256621,19E00006,true,Rx,0,8,00,00,18,E0,58,00,40,00,
5258456,0100082C,true,Rx,0,8,00,C0,BF,A8,66,00,02,71,
5258736,0110483C,true,Rx,0,8,08,E9,2A,00,44,66,FC,52,
5259026,1AE0092C,true,Rx,0,8,C0,00,22,E0,41,A0,00,00,
5259307,1B700030,true,Rx,0,8,35,89,1C,00,00,00,03,00,
5260051,01C04026,true,Rx,0,8,80,00,80,00,80,00,80,00,
5260330,02000026,true,Rx,0,8,7F,34,00,DC,4C,00,E0,AC,
5260620,02104136,true,Rx,0,8,BB,00,3F,FF,07,E0,00,00,
5260891,02804026,true,Rx,0,8,37,FF,70,5A,F7,63,0D,FF,
5261181,02C00020,true,Rx,0,8,00,00,00,00,00,02,75,81,
5261468,19000026,true,Rx,0,8,00,FF,01,40,38,11,8C,00,
5261759,19A00002,true,Rx,0,8,6E,00,00,00,00,00,00,F7,
5265230,0340412E,true,Rx,0,8,71,80,00,ED,80,00,00,00,
5266351,00800006,true,Rx,0,8,89,E2,0E,56,41,E2,2E,64,
5266631,0090411E,true,Rx,0,8,02,0D,E1,0C,00,00,00,00,
5266912,0300410E,true,Rx,0,8,B8,8E,A8,33,87,CC,FC,00,
5267192,03800006,true,Rx,0,8,38,00,3D,1D,7F,E9,0A,01,
5268556,0100082C,true,Rx,0,8,00,C0,BF,A8,66,00,02,71,
5268836,0110483C,true,Rx,0,8,08,E9,AA,00,44,66,FC,52,
5274045,01C04026,true,Rx,0,8,80,00,80,00,80,00,80,00,
5274330,02000026,true,Rx,0,8,7F,34,00,DC,4C,00,E0,AC,
5274611,02104136,true,Rx,0,8,BB,00,3F,FF,07,E0,00,00,
5274891,02804026,true,Rx,0,8,37,FF,70,00,F7,63,0D,FF,
5275181,02C00020,true,Rx,0,8,00,00,00,00,00,02,75,81,
5275461,0340412E,true,Rx,0,8,72,80,00,DD,80,00,00,00,
5275742,19000026,true,Rx,0,8,00,FF,01,40,38,11,84,00,
5276389,0300410E,true,Rx,0,8,B8,8F,28,33,87,CC,FC,00,
5278663,0100082C,true,Rx,0,8,00,C0,BF,A8,66,00,02,71,
5278944,0110483C,true,Rx,0,8,08,E9,2A,00,44,66,FC,52,
5285237,0340412E,true,Rx,0,8,73,80,00,CD,80,00,00,00,
5286368,00800006,true,Rx,0,8,C1,E2,0E,56,41,E2,AE,64,
5286647,0090411E,true,Rx,0,8,42,0D,61,0C,00,00,00,00,
5286919,0300410E,true,Rx,0,8,38,8F,28,33,07,CC,6C,00,
5287208,03800006,true,Rx,0,8,38,00,3D,1D,7F,E9,0A,01,
5288037,01C04026,true,Rx,0,8,80,00,80,00,80,00,80,00,
5288318,02000026,true,Rx,0,8,7F,34,00,DC,4C,00,E0,AC,
5288597,0100082C,true,Rx,0,8,00,C0,BF,A8,66,00,02,71,
5288878,0110483C,true,Rx,0,8,08,E9,2A,00,44,66,FC,52,
5289168,02104136,true,Rx,0,8,BB,00,3F,FF,07,E0,00,00,
5289442,02804026,true,Rx,0,8,37,FF,70,00,F7,63,0D,FF,
5289733,02C00020,true,Rx,0,8,00,00,00,00,00,02,75,81,
5290024,19A00002,true,Rx,0,8,12,00,00,00,00,00,00,F7,
5290313,19000026,true,Rx,0,8,00,FF,01,40,38,11,8C,00,
5295225,0340412E,true,Rx,0,8,74,80,00,BD,80,00,00,00,
5296376,0300410E,true,Rx,0,8,B8,8F,A8,33,87,CC,FC,00,
5298445,0100082C,true,Rx,0,8,00,C0,BF,A8,66,00,02,71,
5298716,0110483C,true,Rx,0,8,08,E9,2A,00,44,66,FC,52,
5302049,01C04026,true,Rx,0,8,80,00,80,00,80,00,80,00,
5302335,02000026,true,Rx,0,8,7F,34,00,DC,4C,00,E0,AC,
5302625,02104136,true,Rx,0,8,BB,00,3F,FF,07,E0,00,00,
5302895,02804026,true,Rx,0,8,37,FF,70,00,F7,63,0D,FF,
5303186,02C00020,true,Rx,0,8,00,00,00,00,00,02,75,81,
5305231,0340412E,true,Rx,0,8,75,80,00,AD,80,00,00,00,
5305510,19000026,true,Rx,0,8,00,FF,01,40,38,11,84,00,
5306417,00800006,true,Rx,0,8,09,E2,0E,56,41,E2,2E,64,
5306697,0090411E,true,Rx,0,8,02,0D,E1,0C,00,00,00,00,
5306978,0300410E,true,Rx,0,8,38,8F,28,33,07,CC,6C,00,
5307257,03800006,true,Rx,0,8,38,00,3D,1D,7F,E9,0A,01,
5307548,19E00006,true,Rx,0,8,00,00,18,C0,58,00,40,00,
5308626,0100082C,true,Rx,0,8,00,C0,BF,A8,66,00,02,71,
5308906,0110483C,true,Rx,0,8,08,E9,2A,00,44,66,FC,52,
5315230,0340412E,true,Rx,0,8,76,80,00,9D,80,00,00,00,
5316032,01C04026,true,Rx,0,8,80,00,80,00,80,00,80,00,
5316311,02000026,true,Rx,0,8,7F,34,00,DC,4C,00,E0,AC,
5316600,02104136,true,Rx,0,8,BB,00,3F,FF,07,E0,00,00,
5316882,02804026,true,Rx,0,8,37,FF,70,00,F7,63,0D,FF,
5317172,02C00020,true,Rx,0,8,00,00,00,00,00,02,75,81,
5317445,0300410E,true,Rx,0,8,B8,8F,28,33,87,CC,FC,00,
5317737,19A00002,true,Rx,0,8,02,00,00,00,00,00,00,F7,
5318614,0100082C,true,Rx,0,8,00,C0,BF,A8,76,00,02,71,
5318896,0110483C,true,Rx,0,8,08,E9,AA,00,44,66,FC,52,
5320157,19000026,true,Rx,0,8,00,FF,01,40,38,11,84,00,
5325235,0340412E,true,Rx,0,8,77,80,00,8D,80,00,00,00,
5326397,00800006,true,Rx,0,8,49,E1,0E,56,41,E1,2E,64,
5326687,0090411E,true,Rx,0,8,02,03,E1,20,00,00,00,00,
5326968,0300410E,true,Rx,0,8,B8,8F,A8,33,87,CB,FC,00,
5327248,03800006,true,Rx,0,8,38,00,3D,1D,7F,E9,0A,01,
5327541,1B200002,true,Rx,0,8,00,00,00,00,00,00,0F,71,
5328501,0100082C,true,Rx,0,8,00,C0,BF,A8,66,00,02,71,
5328781,0110483C,true,Rx,0,8,08,E9,2A,00,44,66,FC,52,
5330071,01C04026,true,Rx,0,8,80,00,80,00,80,00,80,00,
5330351,02000026,true,Rx,0,8,7F,34,00,DC,4C,00,E0,AC,
5330642,02104136,true,Rx,0,8,BB,00,3F,FF,07,E0,00,00,
5330912,02804026,true,Rx,0,8,37,FF,70,00,F7,63,0D,FF,
5331202,02C00020,true,Rx,0,8,00,00,00,00,00,02,75,81,
5335228,0340412E,true,Rx,0,8,78,80,00,7D,80,00,00,00,
5335513,19000026,true,Rx,0,8,00,FF,01,40,38,11,8C,00,
5336422,0300410E,true,Rx,0,8,38,8F,28,33,07,CB,6C,00,
5338483,0100082C,true,Rx,0,8,00,C0,BF,A8,66,00,02,71,
5338763,0110483C,true,Rx,0,8,08,E9,2A,00,44,66,FC,52,
5344024,01C04026,true,Rx,0,8,80,00,80,00,80,00,80,00,
5344309,02000026,true,Rx,0,8,7F,34,00,DC,4C,00,E0,AC,
5344590,02104136,true,Rx,0,8,BB,00,3F,FF,07,E0,00,00,
5344870,02804026,true,Rx,0,8,37,FF,70,00,F7,63,0D,FF,
5345161,02C00020,true,Rx,0,8,00,00,00,00,00,02,75,81,
5345451,0340412E,true,Rx,0,8,79,80,00,6D,80,00,00,00,
5345742,19A00002,true,Rx,0,8,12,00,00,00,00,00,00,F7,
5346450,00800006,true,Rx,0,8,81,E1,0E,54,41,E1,AE,64,
5346732,0090411E,true,Rx,0,8,C2,03,61,20,00,00,00,00,
5347011,0300410E,true,Rx,0,8,B8,8C,28,33,87,CB,FC,00,
5347290,03800006,true,Rx,0,8,78,00,3D,1D,7F,E9,0A,01,
5348644,0100082C,true,Rx,0,8,00,C0,BF,A8,66,00,02,71,
5348925,0110483C,true,Rx,0,8,08,E9,2A,00,44,66,FC,52,
5350141,19000026,true,Rx,0,8,00,FF,01,40,38,11,84,00,
5355247,0340412E,true,Rx,0,8,7A,80,00,5D,80,00,00,00,
5356429,0300410E,true,Rx,0,8,B8,8C,28,33,87,CB,FC,00,
5356710,19E00006,true,Rx,0,8,00,00,18,E0,58,00,40,00,
5358060,01C04026,true,Rx,0,8,80,00,80,00,80,00,80,00,
5358351,02000026,true,Rx,0,8,7F,34,00,DC,4C,00,E0,AC,
5358630,0100082C,true,Rx,0,8,00,C0,BF,A8,66,00,02,71,
5358911,0110483C,true,Rx,0,8,08,E9,2A,00,44,66,FC,52,
5359202,02104136,true,Rx,0,8,BB,00,3F,FF,07,E0,00,00,
5359475,02804026,true,Rx,0,8,37,FF,70,00,F7,63,0D,FF,
5359767,02C00020,true,Rx,0,8,00,00,00,00,00,02,75,81,
5363476,1A200020,true,Rx,0,8,8E,00,02,2C,00,00,02,2C,
5365226,0340412E,true,Rx,0,8,7B,80,00,4D,80,00,00,00,
5365522,19000026,true,Rx,0,8,00,FF,01,40,38,11,8C,00,
5366451,00800006,true,Rx,0,8,C9,E1,0E,54,41,E1,2E,64,
5366733,0090411E,true,Rx,0,8,02,03,E1,20,00,00,00,00,
5367012,0300410E,true,Rx,0,8,38,8C,A8,33,07,CB,6C,00,
5367292,03800006,true,Rx,0,8,38,00,3D,1D,7F,E9,0A,01,
5368576,0100082C,true,Rx,0,8,00,C0,BF,A8,66,00,02,71,
5368846,0110483C,true,Rx,0,8,08,E9,AA,00,44,66,FC,52,
5372064,01C04026,true,Rx,0,8,80,00,80,00,80,00,80,00,
5372350,02000026,true,Rx,0,8,7F,34,00,DC,4C,00,E0,AC,
5372629,02104136,true,Rx,0,8,BB,00,3F,FF,07,E0,00,00,
5372911,02804026,true,Rx,0,8,37,FF,70,00,F7,63,0D,FF,
5373201,02C00020,true,Rx,0,8,00,00,00,00,00,02,75,81,
5373490,19A00002,true,Rx,0,8,6E,00,00,00,00,00,00,F7,
5375229,0340412E,true,Rx,0,8,7C,80,00,3D,80,00,00,00,
5376472,0300410E,true,Rx,0,8,B8,8C,28,33,87,CB,FC,00,
5378541,0100082C,true,Rx,0,8,00,C0,BF,A8,66,00,02,71,
5378822,0110483C,true,Rx,0,8,08,E9,2A,00,44,66,FC,52,
5380213,19000026,true,Rx,0,8,00,FF,01,40,38,11,84,00,
5385236,0340412E,true,Rx,0,8,7D,80,00,2D,80,00,00,00,
5386058,01C04026,true,Rx,0,8,80,00,80,00,80,00,80,00,
5386337,02000026,true,Rx,0,8,7F,34,00,DC,4C,00,E0,AC,
5386628,00800006,true,Rx,0,8,01,E1,0E,54,41,E1,2E,64,
5386909,0090411E,true,Rx,0,8,02,03,61,20,00,00,00,00,
5387198,02104136,true,Rx,0,8,BB,00,3F,FF,07,E0,00,00,
5387473,02804026,true,Rx,0,8,37,FF,70,00,F7,63,0D,FF,
5387764,02C00020,true,Rx,0,8,00,00,00,00,00,02,75,81,
5388043,0300410E,true,Rx,0,8,38,8C,28,33,07,CB,6C,00,
5388324,03800006,true,Rx,0,8,38,00,3D,1D,7F,E9,0A,01,
5388613,0100082C,true,Rx,0,8,00,C0,BF,A8,66,00,02,71,
5388894,0110483C,true,Rx,0,8,08,E9,2A,00,44,66,FC,52,
5395231,0340412E,true,Rx,0,8,7E,80,00,1D,80,00,00,00,
5395516,19000026,true,Rx,0,8,00,FF,01,40,38,11,84,00,
5396476,0300410E,true,Rx,0,8,B8,8A,A8,33,87,CB,FC,00,
5396758,1B600002,true,Rx,0,8,00,80,00,00,00,18,4C,00,
5398562,0100082C,true,Rx,0,8,00,C0,BF,A8,66,00,02,71,
5398842,0110483C,true,Rx,0,8,08,E9,2A,00,44,66,FC,52,
5400069,01C04026,true,Rx,0,8,80,00,80,00,80,00,80,00,
5400358,02000026,true,Rx,0,8,7F,34,00,DC,4C,00,E0,AC,
5400639,02104136,true,Rx,0,8,BB,00,3F,FF,07,E0,00,00,
5400919,02804026,true,Rx,0,8,37,FF,70,00,F7,63,0D,FF,
5401210,02C00020,true,Rx,0,8,00,00,00,00,00,02,75,81,
5401494,19A00002,true,Rx,0,8,12,00,00,00,00,00,00,F7,
5405232,0340412E,true,Rx,0,8,7F,80,00,0D,80,00,00,00,
5406476,00800006,true,Rx,0,8,49,E1,0E,53,41,E1,AE,64,
5406768,0090411E,true,Rx,0,8,42,03,E1,20,00,00,00,00,
5407047,0300410E,true,Rx,0,8,B8,8A,28,33,87,CB,FC,00,
5407326,03800006,true,Rx,0,8,38,00,3D,1D,7F,E9,0A,01,
5407620,19E00006,true,Rx,0,8,00,00,18,C0,58,00,40,00,
5408519,0100082C,true,Rx,0,8,00,C0,BF,A8,76,00,02,71,
5408799,0110483C,true,Rx,0,8,08,E9,2A,00,44,66,FC,52,
5410151,19000026,true,Rx,0,8,00,FF,01,40,38,11,8C,00,
5412262,1B200002,true,Rx,0,8,00,00,00,00,00,00,0F,71,
5414032,01C04026,true,Rx,0,8,80,00,80,00,80,00,80,00,
5414312,02000026,true,Rx,0,8,7F,34,00,DC,4B,00,E0,AC,
5414602,02104136,true,Rx,0,8,BB,00,3F,FF,07,E0,00,00,
5414882,02804026,true,Rx,0,8,37,FF,70,00,F7,63,0D,FF,
5415173,02C00020,true,Rx,0,8,00,00,00,00,00,02,75,81,
5415457,0340412E,true,Rx,0,8,70,80,00,FD,80,00,00,00,
5416520,0300410E,true,Rx,0,8,38,8A,A8,33,07,CB,6C,00,
5418560,0100082C,true,Rx,0,8,00,C0,BF,A8,66,00,02,71,
5418841,0110483C,true,Rx,0,8,08,E9,AA,00,44,66,FC,52,
5425242,0340412E,true,Rx,0,8,71,80,00,ED,80,00,00,00,
5425527,19000026,true,Rx,0,8,00,FF,01,40,38,11,84,00,
5426498,00800006,true,Rx,0,8,89,E1,0E,53,41,E1,2E,64,
5426780,0090411E,true,Rx,0,8,02,01,E1,2A,00,00,00,00,
5427059,0300410E,true,Rx,0,8,B8,8A,28,33,87,CB,FC,00,
5427342,03800006,true,Rx,0,8,38,00,3D,1D,7F,E9,0A,01,
5428033,01C04026,true,Rx,0,8,80,00,80,00,80,00,80,00,
5428314,02000026,true,Rx,0,8,7F,34,00,DC,4B,00,E0,AC,
5428603,0100082C,true,Rx,0,8,00,C0,BF,A8,66,00,02,71,
5428875,0110483C,true,Rx,0,8,08,E9,2A,00,44,66,FC,52,
5429164,02104136,true,Rx,0,8,BB,00,3F,FF,07,E0,00,00,
5429440,02804026,true,Rx,0,8,37,FF,70,00,F7,63,0D,FF,
5429732,02C00020,true,Rx,0,8,00,00,00,00,00,02,75,81,
5430022,19A00002,true,Rx,0,8,02,00,00,00,00,00,00,F7,
5435229,0340412E,true,Rx,0,8,72,80,00,DD,80,00,00,00,
5436513,0300410E,true,Rx,0,8,B8,8A,28,33,87,CB,FC,00,
5438408,0100082C,true,Rx,0,8,00,C0,BF,A8,66,00,02,71,
5438687,0110483C,true,Rx,0,8,08,E9,2A,00,44,66,FC,52,
5440151,19000026,true,Rx,0,8,00,FF,01,40,38,11,8C,00,
5442046,01C04026,true,Rx,0,8,80,00,80,00,80,00,80,00,
5442325,02000026,true,Rx,0,8,7F,34,00,DC,4B,00,E0,AC,
5442604,02104136,true,Rx,0,8,BB,00,3F,FF,07,E0,00,00,
5442886,02804026,true,Rx,0,8,37,FF,70,00,F7,63,0D,FF,
5443176,02C00020,true,Rx,0,8,00,00,00,00,00,02,75,81,
5445233,0340412E,true,Rx,0,8,73,80,00,CD,80,00,00,00,
5446550,00800006,true,Rx,0,8,C1,E1,0E,53,41,E1,AE,64,
5446830,0090411E,true,Rx,0,8,C2,01,61,2A,00,00,00,00,
5447110,0300410E,true,Rx,0,8,38,8A,28,33,07,CB,6C,00,
5447391,03800006,true,Rx,0,8,78,00,3D,1D,7F,E9,0A,01,
5448607,0100082C,true,Rx,0,8,00,C0,BF,A8,66,00,02,71,
5448889,0110483C,true,Rx,0,8,08,E9,2A,00,44,66,FC,52,
5455229,0340412E,true,Rx,0,8,74,80,00,BD,80,00,00,00,
5455514,19000026,true,Rx,0,8,00,FF,01,40,38,11,84,00,
5456022,01C04026,true,Rx,0,8,80,00,80,00,80,00,80,00,
5456302,02000026,true,Rx,0,8,7F,34,00,DC,4B,00,E0,AC,
5456593,02104136,true,Rx,0,8,BB,00,3F,FF,07,E0,00,00,
5456863,02804026,true,Rx,0,8,37,FF,70,1B,F7,63,0D,FF,
5457152,02C00020,true,Rx,0,8,00,00,00,00,00,02,75,81,
5457430,0300410E,true,Rx,0,8,B8,8A,A8,33,87,CB,FC,00,
5457721,19A00002,true,Rx,0,8,12,00,00,00,00,00,00,F7,
5458010,19E00006,true,Rx,0,8,00,00,18,E0,58,00,40,00,
5458681,0100082C,true,Rx,0,8,00,C0,BF,A8,66,00,02,71,
5458964,0110483C,true,Rx,0,8,08,E9,2A,00,44,66,FC,52,
5463423,1BA0493C,true,Rx,0,8,0B,01,01,01,02,03,03,01,
5465245,0340412E,true,Rx,0,8,75,80,00,AD,80,00,00,00,
5466541,00800006,true,Rx,0,8,09,E1,0E,53,41,E1,2E,64,
5466821,0090411E,true,Rx,0,8,02,01,E1,2A,00,00,00,00,
5467101,0300410E,true,Rx,0,8,38,8A,28,33,07,CB,6C,00,
5467381,03800006,true,Rx,0,8,38,00,3D,1D,7F,E9,0A,01,
5468539,0100082C,true,Rx,0,8,00,C0,BF,A8,66,00,02,71,
5468820,0110483C,true,Rx,0,8,08,E9,AA,00,44,66,FC,52,
5469110,1B700030,true,Rx,0,8,25,89,1C,00,00,00,03,00,
5470070,01C04026,true,Rx,0,8,80,00,80,00,80,00,80,00,
5470351,02000026,true,Rx,0,8,7F,34,00,DC,4B,00,E0,AC,
5470640,02104136,true,Rx,0,8,BB,00,3F,FF,07,E0,00,00,
5470911,02804026,true,Rx,0,8,37,FF,70,76,F7,63,0D,FF,
5471202,02C00020,true,Rx,0,8,00,00,00,00,00,02,75,81,
5471491,19000026,true,Rx,0,8,00,FF,01,40,38,11,8C,00,
5475229,0340412E,true,Rx,0,8,76,80,00,9D,80,00,00,00,
5476556,0300410E,true,Rx,0,8,B8,8A,28,33,87,CB,FC,00,
5478429,0100082C,true,Rx,0,8,00,C0,BF,A8,66,00,02,71,
5478709,0110483C,true,Rx,0,8,08,E9,2A,00,44,66,FC,52,
5484033,01C04026,true,Rx,0,8,80,00,80,00,80,00,80,00,
5484319,02000026,true,Rx,0,8,7F,34,00,DC,4B,00,E0,AC,
5484599,02104136,true,Rx,0,8,BB,00,3F,FF,07,E0,00,00,
5484880,02804026,true,Rx,0,8,37,FF,70,D3,F7,63,0D,FF,
5485171,02C00020,true,Rx,0,8,00,00,00,00,00,02,75,81,
5485450,0340412E,true,Rx,0,8,77,80,00,8D,80,00,00,00,
5485732,19000026,true,Rx,0,8,00,FF,01,40,38,11,84,00,
5486022,19A00002,true,Rx,0,8,6E,00,00,00,00,00,00,F7,
5486588,00800006,true,Rx,0,8,49,DE,0E,51,41,DE,AE,63,
5486869,0090411E,true,Rx,0,8,42,26,E1,D4,00,00,00,00,
5487138,0300410E,true,Rx,0,8,B8,86,A8,34,87,C7,FC,00,
5487429,03800006,true,Rx,0,8,38,00,3D,1D,7F,E9,0A,01,
5488752,0100082C,true,Rx,0,8,00,C0,BF,A8,66,00,02,71,
5489033,0110483C,true,Rx,0,8,08,E9,2A,00,44,66,FC,52,
5495244,0340412E,true,Rx,0,8,78,80,00,7D,80,00,00,00,
5496571,0300410E,true,Rx,0,8,38,86,28,34,07,C7,6C,00,
5497290,1B200002,true,Rx,0,8,00,00,00,00,00,00,0F,71,
5498035,01C04026,true,Rx,0,8,80,00,80,00,80,00,80,00,
5498314,02000026,true,Rx,0,8,7F,34,00,DC,4B,00,E0,AC,
5498593,0100082C,true,Rx,0,8,00,C0,BF,A8,66,00,02,71,
5498875,0110483C,true,Rx,0,8,08,E9,2A,00,44,66,FC,52,
5499164,02104136,true,Rx,0,8,BB,00,3F,FF,07,E0,00,00,
5499440,02804026,true,Rx,0,8,37,FF,71,31,F7,63,0E,01,
5499732,02C00020,true,Rx,0,8,00,00,00,00,00,02,75,81,
5500155,19000026,true,Rx,0,8,00,FF,01,40,38,11,8C,00,
5505239,0340412E,true,Rx,0,8,79,80,00,6D,80,00,00,00,
5506576,00800006,true,Rx,0,8,89,DE,0E,51,41,DE,2E,63,
5506857,0090411E,true,Rx,0,8,02,26,E1,D4,00,00,00,00,
5507136,0300410E,true,Rx,0,8,B8,86,A8,34,87,C7,FC,00,
5507417,03800006,true,Rx,0,8,38,00,3D,1D,7F,E9,0A,01,
5507708,19E00006,true,Rx,0,8,00,00,18,C0,58,00,40,00,
5508533,0100082C,true,Rx,0,8,00,C0,BF,A8,66,00,02,71,
5508805,0110483C,true,Rx,0,8,08,E9,2A,00,44,66,FC,52,
5512069,01C04026,true,Rx,0,8,80,00,80,00,80,00,80,00,
5512354,02000026,true,Rx,0,8,7F,34,00,DC,4B,00,E0,AC,
5512635,02104136,true,Rx,0,8,BB,00,3F,FF,07,E0,00,00,
5512916,02804026,true,Rx,0,8,37,FF,71,8F,F7,63,0D,FF,
5513205,02C00020,true,Rx,0,8,00,00,00,00,00,02,75,81,
5513496,19A00002,true,Rx,0,8,12,00,00,00,00,00,00,F7,
5515237,0340412E,true,Rx,0,8,7A,80,00,5D,80,00,00,00,
5515516,19000026,true,Rx,0,8,00,FF,01,40,38,11,84,00,
5516620,0300410E,true,Rx,0,8,B8,84,28,34,87,C7,FC,00,
5518586,0100082C,true,Rx,0,8,00,C0,BF,A8,66,00,02,71,
5518867,0110483C,true,Rx,0,8,08,E9,AA,00,44,66,FC,52,
5525231,0340412E,true,Rx,0,8,7B,80,00,4D,80,00,00,00,
5526043,01C04026,true,Rx,0,8,80,00,80,00,80,00,80,00,
5526322,02000026,true,Rx,0,8,7F,34,00,DC,4B,00,E0,AC,
5526603,00800006,true,Rx,0,8,C1,DE,0E,50,41,DE,2E,63,
5526883,0090411E,true,Rx,0,8,02,26,61,D4,00,00,00,00,
5527174,02104136,true,Rx,0,8,BB,00,3F,FF,07,E0,00,00,
5527447,02804026,true,Rx,0,8,37,FF,71,ED,F7,63,0D,FF,
5527738,02C00020,true,Rx,0,8,00,00,00,00,00,02,75,81,
5528019,0300410E,true,Rx,0,8,38,84,28,34,07,C7,6C,00,
5528298,03800006,true,Rx,0,8,38,00,3D,1D,7F,E9,0A,01,
5528639,0100082C,true,Rx,0,8,00,C0,BF,A8,66,00,02,71,
5528921,0110483C,true,Rx,0,8,08,E9,2A,00,44,66,FC,52,
5530165,19000026,true,Rx,0,8,00,FF,01,40,38,11,84,00,
5535245,0340412E,true,Rx,0,8,7C,80,00,3D,80,00,00,00,
5536613,0300410E,true,Rx,0,8,B8,7C,B8,34,87,C6,FC,00,
5538454,0100082C,true,Rx,0,8,00,C0,BF,A8,76,00,02,71,
5538726,0110483C,true,Rx,0,8,08,E9,2A,00,44,66,FC,52,
5540074,01C04026,true,Rx,0,8,80,00,80,00,80,00,80,00,
5540355,02000026,true,Rx,0,8,7F,34,00,DC,4B,00,E0,AC,
5540634,02104136,true,Rx,0,8,BB,00,3F,FF,07,E0,00,00,
5540915,02804026,true,Rx,0,8,37,FF,72,4C,F7,63,0D,FD,
5541205,02C00020,true,Rx,0,8,00,00,00,00,00,02,75,81,
5541489,19A00002,true,Rx,0,8,02,00,00,00,00,00,00,F7,
5545238,0340412E,true,Rx,0,8,7D,80,00,2D,80,00,00,00,
5545523,19000026,true,Rx,0,8,00,FF,01,40,38,11,8C,00,
5546618,00800006,true,Rx,0,8,09,DD,0E,4B,41,DD,AE,69,
5546899,0090411E,true,Rx,0,8,C2,44,E2,8D,00,00,00,00,
5547179,0300410E,true,Rx,0,8,38,7C,38,37,07,C6,6C,00,
5547461,03800006,true,Rx,0,8,78,00,3D,1D,7F,E9,0A,01,
5548595,0100082C,true,Rx,0,8,00,C0,BF,A8,66,00,02,71,
5548877,0110483C,true,Rx,0,8,08,E9,2A,00,44,66,FC,52,
5554058,01C04026,true,Rx,0,8,80,00,80,00,80,00,80,00,
5554333,02000026,true,Rx,0,8,7F,34,00,DC,4B,00,E0,AC,
5554623,02104136,true,Rx,0,8,BB,00,3F,FF,07,E0,00,00,
5554894,02804026,true,Rx,0,8,37,FF,72,AB,F7,63,0D,FF,
5555184,02C00020,true,Rx,0,8,00,00,00,00,00,02,75,81,
5555463,0340412E,true,Rx,0,8,7E,80,00,1D,80,00,00,00,
5556655,0300410E,true,Rx,0,8,B8,8D,38,37,87,D6,FC,00,
5556935,19E00006,true,Rx,0,8,00,00,18,E0,58,00,40,00,
5558573,0100082C,true,Rx,0,8,00,C0,BF,A8,66,00,02,71,
5558854,0110483C,true,Rx,0,8,08,E9,2A,00,44,66,FC,52,
5560151,19000026,true,Rx,0,8,00,FF,01,40,38,11,84,00,
5565257,0340412E,true,Rx,0,8,7F,80,00,0D,80,00,00,00,
5566635,00800006,true,Rx,0,8,49,E7,0E,50,41,E7,2E,78,
5566926,0090411E,true,Rx,0,8,02,41,E3,14,00,00,00,00,
5567196,0300410E,true,Rx,0,8,B8,85,B8,37,87,D5,FC,00,
5567486,03800006,true,Rx,0,8,38,00,3D,1D,7F,E9,0A,01,
5567767,1B600002,true,Rx,0,8,00,80,00,1C,00,18,4C,00,
5568058,01C04026,true,Rx,0,8,80,00,80,00,80,00,80,00,
5568337,02000026,true,Rx,0,8,7F,34,00,DC,4B,00,E0,AC,
5568628,02104136,true,Rx,0,8,BB,00,3F,FF,07,E0,00,00,
5568898,02804026,true,Rx,0,8,37,FF,73,0A,F7,63,0E,01,
5569198,02C00020,true,Rx,0,8,00,00,00,00,00,02,75,81,
5569477,0100082C,true,Rx,0,8,00,C0,BF,A8,66,00,02,71,
5569758,0110483C,true,Rx,0,8,08,E7,AA,00,44,66,FC,52,
5570047,19A00002,true,Rx,0,8,12,00,00,00,00,00,00,F7,
5575255,0340412E,true,Rx,0,8,70,80,00,FD,80,00,00,00,
5575542,19000026,true,Rx,0,8,00,FF,01,40,38,11,8C,00,
5576656,0300410E,true,Rx,0,8,38,85,38,37,07,D5,6C,00,
5578490,0100082C,true,Rx,0,8,00,C0,BF,A8,66,00,02,71,
5578772,0110483C,true,Rx,0,8,08,E7,22,00,44,66,FC,52,
5582073,01C04026,true,Rx,0,8,80,00,80,00,80,00,80,00,
5582348,02000026,true,Rx,0,8,7F,34,00,DC,4B,00,E0,AC,
5582639,02104136,true,Rx,0,8,BB,00,3F,FF,07,E0,00,00,
5582909,02804026,true,Rx,0,8,37,FF,73,6A,F7,63,0D,FF,
5583198,02C00020,true,Rx,0,8,00,00,00,00,00,02,75,81,
5583499,1B200002,true,Rx,0,8,00,00,00,00,00,00,0F,71,
5585237,0340412E,true,Rx,0,8,71,80,00,ED,80,00,00,00,
5586687,00800006,true,Rx,0,8,81,E7,0E,50,41,E7,AE,78,
5586968,0090411E,true,Rx,0,8,42,41,63,14,00,00,00,00,
5587238,0300410E,true,Rx,0,8,B8,85,38,28,87,D5,FC,00,
5587527,03800006,true,Rx,0,8,38,00,3D,1D,7F,E9,0A,01,
5588552,0100082C,true,Rx,0,8,00,C0,BF,A8,66,00,02,71,
5588833,0110483C,true,Rx,0,8,08,E7,22,00,44,66,FC,52,
5590224,19000026,true,Rx,0,8,00,FF,01,40,38,11,84,00,
5595235,0340412E,true,Rx,0,8,72,80,00,DD,80,00,00,00,
5596047,01C04026,true,Rx,0,8,80,00,80,00,80,00,80,00,
5596327,02000026,true,Rx,0,8,7F,34,00,DC,4B,00,E0,AC,
5596617,02104136,true,Rx,0,8,BB,00,3F,FF,07,E0,00,00,
5596897,02804026,true,Rx,0,8,37,FF,73,C9,F7,63,0D,FF,
5597188,02C00020,true,Rx,0,8,00,00,00,00,00,02,75,81,
5597461,0300410E,true,Rx,0,8,B8,82,38,28,87,D5,FC,00,
5597752,19A00002,true,Rx,0,8,6E,00,00,00,00,00,00,F7,
5598577,0100082C,true,Rx,0,8,00,C0,BF,A8,66,00,02,71,
5598860,0110483C,true,Rx,0,8,08,E7,22,00,44,66,FC,52,
5605244,0340412E,true,Rx,0,8,73,80,00,CD,80,00,00,00,
5605520,19000026,true,Rx,0,8,00,FF,01,40,38,11,84,00,
5607120,00800006,true,Rx,0,8,C9,E6,0E,4E,41,E6,2E,7D,
5607408,0090411E,true,Rx,0,8,02,52,E3,A3,00,00,00,00,
5607687,0300410E,true,Rx,0,8,38,82,B8,28,07,D5,6C,00,
5607969,03800006,true,Rx,0,8,38,00,3D,1D,7F,E9,0A,01,
5608258,19E00006,true,Rx,0,8,00,00,18,C0,58,00,40,00,
5608631,0100082C,true,Rx,0,8,00,C0,BF,A8,66,00,02,71,
5608912,0110483C,true,Rx,0,8,08,E7,22,00,44,66,FC,52,
5610106,01C04026,true,Rx,0,8,80,00,80,00,80,00,80,00,
5610385,02000026,true,Rx,0,8,7F,34,00,DC,4B,00,E0,AC,
5610664,02104136,true,Rx,0,8,BB,00,3F,FF,07,E0,00,00,
5610946,02804026,true,Rx,0,8,37,FF,74,28,F7,63,0D,FF,
5611235,02C00020,true,Rx,0,8,00,00,00,00,00,02,75,81,
5615240,0340412E,true,Rx,0,8,74,80,00,BD,80,00,00,00,
5616691,0300410E,true,Rx,0,8,B8,82,38,28,87,D5,FC,00,
5618419,0100082C,true,Rx,0,8,00,C0,BF,A8,66,00,02,71,
5618701,0110483C,true,Rx,0,8,08,E7,A2,00,44,66,FC,52,
5620153,19000026,true,Rx,0,8,00,FF,01,40,38,11,8C,00,
5624081,01C04026,true,Rx,0,8,80,00,80,00,80,00,80,00,
5624367,02000026,true,Rx,0,8,7F,34,00,DC,4B,00,E0,AC,
5624656,02104136,true,Rx,0,8,BB,00,3F,FF,07,E0,00,00,
5624927,02804026,true,Rx,0,8,37,FF,74,88,F7,63,0E,01,
5625217,02C00020,true,Rx,0,8,00,00,00,00,00,02,75,81,
5625498,0340412E,true,Rx,0,8,75,80,00,AD,80,00,00,00,
5625788,19A00002,true,Rx,0,8,12,00,00,00,00,00,00,F7,
5626734,00800006,true,Rx,0,8,01,E6,0E,4E,41,E6,2E,7D,
5627015,0090411E,true,Rx,0,8,02,52,63,A3,00,00,00,00,
5627294,0300410E,true,Rx,0,8,38,82,38,28,07,D5,6C,00,
5627573,03800006,true,Rx,0,8,38,00,3D,1D,7F,E9,0A,01,
5628713,0100082C,true,Rx,0,8,00,C0,BF,A8,76,00,02,71,
5628992,0110483C,true,Rx,0,8,08,E7,22,00,44,66,FC,52,
5635243,0340412E,true,Rx,0,8,76,80,00,9D,80,00,00,00,
5635530,19000026,true,Rx,0,8,00,FF,01,40,38,11,84,00,
5636974,0300410E,true,Rx,0,8,B8,7C,B8,28,87,D4,FC,00,
5638087,01C04026,true,Rx,0,8,80,00,80,00,80,00,80,00,
5638367,02000026,true,Rx,0,8,7F,34,00,DC,4C,00,E0,AC,
5638657,0100082C,true,Rx,0,8,00,C0,BF,A8,66,00,02,71,
5638938,0110483C,true,Rx,0,8,08,E7,22,00,44,66,FC,52,
5639217,02104136,true,Rx,0,8,BB,00,3F,FF,07,E0,00,00,
5639492,02804026,true,Rx,0,8,37,FF,74,E7,F7,63,0E,01,
5639783,02C00020,true,Rx,0,8,00,00,00,00,00,02,75,81,
5645234,0340412E,true,Rx,0,8,77,80,00,8D,80,00,00,00,
5646716,00800006,true,Rx,0,8,49,E6,0E,4A,41,E6,AE,7F,
5646997,0090411E,true,Rx,0,8,C2,1C,E3,D0,02,00,00,00,
5647285,0300410E,true,Rx,0,8,B8,7C,38,29,87,D4,FC,00,
5647554,03800006,true,Rx,0,8,78,00,3D,1D,7F,E9,0A,01,
5648525,0100082C,true,Rx,0,8,00,C0,BF,A8,66,00,02,71,
5648805,0110483C,true,Rx,0,8,08,E7,22,00,44,66,FC,52,
5650159,19000026,true,Rx,0,8,00,FF,01,40,38,11,8C,00,
5652114,01C04026,true,Rx,0,8,80,00,80,00,80,00,80,00,
5652395,02000026,true,Rx,0,8,7F,34,00,DC,4C,00,E0,AC,
5652684,02104136,true,Rx,0,8,BB,00,3F,FF,07,E0,00,00,
5652955,02804026,true,Rx,0,8,37,FF,75,46,F7,63,0D,FF,
5653245,02C00020,true,Rx,0,8,00,00,00,00,00,02,75,81,
5653539,19A00002,true,Rx,0,8,02,00,00,00,00,00,00,F7,
5655242,0340412E,true,Rx,0,8,78,80,00,7D,80,00,00,00,
5656757,0300410E,true,Rx,0,8,38,7C,B8,29,07,D4,6C,00,
5657048,19E00006,true,Rx,0,8,00,00,18,E0,58,00,40,00,
5658551,0100082C,true,Rx,0,8,00,C0,BF,A8,66,00,02,71,
5658832,0110483C,true,Rx,0,8,08,E7,22,00,44,66,FC,52,
5665241,0340412E,true,Rx,0,8,79,80,00,6D,80,00,00,00,
5665528,19000026,true,Rx,0,8,00,FF,01,40,38,11,84,00,
5666096,01C04026,true,Rx,0,8,80,00,80,00,80,00,80,00,
5666377,02000026,true,Rx,0,8,7F,34,00,DC,4C,00,E0,AC,
5666666,02104136,true,Rx,0,8,BB,00,3F,FF,07,E0,00,00,
5666948,00800006,true,Rx,0,8,89,E6,0E,47,41,E6,2E,81,
5667228,0090411E,true,Rx,0,8,02,28,E4,0B,02,00,00,00,
5667503,02804026,true,Rx,0,8,37,FF,75,A5,F7,63,0D,FF,
5667795,02C00020,true,Rx,0,8,00,00,00,00,00,02,75,81,
5668075,0300410E,true,Rx,0,8,B8,75,38,29,87,D3,FC,00,
5668354,03800006,true,Rx,0,8,38,00,3D,1D,7F,E9,0A,01,
5668644,1B200002,true,Rx,0,8,00,00,00,00,00,00,0F,71,
5668935,0100082C,true,Rx,0,8,00,C0,BF,A8,66,00,00,00,
5669215,0110483C,true,Rx,0,8,08,E7,A2,00,44,66,FC,52,
5675256,0340412E,true,Rx,0,8,7A,80,00,5D,80,00,00,00,
5676739,0300410E,true,Rx,0,8,B8,75,38,29,87,D3,FC,00,
5678457,0100082C,true,Rx,0,8,00,C0,BF,A8,66,00,00,00,
5678738,0110483C,true,Rx,0,8,08,E7,22,00,44,66,FC,52,
5679017,1A200020,true,Rx,0,8,CF,00,AA,2C,00,00,02,2C,
5679318,1AE0092C,true,Rx,0,8,00,00,22,E0,41,A0,00,00,
5679587,1B700030,true,Rx,0,8,25,89,1C,00,00,C0,03,00,
5680105,01C04026,true,Rx,0,8,80,00,80,00,80,00,80,00,
5680384,02000026,true,Rx,0,8,7F,34,00,DC,4C,00,E0,AC,
5680674,02104136,true,Rx,0,8,BB,00,3F,FF,07,E0,00,00,
5680946,02804026,true,Rx,0,8,37,FF,76,05,F7,63,0D,FD,
5681235,02C00020,true,Rx,0,8,00,00,00,00,00,02,75,81,
5681524,19000026,true,Rx,0,8,00,FF,01,40,38,11,8C,00,
5681815,19A00002,true,Rx,0,8,12,00,00,00,00,00,00,F7,
5685245,0340412E,true,Rx,0,8,7B,80,00,4D,80,00,00,00,
5686779,00800006,true,Rx,0,8,C9,E6,0E,47,41,E6,2E,81,
5687059,0090411E,true,Rx,0,8,02,17,E4,2D,02,00,00,00,
5687349,0300410E,true,Rx,0,8,38,75,B8,29,07,D3,6C,00,
5687628,03800006,true,Rx,0,8,38,00,3D,1D,7F,E9,0A,01,
5688529,0100082C,true,Rx,0,8,00,C0,BF,A8,66,00,00,00,
5688810,0110483C,true,Rx,0,8,08,E7,22,00,44,66,FC,52,
5694072,01C04026,true,Rx,0,8,80,00,80,00,80,00,80,00,
5694357,02000026,true,Rx,0,8,7F,34,00,DC,4C,00,E0,AC,
5694638,02104136,true,Rx,0,8,BB,00,3F,FF,07,E0,00,00,
5694918,02804026,true,Rx,0,8,37,FF,76,64,F7,63,0E,01,
5695208,02C00020,true,Rx,0,8,00,00,00,00,00,02,75,81,
5695488,0340412E,true,Rx,0,8,7C,80,00,3D,80,00,00,00,
5695769,19000026,true,Rx,0,8,00,FF,01,40,38,11,84,00,
5696797,0300410E,true,Rx,0,8,B8,6E,38,2A,87,D3,FC,00,
5698618,0100082C,true,Rx,0,8,00,C0,BF,A8,66,00,00,00,
5698899,0110483C,true,Rx,0,8,08,E7,22,00,44,66,FC,52,
5705254,0340412E,true,Rx,0,8,7D,80,00,2D,80,00,00,00,
5706777,00800006,true,Rx,0,8,01,E5,0E,42,41,E5,AE,82,
5707058,0090411E,true,Rx,0,8,42,17,64,2D,02,00,00,00,
5707335,0300410E,true,Rx,0,8,38,6E,38,2A,07,D3,6C,00,
5707625,03800006,true,Rx,0,8,38,00,3D,1D,7F,E9,0A,01,
5707917,19E00006,true,Rx,0,8,00,00,18,C0,58,00,40,00,
5708206,01C04026,true,Rx,0,8,80,00,80,00,80,00,80,00,
5708487,02000026,true,Rx,0,8,7F,34,00,DC,4C,00,E0,AC,
5708778,0100082C,true,Rx,0,8,00,C0,BF,A8,66,00,00,00,
5709057,0110483C,true,Rx,0,8,08,E7,22,00,44,66,FC,52,
5709336,02104136,true,Rx,0,8,BB,00,3F,FF,07,E0,00,00,
5709615,02804026,true,Rx,0,8,37,FF,76,C3,F7,63,0E,01,
5709906,02C00020,true,Rx,0,8,00,00,00,00,00,02,75,81,
5710197,19000026,true,Rx,0,8,00,FF,01,40,38,11,8C,00,
5710476,19A00002,true,Rx,0,8,6E,00,00,00,00,00,00,F7,
5713711,1BA0493C,true,Rx,0,8,0C,03,01,01,02,02,01,09,
5713977,1BE0493C,true,Rx,0,8,11,4D,57,32,31,34,32,37,
5715266,0340412E,true,Rx,0,8,7E,80,00,1D,80,00,00,00,
5716793,0300410E,true,Rx,0,8,B8,68,B8,2A,87,D2,FC,00,
5718522,0100082C,true,Rx,0,8,00,C0,BF,A8,76,00,00,00,
5718793,0110483C,true,Rx,0,8,08,E7,A2,00,44,66,FC,52,
5722080,01C04026,true,Rx,0,8,80,00,80,00,80,00,80,00,
5722357,02000026,true,Rx,0,8,7F,34,00,DC,4C,00,E0,AC,
5722646,02104136,true,Rx,0,8,BB,00,3F,FF,07,E0,00,00,
5722927,02804026,true,Rx,0,8,37,FF,77,23,F7,63,0D,FF,
5723218,02C00020,true,Rx,0,8,00,00,00,00,00,02,75,81,
5725261,0340412E,true,Rx,0,8,7F,80,00,0D,80,00,00,00,
5725552,19000026,true,Rx,0,8,00,FF,01,40,38,11,84,00,
5726830,00800006,true,Rx,0,8,49,E5,0E,3F,41,E5,2E,83,
5727110,0090411E,true,Rx,0,8,02,21,E4,5B,02,00,00,00,
5727390,0300410E,true,Rx,0,8,B8,68,38,2A,87,D2,FC,00,
5727670,03800006,true,Rx,0,8,38,00,3D,1D,7F,E9,0A,01,
5728653,0100082C,true,Rx,0,8,00,C0,BF,A8,66,00,00,00,
5728934,0110483C,true,Rx,0,8,08,E7,22,00,44,66,FC,52,
5735246,0340412E,true,Rx,0,8,70,80,00,FD,80,00,00,00,
5736059,01C04026,true,Rx,0,8,80,00,80,00,80,00,80,00,
5736339,02000026,true,Rx,0,8,7F,34,00,DC,4B,00,E0,AC,
5736628,02104136,true,Rx,0,8,BB,00,3F,FF,07,E0,00,00,
5736900,02804026,true,Rx,0,8,37,FF,77,6C,F7,63,0D,FD,
5737189,02C00020,true,Rx,0,8,00,00,00,00,00,02,75,81,
5737473,0300410E,true,Rx,0,8,38,68,38,2B,07,D2,6C,00,
5737765,19A00002,true,Rx,0,8,12,00,00,00,00,00,00,F7,
5738044,1B600002,true,Rx,0,8,00,80,00,0C,00,18,4C,00,
5738613,0100082C,true,Rx,0,8,00,C0,BF,A8,66,00,00,00,
5738893,0110483C,true,Rx,0,8,08,E7,22,00,44,66,FC,52,
5740167,19000026,true,Rx,0,8,00,FF,01,40,38,11,84,00,
5745245,0340412E,true,Rx,0,8,71,80,00,ED,80,00,00,00,
5746811,00800006,true,Rx,0,8,89,E5,0E,3B,41,E5,AE,85,
5747090,0090411E,true,Rx,0,8,C2,1F,E4,85,03,00,00,00,
5747367,0300410E,true,Rx,0,8,B8,62,B8,2B,87,D2,FC,00,
5747648,03800006,true,Rx,0,8,78,00,3D,1D,7F,E9,0A,01,
5748628,0100082C,true,Rx,0,8,00,C0,BF,A8,66,00,00,00,
5748908,0110483C,true,Rx,0,8,08,E7,22,00,44,66,FC,52,
5750088,01C04026,true,Rx,0,8,80,00,80,00,80,00,80,00,
5750378,02000026,true,Rx,0,8,7F,34,00,DC,4C,00,E0,AC,
5750658,02104136,true,Rx,0,8,BB,00,3F,FF,07,E0,00,00,
5750938,02804026,true,Rx,0,8,37,FF,77,98,F7,63,0D,FF,
5751228,02C00020,true,Rx,0,8,00,00,00,00,00,02,75,81,
5753390,1B200002,true,Rx,0,8,00,00,00,00,00,00,0F,71,
5755242,0340412E,true,Rx,0,8,72,80,00,DD,80,00,00,00,
5755529,19000026,true,Rx,0,8,00,FF,01,40,38,11,8C,00,
5757180,0300410E,true,Rx,0,8,B8,62,38,2B,87,D2,FC,00,
5757467,19E00006,true,Rx,0,8,00,00,18,E0,58,00,40,00,
5758582,0100082C,true,Rx,0,8,00,C0,BF,A8,66,00,00,00,
5758863,0110483C,true,Rx,0,8,08,E7,22,00,44,66,FC,52,
5764063,01C04026,true,Rx,0,8,80,00,80,00,80,00,80,00,
5764338,02000026,true,Rx,0,8,7F,34,00,DC,4C,00,E0,AC,
5764629,02104136,true,Rx,0,8,BB,00,3F,FF,07,E0,00,00,
5764910,02804026,true,Rx,0,8,37,FF,77,B7,F7,63,0E,01,
5765199,02C00020,true,Rx,0,8,00,00,00,00,00,02,75,81,
5765480,0340412E,true,Rx,0,8,73,80,00,CD,80,00,00,00,
5765760,19A00002,true,Rx,0,8,02,00,00,00,00,00,00,F7,
5766861,00800006,true,Rx,0,8,C1,E5,0E,3B,41,E5,2E,85,
5767151,0090411E,true,Rx,0,8,02,1F,64,85,03,00,00,00,
5767420,0300410E,true,Rx,0,8,38,62,38,2B,07,D2,6C,00,
5767712,03800006,true,Rx,0,8,38,00,3D,1D,7F,E9,0A,01,
5768695,0100082C,true,Rx,0,8,00,C0,BF,A8,66,00,00,00,
5768974,0110483C,true,Rx,0,8,08,E7,A2,00,44,66,FC,52,
5770159,19000026,true,Rx,0,8,00,FF,01,40,38,11,84,00,
5775255,0340412E,true,Rx,0,8,74,80,00,BD,80,00,00,00,
5776840,0300410E,true,Rx,0,8,B8,5D,B8,2B,87,D1,FC,00,
5778063,01C04026,true,Rx,0,8,80,00,80,00,80,00,80,00,
5778344,02000026,true,Rx,0,8,7F,34,00,DC,4C,00,E0,AC,
5778634,0100082C,true,Rx,0,8,00,C0,BF,A8,66,00,00,00,
5778914,0110483C,true,Rx,0,8,08,E7,22,00,44,66,FC,52,
5779195,02104136,true,Rx,0,8,BB,00,3F,FF,07,E0,00,00,
5779478,02804026,true,Rx,0,8,37,FF,77,CA,F7,63,0D,FF,
5779769,02C00020,true,Rx,0,8,00,00,00,00,00,02,75,81,
5785242,0340412E,true,Rx,0,8,75,80,00,AD,80,00,00,00,
5785528,19000026,true,Rx,0,8,00,FF,01,40,38,11,8C,00,
5786860,00800006,true,Rx,0,8,09,E5,0E,38,41,E5,2E,85,
5787149,0090411E,true,Rx,0,8,02,15,E4,A0,03,00,00,00,
5787429,0300410E,true,Rx,0,8,38,5D,38,2B,07,D1,6C,00,
5787710,03800006,true,Rx,0,8,38,00,3D,1D,7F,E9,0A,01,
5788628,0100082C,true,Rx,0,8,00,C0,BF,A8,66,00,00,00,
5788908,0110483C,true,Rx,0,8,08,E7,22,00,44,66,FC,52,
5792080,01C04026,true,Rx,0,8,80,00,80,00,80,00,80,00,
5792356,02000026,true,Rx,0,8,7F,34,00,DC,4C,00,E0,AC,
5792646,02104136,true,Rx,0,8,BB,00,3F,FF,07,E0,00,00,
5792917,02804026,true,Rx,0,8,37,FF,77,D6,F7,63,0D,FF,
5793207,02C00020,true,Rx,0,8,00,00,00,00,00,02,75,81,
5793496,19A00002,true,Rx,0,8,12,00,00,00,00,00,00,F7,
5795246,0340412E,true,Rx,0,8,76,80,00,9D,80,00,00,00,
5796892,0300410E,true,Rx,0,8,B8,57,38,2C,87,D1,FC,00,
5798538,0100082C,true,Rx,0,8,00,C0,BF,A8,66,00,00,00,
5798818,0110483C,true,Rx,0,8,08,E7,22,00,44,66,FC,52,
5800230,19000026,true,Rx,0,8,00,FF,01,40,38,11,84,00,
5805542,0340412E,true,Rx,0,8,77,80,00,8D,80,00,00,00,
5806066,01C04026,true,Rx,0,8,80,00,80,00,80,00,80,00,
5806346,02000026,true,Rx,0,8,7F,34,00,DC,4C,00,E0,AC,
5806635,02104136,true,Rx,0,8,BB,00,3F,FF,07,E0,00,00,
5806917,00800006,true,Rx,0,8,41,E4,0E,34,41,E4,AE,86,
5807196,0090411E,true,Rx,0,8,42,15,64,A0,03,00,00,00,
5807477,02804026,true,Rx,0,8,37,FF,77,DD,F7,63,0D,FD,
5807764,02C00020,true,Rx,0,8,00,00,00,00,00,02,75,81,
5808043,0300410E,true,Rx,0,8,B8,57,38,2C,87,D1,FC,00,
5808324,03800006,true,Rx,0,8,38,00,3D,1D,7F,E9,0A,01,
5808613,19E00006,true,Rx,0,8,00,00,18,C0,58,00,40,00,
5808904,0100082C,true,Rx,0,8,00,C0,BF,A8,76,00,00,00,
5809185,0110483C,true,Rx,0,8,08,E7,22,00,44,66,FC,52,
5815252,0340412E,true,Rx,0,8,78,80,00,7D,80,00,00,00,
5815538,19000026,true,Rx,0,8,00,FF,01,40,38,11,84,00,
5816892,0300410E,true,Rx,0,8,38,57,B8,2C,07,D1,6C,00,
5818539,0100082C,true,Rx,0,8,00,C0,BF,A8,66,00,00,00,
5818809,0110483C,true,Rx,0,8,08,E7,A2,00,44,66,FC,52,
5820067,01C04026,true,Rx,0,8,80,00,80,00,80,00,80,00,
5820346,02000026,true,Rx,0,8,7F,34,00,DC,4C,00,E0,AC,
5820637,02104136,true,Rx,0,8,BB,00,3F,FF,07,E0,00,00,
5820917,02804026,true,Rx,0,8,37,FF,77,DF,F7,63,0D,FF,
5821207,02C00020,true,Rx,0,8,00,00,00,00,00,02,75,81,
5821492,19A00002,true,Rx,0,8,6E,00,00,00,00,00,00,F7,
5825241,0340412E,true,Rx,0,8,79,80,00,6D,80,00,00,00,
5826898,00800006,true,Rx,0,8,89,E4,0E,31,41,E4,2E,88,
5827177,0090411E,true,Rx,0,8,02,23,E4,EC,03,00,00,00,
5827456,0300410E,true,Rx,0,8,B8,52,38,2C,87,D1,FC,00,
5827736,03800006,true,Rx,0,8,38,00,3D,1D,7F,E9,0A,01,
5828541,0100082C,true,Rx,0,8,00,C0,BF,A8,66,00,00,00,
5828821,0110483C,true,Rx,0,8,08,E7,22,00,44,66,FC,52,
5830165,19000026,true,Rx,0,8,00,FF,01,40,38,11,8C,00,
5834093,01C04026,true,Rx,0,8,80,00,80,00,80,00,80,00,
5834369,02000026,true,Rx,0,8,7F,34,00,DC,4C,00,E0,AC,
5834659,02104136,true,Rx,0,8,BB,00,3F,FF,07,E0,00,00,
5834929,02804026,true,Rx,0,8,37,FF,77,E4,F7,63,0D,FF,
5835219,02C00020,true,Rx,0,8,00,00,00,00,00,02,75,81,
5835509,0340412E,true,Rx,0,8,7A,80,00,5D,80,00,00,00,
5836928,0300410E,true,Rx,0,8,B8,4C,38,2C,87,D0,FC,00,
5838502,1B200002,true,Rx,0,8,00,00,00,00,00,00,0F,71,
5838792,0100082C,true,Rx,0,8,00,C0,BF,A8,66,00,00,00,
5839073,0110483C,true,Rx,0,8,08,E7,22,00,44,66,FC,52,
5845254,0340412E,true,Rx,0,8,7B,80,00,4D,80,00,00,00,
5845540,19000026,true,Rx,0,8,00,FF,01,40,38,11,84,00,
5846923,00800006,true,Rx,0,8,C9,E4,0E,2E,41,E4,AE,88,
5847203,0090411E,true,Rx,0,8,C2,11,E5,01,04,00,00,00,
5847483,0300410E,true,Rx,0,8,38,4C,B8,2E,07,D0,6C,00,
5847754,03800006,true,Rx,0,8,78,00,3D,1D,7F,E9,0A,01,
5848054,01C04026,true,Rx,0,8,80,00,80,00,80,00,80,00,
5848334,02000026,true,Rx,0,8,7F,34,00,DC,4C,00,E0,AC,
5848624,02104136,true,Rx,0,8,BB,00,3F,FF,07,E0,00,00,
5848914,0100082C,true,Rx,0,8,00,C0,BF,A8,66,00,00,00,
5849195,0110483C,true,Rx,0,8,08,E7,22,00,44,66,FC,52,
5849473,02804026,true,Rx,0,8,37,FF,77,E7,F7,63,0D,FF,
5849765,02C00020,true,Rx,0,8,00,00,00,00,00,02,75,81,
5850054,19A00002,true,Rx,0,8,12,00,00,00,00,00,00,F7,
5855261,0340412E,true,Rx,0,8,7C,80,00,3D,80,00,00,00,
5856928,0300410E,true,Rx,0,8,B8,4C,38,2E,87,D0,FC,00,
5857217,19E00006,true,Rx,0,8,00,00,18,E0,58,00,40,00,
5858536,0100082C,true,Rx,0,8,00,C0,BF,A8,66,00,00,00,
5858817,0110483C,true,Rx,0,8,08,E7,22,00,44,66,FC,52,
5860166,19000026,true,Rx,0,8,00,FF,01,40,38,11,8C,00,
5862082,01C04026,true,Rx,0,8,80,00,80,00,80,00,80,00,
5862361,02000026,true,Rx,0,8,7F,34,00,DC,4C,00,E0,AC,
5862651,02104136,true,Rx,0,8,BB,00,3F,FF,07,E0,00,00,
5862933,02804026,true,Rx,0,8,37,FF,77,E9,F7,63,0D,FF,
5863222,02C00020,true,Rx,0,8,00,00,00,00,00,02,75,81,
5865269,0340412E,true,Rx,0,8,7D,80,00,2D,80,00,00,00,
5866967,00800006,true,Rx,0,8,01,E4,0E,2E,41,E4,2E,88,
5867247,0090411E,true,Rx,0,8,02,11,65,01,04,00,00,00,
5867525,0300410E,true,Rx,0,8,38,4C,38,2E,07,D0,6C,00,
5867816,03800006,true,Rx,0,8,38,00,3D,1D,7F,E9,0A,01,
5868549,0100082C,true,Rx,0,8,00,C0,BF,A8,66,00,00,00,
5868829,0110483C,true,Rx,0,8,08,E7,A2,00,44,66,FC,52,
5875246,0340412E,true,Rx,0,8,7E,80,00,1D,80,00,00,00,
5875531,19000026,true,Rx,0,8,00,FF,01,40,38,11,84,00,
5876080,01C04026,true,Rx,0,8,80,00,80,00,80,00,80,00,
5876359,02000026,true,Rx,0,8,7F,34,00,DC,4C,00,E0,AC,
5876650,02104136,true,Rx,0,8,BB,00,3F,FF,07,E0,00,00,
5876920,02804026,true,Rx,0,8,37,FF,77,E9,F7,63,0D,FF,
5877210,02C00020,true,Rx,0,8,00,00,00,00,00,02,75,81,
5877487,0300410E,true,Rx,0,8,B8,47,B8,2E,87,D0,FC,00,
5877777,19A00002,true,Rx,0,8,02,00,00,00,00,00,00,F7,
5878727,0100082C,true,Rx,0,8,00,C0,BF,A8,66,00,00,00,
5879008,0110483C,true,Rx,0,8,08,E7,22,00,44,66,FC,52,
5885258,0340412E,true,Rx,0,8,7F,80,00,0D,80,00,00,00,
5886956,00800006,true,Rx,0,8,49,E3,0E,28,41,E3,2E,89,
5887235,0090411E,true,Rx,0,8,02,0F,E5,12,04,00,00,00,
5887514,0300410E,true,Rx,0,8,B8,42,38,2E,87,D0,FC,00,
5887794,03800006,true,Rx,0,8,38,00,3D,1D,7F,E9,0A,01,
5888537,0100082C,true,Rx,0,8,00,C0,BF,A8,66,00,00,00,
5888819,0110483C,true,Rx,0,8,08,E7,22,00,44,66,FC,52,
5889109,1B700030,true,Rx,0,8,35,89,1C,00,00,C0,03,00,
5890115,01C04026,true,Rx,0,8,80,00,80,00,80,00,80,00,
5890404,02000026,true,Rx,0,8,7F,34,00,DC,4C,00,E0,AC,
5890685,02104136,true,Rx,0,8,BB,00,3F,FF,07,E0,00,00,
5890965,02804026,true,Rx,0,8,37,FF,77,E9,F7,63,0D,FF,
5891256,02C00020,true,Rx,0,8,00,00,00,00,00,02,75,81,
5891540,19000026,true,Rx,0,8,00,FF,01,40,38,11,8C,00,
5895248,0340412E,true,Rx,0,8,70,80,00,FD,80,00,00,00,
5896967,0300410E,true,Rx,0,8,38,42,B8,2F,07,D0,6C,00,
5898489,0100082C,true,Rx,0,8,00,C0,BF,A8,66,00,00,00,
5898770,0110483C,true,Rx,0,8,08,E7,22,00,44,66,FC,52,
5904070,01C04026,true,Rx,0,8,80,00,80,00,80,00,80,00,
5904357,02000026,true,Rx,0,8,7F,34,00,DC,4C,00,E0,AC,
5904647,02104136,true,Rx,0,8,BB,00,3F,FF,07,E0,00,00,
5904917,02804026,true,Rx,0,8,37,FF,77,E8,F7,63,0D,FF,
5905207,02C00020,true,Rx,0,8,00,00,00,00,00,02,75,81,
5905497,0340412E,true,Rx,0,8,71,80,00,ED,80,00,00,00,
5905779,19000026,true,Rx,0,8,00,FF,01,40,38,11,84,00,
5906069,19A00002,true,Rx,0,8,12,00,00,00,00,00,00,F7,
5907007,00800006,true,Rx,0,8,89,E3,0E,24,41,E3,AE,8A,
5907286,0090411E,true,Rx,0,8,42,09,E5,1D,04,00,00,00,
5907577,0300410E,true,Rx,0,8,B8,3C,38,2F,87,CF,FC,00,
5907857,03800006,true,Rx,0,8,38,00,3D,1D,7F,E9,0A,01,
5908151,19E00006,true,Rx,0,8,00,00,18,C0,58,00,40,00,
5908430,1B600002,true,Rx,0,8,00,80,00,0C,00,18,4C,00,
5908844,0100082C,true,Rx,0,8,00,C0,BF,A8,66,00,00,00,
5909125,0110483C,true,Rx,0,8,08,E7,22,00,44,66,FC,52,
5915258,0340412E,true,Rx,0,8,72,80,00,DD,80,00,00,00,
5916998,0300410E,true,Rx,0,8,B8,3C,38,2F,87,CF,FC,00,
5918109,01C04026,true,Rx,0,8,80,00,80,00,80,00,80,00,
5918389,02000026,true,Rx,0,8,7F,34,00,DC,4C,00,E0,AC,
5918678,0100082C,true,Rx,0,8,00,C0,BF,A8,66,00,00,00,
5918960,0110483C,true,Rx,0,8,08,E7,A2,00,44,66,FC,52,
5919239,02104136,true,Rx,0,8,BB,00,3F,FF,07,E0,00,00,
5919513,02804026,true,Rx,0,8,37,FF,77,EA,F7,63,0D,FF,
5919805,02C00020,true,Rx,0,8,00,00,00,00,00,02,75,81,
5920177,19000026,true,Rx,0,8,00,FF,01,40,38,11,8C,00,
5923364,1B200002,true,Rx,0,8,00,00,00,00,00,00,0F,71,
5925248,0340412E,true,Rx,0,8,73,80,00,CD,80,00,00,00,
5926988,00800006,true,Rx,0,8,C9,E3,0E,24,41,E3,2E,8A,
5927278,0090411E,true,Rx,0,8,01,FE,E5,33,04,00,00,00,
5927556,0300410E,true,Rx,0,8,38,3C,B8,2F,07,CF,6C,00,
5927837,03800006,true,Rx,0,8,38,00,3D,1D,7F,E9,0A,01,
5928590,0100082C,true,Rx,0,8,00,C0,BF,A8,66,00,00,00,
5928872,0110483C,true,Rx,0,8,08,E7,22,00,44,66,FC,52,
5932105,01C04026,true,Rx,0,8,80,00,80,00,80,00,80,00,
5932390,02000026,true,Rx,0,8,7F,34,00,DC,4C,00,E0,AC,
5932671,02104136,true,Rx,0,8,BB,00,3F,FF,07,E0,00,00,
5932952,02804026,true,Rx,0,8,37,FF,77,E9,F7,63,0D,FF,
5933242,02C00020,true,Rx,0,8,00,00,00,00,00,02,75,81,
5933533,19A00002,true,Rx,0,8,6E,00,00,00,00,00,00,F7,
5935250,0340412E,true,Rx,0,8,74,80,00,BD,80,00,00,00,
5935529,19000026,true,Rx,0,8,00,FF,01,40,38,11,84,00,
5937034,0300410E,true,Rx,0,8,B8,37,38,31,87,CF,FC,00,
5938628,0100082C,true,Rx,0,8,00,C0,BF,A8,66,00,00,00,
5938910,0110483C,true,Rx,0,8,08,E7,22,00,44,66,FC,52,
5945253,0340412E,true,Rx,0,8,75,80,00,AD,80,00,00,00,
5946086,01C04026,true,Rx,0,8,80,00,80,00,80,00,80,00,
5946365,02000026,true,Rx,0,8,7F,34,00,DC,4C,00,E0,AC,
5946656,02104136,true,Rx,0,8,BB,00,3F,FF,07,E0,00,00,
5946937,02804026,true,Rx,0,8,37,FF,77,E9,F7,63,0D,FF,
5947216,00800006,true,Rx,0,8,01,E3,0E,21,41,E3,AE,8A,
5947501,0090411E,true,Rx,0,8,C1,FE,65,33,04,00,00,00,
5947792,02C00020,true,Rx,0,8,00,00,00,00,00,02,75,81,
5948073,0300410E,true,Rx,0,8,38,37,38,31,07,CF,6C,00,
5948352,03800006,true,Rx,0,8,78,00,3D,1D,7F,E9,0A,01,
5948642,0100082C,true,Rx,0,8,00,C0,BF,A8,76,00,00,00,
5948924,0110483C,true,Rx,0,8,08,E7,22,00,44,66,FC,52,
5950178,19000026,true,Rx,0,8,00,FF,01,40,38,11,84,00,
5955256,0340412E,true,Rx,0,8,76,80,00,9D,80,00,00,00,
5957057,0300410E,true,Rx,0,8,B8,31,B8,31,87,CF,FC,00,
5957344,19E00006,true,Rx,0,8,00,00,18,E0,58,00,40,00,
5958489,0100082C,true,Rx,0,8,00,C0,BF,A8,66,00,00,00,
5958769,0110483C,true,Rx,0,8,08,E7,22,00,44,66,FC,52,
5960090,01C04026,true,Rx,0,8,80,00,80,00,80,00,80,00,
5960371,02000026,true,Rx,0,8,7F,34,00,DC,4C,00,E0,AC,
5960650,02104136,true,Rx,0,8,BB,00,3F,FF,07,E0,00,00,
5960932,02804026,true,Rx,0,8,37,FF,77,E9,F7,63,0D,FF,
5961223,02C00020,true,Rx,0,8,00,00,00,00,00,02,75,81,
5961517,19A00002,true,Rx,0,8,12,00,00,00,00,00,00,F7,
5963597,1BA0493C,true,Rx,0,8,0D,01,02,01,01,01,01,01,
5963877,1BE0493C,true,Rx,0,8,01,10,2A,BC,CF,3F,FD,FB,
5965260,0340412E,true,Rx,0,8,77,80,00,8D,80,00,00,00,
5965549,19000026,true,Rx,0,8,00,FF,01,40,38,11,8C,00,
5967046,00800006,true,Rx,0,8,49,E3,0E,1E,41,E3,2E,8A,
5967337,0090411E,true,Rx,0,8,01,F6,E5,28,04,00,00,00,
5967616,0300410E,true,Rx,0,8,B8,31,38,31,87,CF,FC,00,
5967897,03800006,true,Rx,0,8,38,00,3D,1D,7F,E9,0A,01,
5968640,0100082C,true,Rx,0,8,00,C0,BF,A8,66,00,00,00,
5968922,0110483C,true,Rx,0,8,08,E7,A2,00,44,66,FC,52,
5974072,01C04026,true,Rx,0,8,80,00,80,00,80,00,80,00,
5974359,02000026,true,Rx,0,8,7F,34,00,DC,4C,00,E0,AC,
5974649,02104136,true,Rx,0,8,BB,00,3F,FF,07,E0,00,00,
5974920,02804026,true,Rx,0,8,37,FF,77,E8,F7,63,0D,FF,
5975209,02C00020,true,Rx,0,8,00,00,00,00,00,02,75,81,
5975499,0340412E,true,Rx,0,8,78,80,00,7D,80,00,00,00,
5977443,0300410E,true,Rx,0,8,38,31,38,31,07,CF,6C,00,
5978604,0100082C,true,Rx,0,8,00,C0,BF,A8,66,00,00,00,
5978886,0110483C,true,Rx,0,8,08,E7,22,00,44,66,FC,52,
5980162,19000026,true,Rx,0,8,00,FF,01,40,38,11,84,00,
5985257,0340412E,true,Rx,0,8,79,80,00,6D,80,00,00,00,
5987078,00800006,true,Rx,0,8,89,E3,0E,1B,41,E3,2E,89,
5987365,0090411E,true,Rx,0,8,01,F5,E5,1C,04,00,00,00,
5987644,0300410E,true,Rx,0,8,B8,2D,B8,31,87,CF,FC,00,
5987925,03800006,true,Rx,0,8,38,00,3D,1D,7F,E9,0A,01,
5988216,01C04026,true,Rx,0,8,80,00,80,00,80,00,80,00,
5988495,02000026,true,Rx,0,8,7F,34,00,DC,4C,00,E0,AC,
5988787,0100082C,true,Rx,0,8,00,C0,BF,A8,66,00,00,00,
5989066,0110483C,true,Rx,0,8,08,E7,22,00,44,66,FC,52,
5989354,02104136,true,Rx,0,8,BB,00,3F,FF,07,E0,00,00,
5989635,02804026,true,Rx,0,8,37,FF,77,E8,F7,63,0D,FF,
5989916,02C00020,true,Rx,0,8,00,00,00,00,00,02,75,81,
5990205,19A00002,true,Rx,0,8,02,00,00,00,00,00,00,F7,
5993601,1A200020,true,Rx,0,8,0F,00,AA,2C,00,00,02,2C,
5995248,0340412E,true,Rx,0,8,7A,80,00,5D,80,00,00,00,
5995538,19000026,true,Rx,0,8,00,FF,01,40,38,11,8C,00,
5997084,0300410E,true,Rx,0,8,B8,27,38,32,87,CF,FC,00,
5998534,0100082C,true,Rx,0,8,00,C0,BF,A8,66,00,00,00,
5998816,0110483C,true,Rx,0,8,08,E7,22,00,44,66,FC,52,
6002084,01C04026,true,Rx,0,8,80,00,80,00,80,00,80,00,
6002369,02000026,true,Rx,0,8,7F,34,00,DC,4C,00,E0,AC,
6002650,02104136,true,Rx,0,8,BB,00,3F,FF,07,E0,00,00,
6002930,02804026,true,Rx,0,8,37,FF,77,E8,F7,63,0D,FF,
6003220,02C00020,true,Rx,0,8,00,00,00,00,00,02,75,81,
6005244,0340412E,true,Rx,0,8,7B,80,00,4D,80,00,00,00,
6007096,00800006,true,Rx,0,8,C1,E3,0E,18,41,E3,AE,89,
6007387,0090411E,true,Rx,0,8,41,F5,65,1C,04,00,00,00,
6007666,0300410E,true,Rx,0,8,38,27,38,32,07,CF,6C,00,
6007948,03800006,true,Rx,0,8,38,00,3D,1D,7F,E9,0A,01,
6008240,19E00006,true,Rx,0,8,00,00,18,C0,58,00,40,00,
6008529,1B200002,true,Rx,0,8,00,00,00,00,00,00,0F,71,
6008821,0100082C,true,Rx,0,8,00,C0,BF,A8,66,00,00,00,
6009100,0110483C,true,Rx,0,8,08,E7,22,00,44,66,FC,52,
6010239,19000026,true,Rx,0,8,00,FF,01,40,38,11,84,00,
6015250,0340412E,true,Rx,0,8,7C,80,00,3D,80,00,00,00,
6016062,01C04026,true,Rx,0,8,80,00,80,00,80,00,80,00,
6016341,02000026,true,Rx,0,8,7F,34,00,DC,4C,00,E0,AC,
6016632,02104136,true,Rx,0,8,BB,00,3F,FF,07,E0,00,00,
6016902,02804026,true,Rx,0,8,37,FF,77,E8,F7,63,0D,FF,
6017193,02C00020,true,Rx,0,8,00,00,00,00,00,02,75,81,
6017477,0300410E,true,Rx,0,8,B8,27,B8,32,87,CF,FC,00,
6017768,19A00002,true,Rx,0,8,12,00,00,00,00,00,00,F7,
6018644,0100082C,true,Rx,0,8,00,C0,BF,A8,66,00,00,00,
6018926,0110483C,true,Rx,0,8,08,E7,A2,00,44,66,FC,52,
6025259,0340412E,true,Rx,0,8,7D,80,00,2D,80,00,00,00,
6025534,19000026,true,Rx,0,8,00,FF,01,40,38,11,84,00,
6027103,00800006,true,Rx,0,8,09,E3,0E,18,41,E3,2E,89,
6027381,0090411E,true,Rx,0,8,02,00,E5,21,04,00,00,00,
6027671,0300410E,true,Rx,0,8,38,27,38,32,07,CF,6C,00,
6027953,03800006,true,Rx,0,8,38,00,3D,1D,7F,E9,0A,01,
6028633,0100082C,true,Rx,0,8,00,C0,BF,A8,66,00,00,00,
6028915,0110483C,true,Rx,0,8,08,E7,22,00,44,66,FC,52,
6030095,01C04026,true,Rx,0,8,80,00,80,00,80,00,80,00,
6030375,02000026,true,Rx,0,8,7F,34,00,DC,4C,00,E0,AC,
6030665,02104136,true,Rx,0,8,BB,00,3F,FF,07,E0,00,00,
6030935,02804026,true,Rx,0,8,37,FF,77,E8,F7,63,0D,FF,
6031226,02C00020,true,Rx,0,8,00,00,00,00,00,02,75,81,
6035251,0340412E,true,Rx,0,8,7E,80,00,1D,80,00,00,00,
6037104,0300410E,true,Rx,0,8,B8,24,38,34,87,CE,FC,00,
6038431,0100082C,true,Rx,0,8,00,C0,BF,A8,76,00,00,00,
6038712,0110483C,true,Rx,0,8,08,E7,22,00,44,66,FC,52,
6040174,19000026,true,Rx,0,8,00,FF,01,40,38,11,8C,00,
6044051,01C04026,true,Rx,0,8,80,00,80,00,80,00,80,00,
6044337,02000026,true,Rx,0,8,7F,34,00,DC,4C,00,E0,AC,
6044626,02104136,true,Rx,0,8,BB,00,3F,FF,07,E0,00,00,
6044898,02804026,true,Rx,0,8,37,FF,77,E8,F7,63,0D,FF,
6045187,02C00020,true,Rx,0,8,00,00,00,00,00,02,75,81,
6045477,0340412E,true,Rx,0,8,7F,80,00,0D,80,00,00,00,
6045759,19A00002,true,Rx,0,8,6E,00,00,00,00,00,00,F7,
6047139,00800006,true,Rx,0,8,41,E3,0E,13,41,E3,AE,89,
6047428,0090411E,true,Rx,0,8,C2,00,65,21,05,00,00,00,
6047698,0300410E,true,Rx,0,8,B8,1E,38,34,87,CE,FC,00,
6047979,03800006,true,Rx,0,8,78,00,3D,1D,7F,E9,0A,01,
6048746,0100082C,true,Rx,0,8,00,C0,BF,A8,66,00,00,00,
6049035,0110483C,true,Rx,0,8,08,E7,22,00,44,66,FC,52,
6055257,0340412E,true,Rx,0,8,70,80,00,FD,80,00,00,00,
6055544,19000026,true,Rx,0,8,00,FF,01,40,38,11,84,00,
6057133,0300410E,true,Rx,0,8,38,1E,B8,34,07,CE,6C,00,
6057421,19E00006,true,Rx,0,8,00,00,18,E0,58,00,40,00,
6058042,01C04026,true,Rx,0,8,80,00,80,00,80,00,80,00,
6058331,02000026,true,Rx,0,8,7F,34,00,DC,4C,00,E0,AC,
6058622,0100082C,true,Rx,0,8,00,C0,BF,A8,66,00,00,00,
6058902,0110483C,true,Rx,0,8,08,E7,22,00,44,66,FC,52,
6059182,02104136,true,Rx,0,8,BB,00,3F,FF,07,E0,00,00,
6059459,02804026,true,Rx,0,8,37,FF,77,E8,F7,63,0D,FF,
6059749,02C00020,true,Rx,0,8,00,00,00,00,00,02,75,81,
6065251,0340412E,true,Rx,0,8,71,80,00,ED,80,00,00,00,
6067136,00800006,true,Rx,0,8,89,E3,0E,11,41,E3,2E,89,
6067411,0090411E,true,Rx,0,8,01,F5,E5,15,05,00,00,00,
6067701,0300410E,true,Rx,0,8,B8,1B,38,34,87,CE,FC,00,
6067982,03800006,true,Rx,0,8,38,00,3D,1D,7F,E9,0A,01,
6068590,0100082C,true,Rx,0,8,00,C0,BF,A8,66,00,00,00,
6068862,0110483C,true,Rx,0,8,08,E7,A2,00,44,66,FC,52,
6070166,19000026,true,Rx,0,8,00,FF,01,40,38,11,8C,00,
6072080,01C04026,true,Rx,0,8,80,00,80,00,80,00,80,00,
6072360,02000026,true,Rx,0,8,7F,34,00,DC,4C,00,E0,AC,
6072650,02104136,true,Rx,0,8,BB,00,3F,FF,07,E0,00,00,
6072921,02804026,true,Rx,0,8,37,FF,77,E8,F7,63,0D,FF,
6073212,02C00020,true,Rx,0,8,00,00,00,00,00,02,75,81,
6073506,19A00002,true,Rx,0,8,12,00,00,00,00,00,00,F7,
6075249,0340412E,true,Rx,0,8,72,80,00,DD,80,00,00,00,
6077177,0300410E,true,Rx,0,8,B8,1B,38,34,87,CE,FC,00,
6077462,1B600002,true,Rx,0,8,00,80,00,0C,00,18,4C,00,
6078680,0100082C,true,Rx,0,8,00,C0,BF,A8,66,00,00,00,
6078961,0110483C,true,Rx,0,8,08,E7,22,00,44,66,FC,52,
6085250,0340412E,true,Rx,0,8,73,80,00,CD,80,00,00,00,
6085536,19000026,true,Rx,0,8,00,FF,01,40,38,11,84,00,
6086053,01C04026,true,Rx,0,8,80,00,80,00,80,00,80,00,
6086344,02000026,true,Rx,0,8,7F,34,00,DC,4C,00,E0,AC,
6086623,02104136,true,Rx,0,8,BB,00,3F,FF,07,E0,00,00,
6086904,02804026,true,Rx,0,8,37,FF,77,E8,F7,63,0D,FF,
6087184,00800006,true,Rx,0,8,C9,E3,0E,11,41,E3,AE,89,
6087460,0090411E,true,Rx,0,8,41,FD,E5,12,05,00,00,00,
6087752,02C00020,true,Rx,0,8,00,00,00,00,00,02,75,81,
6088032,0300410E,true,Rx,0,8,38,1B,B8,36,07,CE,6C,00,
6088311,03800006,true,Rx,0,8,38,00,3D,1D,7F,E9,0A,01,
6088727,0100082C,true,Rx,0,8,00,C0,BF,A8,66,00,00,00,
6089016,0110483C,true,Rx,0,8,08,E7,22,00,44,66,FC,52,
6093407,1B200002,true,Rx,0,8,00,00,00,00,00,00,0F,71,
6095259,0340412E,true,Rx,0,8,74,80,00,BD,80,00,00,00,
6097164,0300410E,true,Rx,0,8,B8,17,38,36,87,CE,FC,00,
6098489,0100082C,true,Rx,0,8,00,C0,BF,A8,66,00,00,00,
6098772,0110483C,true,Rx,0,8,08,E7,22,00,44,66,FC,52,
6099052,1AE0092C,true,Rx,0,8,40,00,22,E0,41,A0,00,00,
6099342,1B700030,true,Rx,0,8,25,89,1C,00,00,C0,03,00,
6100077,01C04026,true,Rx,0,8,80,00,80,00,80,00,80,00,
6100358,02000026,true,Rx,0,8,7F,34,00,DC,4C,00,E0,AC,
6100647,02104136,true,Rx,0,8,BB,00,3F,FF,07,E0,00,00,
6100919,02804026,true,Rx,0,8,B7,FF,77,E8,F7,63,3D,FF,
6101208,02C00020,true,Rx,0,8,00,00,00,00,00,02,75,81,
6101513,19000026,true,Rx,0,8,00,FF,01,40,38,11,8C,00,
6101784,19A00002,true,Rx,0,8,02,00,00,00,00,00,00,F7,
6105256,0340412E,true,Rx,0,8,75,80,00,AD,80,00,00,00,
6107181,00800006,true,Rx,0,8,01,E2,0E,0E,41,E2,2E,89,
6107471,0090411E,true,Rx,0,8,01,FD,65,12,05,00,00,00,
6107749,0300410E,true,Rx,0,8,38,17,38,36,07,CE,6C,00,
6108030,03800006,true,Rx,0,8,38,00,3D,1D,7F,E9,0A,01,
6108319,19E00006,true,Rx,0,8,00,00,18,C0,58,00,40,00,
6108610,0100082C,true,Rx,0,8,00,C0,BF,A8,66,00,00,00,
6108891,0110483C,true,Rx,0,8,08,E7,22,00,44,66,FC,52,
6114105,01C04026,true,Rx,0,8,80,00,80,00,80,00,80,00,
6114380,02000026,true,Rx,0,8,7F,34,00,DC,4C,00,E0,AC,
6114670,02104136,true,Rx,0,8,BB,00,3F,FF,07,E0,00,00,
6114942,02804026,true,Rx,0,8,B7,FF,77,E8,F7,63,3D,FF,
6115232,02C00020,true,Rx,0,8,00,00,00,00,00,02,75,81,
6115512,0340412E,true,Rx,0,8,76,80,00,9D,80,00,00,00,
6115803,19000026,true,Rx,0,8,00,FF,01,40,38,11,84,00,
6117223,0300410E,true,Rx,0,8,B8,15,B8,36,87,CE,FC,00,
6118653,0100082C,true,Rx,0,8,00,C0,BF,A8,66,00,00,00,
6118933,0110483C,true,Rx,0,8,08,E7,A2,00,44,66,FC,52,
6125256,0340412E,true,Rx,0,8,77,80,00,8D,80,00,00,00,
6127202,00800006,true,Rx,0,8,49,E2,0E,0D,41,E2,2E,88,
6127487,0090411E,true,Rx,0,8,01,F1,E4,FD,05,00,00,00,
6127769,0300410E,true,Rx,0,8,B8,15,38,36,87,CE,FC,00,
6128048,03800006,true,Rx,0,8,38,00,3D,1D,7F,E9,0A,01,
6128338,01C04026,true,Rx,0,8,80,00,80,00,80,00,80,00,
6128629,0100082C,true,Rx,0,8,00,C0,BF,A8,76,00,00,00,
6128909,0110483C,true,Rx,0,8,08,E7,22,00,44,66,FC,52,
6129188,02000026,true,Rx,0,8,7F,34,00,DC,4C,00,E0,AC,
6129478,02104136,true,Rx,0,8,BB,00,3F,FF,07,E0,00,00,
6129748,02804026,true,Rx,0,8,B7,FF,77,E8,F7,63,3D,FF,
6130039,02C00020,true,Rx,0,8,00,00,00,00,00,02,75,81,
6130328,19000026,true,Rx,0,8,00,FF,01,40,38,11,8C,00,
6130618,19A00002,true,Rx,0,8,12,00,00,00,00,00,00,F7,
6135262,0340412E,true,Rx,0,8,78,80,00,7D,80,00,00,00,
6137229,0300410E,true,Rx,0,8,38,15,B8,36,07,CE,6C,00,
6138421,0100082C,true,Rx,0,8,00,C0,BF,A8,66,00,00,00,
6138703,0110483C,true,Rx,0,8,08,E7,22,00,44,66,FC,52,
6142148,01C04026,true,Rx,0,8,80,00,80,00,80,00,80,00,
6142424,02000026,true,Rx,0,8,7F,34,00,DC,4C,00,E0,AC,
6142716,02104136,true,Rx,0,8,BB,00,3F,FF,07,E0,00,00,
6142995,02804026,true,Rx,0,8,B7,FF,77,E8,F7,63,3D,FF,
6143286,02C00020,true,Rx,0,8,00,00,00,00,00,02,75,81,
6145278,0340412E,true,Rx,0,8,79,80,00,6D,80,00,00,00,
6145559,19000026,true,Rx,0,8,00,FF,01,40,38,11,84,00,
6147249,00800006,true,Rx,0,8,89,E2,0E,0A,41,E2,AE,88,
6147528,0090411E,true,Rx,0,8,C1,EA,E4,E3,06,00,00,00,
6147809,0300410E,true,Rx,0,8,B8,11,38,37,87,CE,FC,00,
6148089,03800006,true,Rx,0,8,78,00,3D,1D,7F,E9,0A,01,
6148659,0100082C,true,Rx,0,8,00,C0,BF,A8,66,00,00,00,
6148940,0110483C,true,Rx,0,8,08,E7,22,00,44,66,FC,52,
6155252,0340412E,true,Rx,0,8,7A,80,00,5D,80,00,00,00,
6156136,01C04026,true,Rx,0,8,80,00,80,00,80,00,80,00,
6156417,02000026,true,Rx,0,8,7F,34,00,DC,4C,00,E0,AC,
6156697,02104136,true,Rx,0,8,BB,00,3F,FF,07,E0,00,00,
6156978,02804026,true,Rx,0,8,B7,FF,77,E8,F7,63,3D,FF,
6157267,02C00020,true,Rx,0,8,00,00,00,00,00,02,75,81,
6157541,0300410E,true,Rx,0,8,B8,0F,38,37,87,CE,FC,00,
6157834,19A00002,true,Rx,0,8,6E,00,00,00,00,00,00,F7,
6158113,19E00006,true,Rx,0,8,00,00,18,E0,58,00,40,00,
6158619,0100082C,true,Rx,0,8,00,C0,BF,A8,66,00,00,00,
6158901,0110483C,true,Rx,0,8,08,E7,22,00,44,66,FC,52,
6160185,19000026,true,Rx,0,8,00,FF,01,40,38,11,84,00,
6165252,0340412E,true,Rx,0,8,7B,80,00,4D,80,00,00,00,
6167239,00800006,true,Rx,0,8,C1,E2,0E,09,41,E2,2E,87,
6167525,0090411E,true,Rx,0,8,01,EA,64,E3,06,00,00,00,
6167806,0300410E,true,Rx,0,8,38,0F,38,37,07,CE,6C,00,
6168086,03800006,true,Rx,0,8,38,00,3D,1D,7F,E9,0A,01,
6168572,0100082C,true,Rx,0,8,00,C0,BF,A8,66,00,00,00,
6168852,0110483C,true,Rx,0,8,08,E7,A2,00,44,66,FC,52,
6170146,01C04026,true,Rx,0,8,80,00,80,00,80,00,80,00,
6170426,02000026,true,Rx,0,8,7F,34,00,DC,4C,00,E0,AC,
6170717,02104136,true,Rx,0,8,BB,00,3F,FF,07,E0,00,00,
6170987,02804026,true,Rx,0,8,B7,FF,77,E8,F7,63,3D,FF,
6171278,02C00020,true,Rx,0,8,00,00,00,00,00,02,75,81,
6175251,0340412E,true,Rx,0,8,7C,80,00,3D,80,00,00,00,
6175538,19000026,true,Rx,0,8,00,FF,01,40,38,11,8C,00,
6177503,0300410E,true,Rx,0,8,B8,0F,B8,37,87,CE,FC,00,
6178411,1B200002,true,Rx,0,8,00,00,00,00,00,00,0F,71,
6178703,0100082C,true,Rx,0,8,00,C0,BF,A8,66,00,00,00,
6178983,0110483C,true,Rx,0,8,08,E7,22,00,44,66,FC,52,
6184135,01C04026,true,Rx,0,8,80,00,80,00,80,00,80,00,
6184411,02000026,true,Rx,0,8,7F,34,00,DC,4C,00,E0,AC,
6184703,02104136,true,Rx,0,8,BB,00,3F,FF,07,E0,00,00,
6184982,02804026,true,Rx,0,8,B7,FF,77,E8,F7,63,3D,FF,
6185271,02C00020,true,Rx,0,8,00,00,00,00,00,02,75,81,
6185552,0340412E,true,Rx,0,8,7D,80,00,2D,80,00,00,00,
6185843,19A00002,true,Rx,0,8,12,00,00,00,00,00,00,F7,
6187283,00800006,true,Rx,0,8,09,E3,0E,09,41,E3,2E,87,
6187562,0090411E,true,Rx,0,8,01,EC,E4,CB,06,00,00,00,
6187844,0300410E,true,Rx,0,8,38,0F,38,37,07,CE,6C,00,
6188134,03800006,true,Rx,0,8,38,00,3D,1D,7F,E9,0A,01,
6188684,0100082C,true,Rx,0,8,00,C0,BF,A8,66,00,00,00,
6188964,0110483C,true,Rx,0,8,08,E7,22,00,44,66,FC,52,
6190172,19000026,true,Rx,0,8,00,FF,01,40,38,11,84,00,
6195271,0340412E,true,Rx,0,8,7E,80,00,1D,80,00,00,00,
6197258,0300410E,true,Rx,0,8,B8,0E,B8,38,87,CE,FC,00,
6198131,01C04026,true,Rx,0,8,80,00,80,00,80,00,80,00,
6198412,02000026,true,Rx,0,8,7F,34,00,DC,4C,00,E0,AC,
6198703,0100082C,true,Rx,0,8,00,C0,BF,A8,66,00,00,00,
6198982,0110483C,true,Rx,0,8,08,E7,22,00,44,66,FC,52,
6199273,02104136,true,Rx,0,8,BB,00,3F,FF,07,E0,00,00,
6199546,02804026,true,Rx,0,8,B7,FF,77,E8,F7,63,3D,FF,
6199837,02C00020,true,Rx,0,8,00,00,00,00,00,02,75,81,
6205257,0340412E,true,Rx,0,8,7F,80,00,0D,80,00,00,00,
6205543,19000026,true,Rx,0,8,00,FF,01,40,38,11,8C,00,
6207276,00800006,true,Rx,0,8,49,E3,0E,07,41,E3,AE,86,
6207564,0090411E,true,Rx,0,8,41,F8,E4,C1,06,00,00,00,
6207846,0300410E,true,Rx,0,8,B8,0B,38,38,87,CE,FC,00,
6208125,03800006,true,Rx,0,8,38,00,3D,1D,7F,E9,0A,01,
6208416,19E00006,true,Rx,0,8,00,00,18,C0,58,00,40,00,
6208707,0100082C,true,Rx,0,8,00,C0,BF,A8,66,00,00,00,
6208986,0110483C,true,Rx,0,8,08,E7,22,00,44,66,FC,52,
6212162,01C04026,true,Rx,0,8,80,00,80,00,80,00,80,00,
6212449,02000026,true,Rx,0,8,7F,34,00,DC,4C,00,E0,AC,
6212729,02104136,true,Rx,0,8,BB,00,3F,FF,07,E0,00,00,
6213010,02804026,true,Rx,0,8,B7,FF,77,E8,F7,63,3D,FF,
6213299,02C00020,true,Rx,0,8,00,00,00,00,00,02,75,81,
6213589,19A00002,true,Rx,0,8,02,00,00,00,00,00,00,F7,
6213871,1BA0493C,true,Rx,0,8,0E,01,01,01,02,02,01,02,
6214150,1BE0493C,true,Rx,0,8,02,47,8B,00,34,04,19,24,
6215273,0340412E,true,Rx,0,8,70,80,00,FD,80,00,00,00,
6217321,0300410E,true,Rx,0,8,38,0B,38,38,07,CE,6C,00,
6218597,0100082C,true,Rx,0,8,00,C0,BF,A8,76,00,00,00,
6218877,0110483C,true,Rx,0,8,08,E7,A2,00,44,66,FC,52,
6220239,19000026,true,Rx,0,8,00,FF,01,40,38,11,84,00,
6225255,0340412E,true,Rx,0,8,71,80,00,ED,80,00,00,00,
6226120,01C04026,true,Rx,0,8,80,00,80,00,80,00,80,00,
6226399,02000026,true,Rx,0,8,7F,34,00,DC,4C,00,E0,AC,
6226678,02104136,true,Rx,0,8,BB,00,3F,FF,07,E0,00,00,
6226960,02804026,true,Rx,0,8,B7,FF,77,E8,F7,63,3D,FF,
