Time Stamp,ID,Extended,Dir,Bus,LEN,D1,D2,D3,D4,D5,D6,D7,D8
4296411858,0100082C,true,Rx,0,8,00,C0,B2,CE,61,F2,00,95,
4296412145,0110483C,true,Rx,0,8,00,C4,00,00,80,66,D8,55,
4296412425,1A200020,true,Rx,0,8,EC,00,02,2F,00,00,02,2E,
4296412716,1AE0092C,true,Rx,0,8,20,00,22,20,01,A0,00,00,
4296413006,1B700030,true,Rx,0,8,2C,88,1E,00,00,00,03,00,
4296421956,0100082C,true,Rx,0,8,00,C0,B2,CE,61,F2,00,95,
4296422223,0110483C,true,Rx,0,8,08,E4,20,08,44,66,FC,55,
4296431929,0100082C,true,Rx,0,8,00,C0,B2,CE,61,F2,00,95,
4296432206,0110483C,true,Rx,0,8,08,E4,20,00,44,66,FC,55,
4296441924,0100082C,true,Rx,0,8,00,C0,B2,CE,61,F2,00,95,
4296442200,0110483C,true,Rx,0,8,08,E4,20,00,44,66,FC,55,
4296451928,0100082C,true,Rx,0,8,00,C0,B2,CE,61,F2,00,95,
4296452205,0110483C,true,Rx,0,8,08,E4,A0,00,44,66,FC,55,
4296461954,0100082C,true,Rx,0,8,00,C0,B2,CE,61,F2,00,95,
4296462241,0110483C,true,Rx,0,8,08,E4,20,00,44,66,FC,55,
4296471918,0100082C,true,Rx,0,8,00,C0,B2,CE,61,F2,00,95,
4296472205,0110483C,true,Rx,0,8,08,E4,20,00,44,66,FC,55,
4296481964,0100082C,true,Rx,0,8,00,C0,B2,CE,61,F2,00,95,
4296482241,0110483C,true,Rx,0,8,08,E4,20,00,44,66,FC,55,
4296491918,0100082C,true,Rx,0,8,00,C0,B2,CE,61,F2,00,95,
4296492205,0110483C,true,Rx,0,8,08,E6,2A,00,44,66,FC,52,
4296501976,0100082C,true,Rx,0,8,00,C0,B2,CE,61,F2,00,95,
4296502252,0110483C,true,Rx,0,8,08,E6,AA,00,44,66,FC,52,
4296511939,0100082C,true,Rx,0,8,00,C0,B2,CE,61,F2,00,95,
4296512215,0110483C,true,Rx,0,8,08,E6,2A,00,44,66,FC,52,
4296521964,0100082C,true,Rx,0,8,00,C0,B2,CE,61,F2,00,95,
4296522241,0110483C,true,Rx,0,8,08,E6,2A,00,44,66,FC,52,
4296530591,00800006,true,Rx,0,8,60,00,00,00,00,00,00,00,
4296530888,0090411E,true,Rx,0,8,00,00,00,00,00,00,00,00,
4296531179,0300410E,true,Rx,0,8,00,00,00,00,00,00,00,00,
4296531479,03800006,true,Rx,0,8,00,00,00,00,00,00,00,00,
4296531770,19E00006,true,Rx,0,8,00,00,00,C0,00,00,00,00,
4296532071,1B600002,true,Rx,0,8,00,00,00,00,00,00,00,00,
4296532351,0100082C,true,Rx,0,8,00,C0,B2,CE,61,F2,00,95,
4296532631,0110483C,true,Rx,0,8,08,E9,2A,00,44,66,FC,52,
4296532929,0300410E,true,Rx,0,8,00,00,00,00,00,00,00,00,
4296534456,00800006,true,Rx,0,8,80,00,00,00,00,00,00,00,
4296534745,0090411E,true,Rx,0,8,00,00,00,00,00,00,00,00,
4296535036,0300410E,true,Rx,0,8,00,00,00,00,00,00,00,00,
4296535336,03800006,true,Rx,0,8,00,00,00,00,00,00,00,00,
4296536451,0300410E,true,Rx,0,8,00,00,00,00,00,00,00,00,
4296537136,1BA0493C,true,Rx,0,8,01,03,02,09,01,03,04,02,
4296537415,1BE0493C,true,Rx,0,8,01,00,2A,BC,81,D4,FD,FB,
4296538468,00800006,true,Rx,0,8,C0,00,00,00,00,00,00,00,
4296538759,0090411E,true,Rx,0,8,00,00,00,00,00,00,00,00,
4296539050,0300410E,true,Rx,0,8,00,00,00,00,00,00,00,00,
4296539351,03800006,true,Rx,0,8,00,00,00,00,00,00,00,00,
4296540455,0300410E,true,Rx,0,8,00,00,00,00,00,00,00,00,
4296540757,19E00006,true,Rx,0,8,00,00,00,C0,00,00,00,00,
4296542099,0100082C,true,Rx,0,8,00,C0,B2,CE,61,F2,00,95,
4296542380,0110483C,true,Rx,0,8,08,E9,2A,00,44,66,FC,52,
4296542680,00800006,true,Rx,0,8,00,00,00,00,00,00,00,00,
4296542972,0090411E,true,Rx,0,8,00,00,00,00,00,00,00,00,
4296543264,0300410E,true,Rx,0,8,00,00,00,00,00,00,00,00,
4296543564,03800006,true,Rx,0,8,00,00,00,00,00,00,00,00,
4296544103,01C04026,true,Rx,0,8,80,00,80,00,80,00,80,00,
4296544382,02000026,true,Rx,0,8,7F,34,00,CC,4A,00,E0,AC,
4296544673,02104136,true,Rx,0,8,BB,00,3F,FF,07,E0,00,00,
4296544948,02804026,true,Rx,0,8,B7,FF,77,FF,F2,00,1E,0A,
4296545250,02C00020,true,Rx,0,8,00,00,00,00,00,00,00,00,
4296545540,0300410E,true,Rx,0,8,00,00,00,00,00,00,00,00,
4296545830,19A00002,true,Rx,0,8,12,00,00,00,00,00,00,07,
4296546471,00800006,true,Rx,0,8,40,00,00,00,00,00,00,00,
4296546761,0090411E,true,Rx,0,8,00,00,00,00,00,00,00,00,
4296547059,0300410E,true,Rx,0,8,00,00,00,00,00,00,00,00,
4296547349,03800006,true,Rx,0,8,00,00,00,00,00,00,00,00,
4296548465,0300410E,true,Rx,0,8,00,00,00,00,00,00,00,00,
4296550466,00800006,true,Rx,0,8,80,00,00,00,00,00,00,00,
4296550755,0090411E,true,Rx,0,8,00,00,00,00,00,00,00,00,
4296551056,0300410E,true,Rx,0,8,00,00,00,00,00,00,00,00,
4296551356,03800006,true,Rx,0,8,00,00,00,00,00,00,00,00,
4296551646,19E00006,true,Rx,0,8,00,00,00,C0,00,00,00,00,
4296552050,0100082C,true,Rx,0,8,00,C0,B2,CE,61,F2,00,95,
4296552331,0110483C,true,Rx,0,8,08,E9,AA,00,44,66,FC,52,
4296552620,0300410E,true,Rx,0,8,00,00,00,00,00,00,00,00,
4296554473,00800006,true,Rx,0,8,C0,00,00,00,00,00,00,00,
4296554763,0090411E,true,Rx,0,8,00,00,00,00,00,00,00,00,
4296555063,0300410E,true,Rx,0,8,00,00,00,00,00,00,00,00,
4296555353,03800006,true,Rx,0,8,00,00,00,00,00,00,00,00,
4296556478,0300410E,true,Rx,0,8,00,00,00,00,00,00,00,00,
4296558181,01C04026,true,Rx,0,8,80,00,80,00,80,00,80,00,
4296558461,02000026,true,Rx,0,8,7F,34,00,CC,4A,00,E0,AC,
4296558751,00800006,true,Rx,0,8,00,00,00,00,00,00,00,00,
4296559042,0090411E,true,Rx,0,8,00,00,00,00,00,00,00,00,
4296559332,02104136,true,Rx,0,8,BB,00,3F,FF,07,E0,00,00,
4296559612,02804026,true,Rx,0,8,B7,FF,77,FF,F2,00,1E,0A,
4296559912,02C00020,true,Rx,0,8,00,00,00,00,00,00,00,00,
4296560203,0300410E,true,Rx,0,8,00,00,00,00,00,00,00,00,
4296560493,03800006,true,Rx,0,8,00,00,00,00,00,00,00,00,
4296560794,0300410E,true,Rx,0,8,00,00,00,00,00,00,00,00,
4296561084,19E00006,true,Rx,0,8,00,00,00,C0,00,00,00,00,
4296562167,0100082C,true,Rx,0,8,00,C0,B2,CE,61,F2,00,95,
4296562447,0110483C,true,Rx,0,8,08,E9,2A,00,44,66,FC,52,
4296562747,00800006,true,Rx,0,8,40,00,00,00,00,00,00,00,
4296563040,0090411E,true,Rx,0,8,00,00,00,00,00,00,00,00,
4296563331,0300410E,true,Rx,0,8,00,00,00,00,00,00,00,00,
4296563631,03800006,true,Rx,0,8,00,00,00,00,00,00,00,00,
4296564478,0300410E,true,Rx,0,8,00,00,00,00,00,00,00,00,
4296564779,1B600002,true,Rx,0,8,00,00,00,00,00,00,00,00,
4296566485,00800006,true,Rx,0,8,80,00,00,00,00,00,00,00,
4296566775,0090411E,true,Rx,0,8,00,00,00,00,00,00,00,00,
4296567075,0300410E,true,Rx,0,8,00,00,00,00,00,00,00,00,
4296567365,03800006,true,Rx,0,8,00,00,00,00,00,00,00,00,
4296568490,0300410E,true,Rx,0,8,00,00,00,00,00,00,00,00,
4296570491,00800006,true,Rx,0,8,C0,00,00,00,00,00,00,00,
4296570781,0090411E,true,Rx,0,8,00,00,00,00,00,00,00,00,
4296571070,0300410E,true,Rx,0,8,00,00,00,00,00,00,00,00,
4296571370,03800006,true,Rx,0,8,00,00,00,00,00,00,00,00,
4296571661,19E00006,true,Rx,0,8,00,00,00,C0,00,00,00,00,
4296572044,0100082C,true,Rx,0,8,00,C0,B2,CE,61,F2,00,95,
4296572325,0110483C,true,Rx,0,8,08,E9,2A,00,44,66,FC,52,
4296572614,01C04026,true,Rx,0,8,80,00,80,00,80,00,80,00,
4296572894,02000026,true,Rx,0,8,7F,34,00,CC,4A,00,E0,AC,
4296573174,02104136,true,Rx,0,8,BB,00,3F,FF,07,E0,00,00,
4296573453,02804026,true,Rx,0,8,B7,FF,77,FF,F2,00,1E,0A,
4296573753,02C00020,true,Rx,0,8,00,00,00,00,00,00,00,00,
4296574045,0300410E,true,Rx,0,8,00,00,00,00,00,00,00,00,
4296574334,19A00002,true,Rx,0,8,6E,00,00,00,00,00,00,F7,
4296574625,00800006,true,Rx,0,8,00,00,00,00,00,00,00,00,
4296574925,0090411E,true,Rx,0,8,00,00,00,00,00,00,00,00,
4296575214,0300410E,true,Rx,0,8,00,00,00,00,00,00,00,00,
4296575515,03800006,true,Rx,0,8,00,00,00,00,00,00,00,00,
4296576496,0300410E,true,Rx,0,8,00,00,00,00,00,00,00,00,
4296578497,00800006,true,Rx,0,8,40,00,00,00,00,00,00,00,
4296578787,0090411E,true,Rx,0,8,00,00,00,00,00,00,00,00,
4296579087,0300410E,true,Rx,0,8,00,00,00,00,00,00,00,00,
4296579378,03800006,true,Rx,0,8,00,00,00,00,00,00,00,00,
4296580502,0300410E,true,Rx,0,8,00,00,00,00,00,00,00,00,
4296580793,19E00006,true,Rx,0,8,00,00,00,C0,00,00,00,00,
4296582075,0100082C,true,Rx,0,8,00,C0,B2,CE,65,F2,00,B8,
4296582355,0110483C,true,Rx,0,8,08,E9,2A,00,44,66,FC,52,
4296582655,00800006,true,Rx,0,8,80,00,00,00,00,00,00,00,
4296582945,0090411E,true,Rx,0,8,00,00,00,00,00,00,00,00,
4296583239,0300410E,true,Rx,0,8,00,00,00,00,00,00,00,00,
4296583539,03800006,true,Rx,0,8,00,00,00,00,00,00,00,00,
4296586127,01C04026,true,Rx,0,8,80,00,80,00,80,00,80,00,
4296586396,02000026,true,Rx,0,8,7F,34,00,CC,4A,00,E0,AC,
4296586686,02104136,true,Rx,0,8,BB,00,3F,FF,07,E0,00,00,
4296586966,02804026,true,Rx,0,8,B7,FF,77,FF,F2,00,1E,0C,
4296587269,02C00020,true,Rx,0,8,00,00,00,00,00,00,00,00,
4296588508,0300410E,true,Rx,0,8,B7,CA,00,00,87,CA,F0,00,
4296592058,0100082C,true,Rx,0,8,00,C0,B2,CE,65,F2,00,B8,
4296592345,0110483C,true,Rx,0,8,08,E9,2A,00,44,66,FC,52,
4296598489,00800006,true,Rx,0,8,C9,E0,0D,E0,41,E0,A6,30,
4296598784,0090411E,true,Rx,0,8,C2,00,E0,00,00,00,00,00,
4296599055,0300410E,true,Rx,0,8,37,CA,98,33,07,CA,6C,00,
4296599356,03800006,true,Rx,0,8,70,00,00,00,00,00,00,00,
4296600110,01C04026,true,Rx,0,8,80,00,80,00,80,00,80,00,
4296600389,02000026,true,Rx,0,8,7F,34,00,CC,4A,00,E0,AC,
4296600673,02104136,true,Rx,0,8,BB,00,3F,FF,07,E0,00,00,
4296600964,02804026,true,Rx,0,8,B7,FF,77,FF,F2,00,1E,0C,
4296601255,02C00020,true,Rx,0,8,00,00,00,00,00,00,00,00,
4296601546,19A00002,true,Rx,0,8,12,00,00,00,00,00,00,F7,
4296602239,0100082C,true,Rx,0,8,00,C0,B2,CE,65,F2,00,B8,
4296602518,0110483C,true,Rx,0,8,08,E9,AA,00,44,66,FC,52,
4296608496,0300410E,true,Rx,0,8,B7,D1,18,33,87,D1,FC,00,
4296611942,0100082C,true,Rx,0,8,00,C0,B2,CE,65,F2,00,B8,
4296612230,0110483C,true,Rx,0,8,08,E9,2A,00,44,66,FC,52,
4296614349,01C04026,true,Rx,0,8,80,00,80,00,80,00,80,00,
4296614630,02000026,true,Rx,0,8,7F,34,00,CC,4A,00,E0,AC,
4296614909,02104136,true,Rx,0,8,BB,00,3F,FF,07,E0,00,00,
4296615200,02804026,true,Rx,0,8,37,FF,77,FF,F2,00,0E,0C,
4296615491,02C00020,true,Rx,0,8,00,00,00,00,00,00,00,00,
4296618540,00800006,true,Rx,0,8,01,E4,0D,E4,41,E4,26,71,
4296618825,0090411E,true,Rx,0,8,02,00,60,00,00,00,00,00,
4296619117,0300410E,true,Rx,0,8,37,D1,18,33,07,D1,6C,00,
4296619407,03800006,true,Rx,0,8,30,00,00,00,00,00,00,00,
4296619696,19E00006,true,Rx,0,8,00,00,18,E0,5B,00,40,00,
4296622061,0100082C,true,Rx,0,8,00,C0,B2,CE,65,F2,00,B8,
4296622342,0110483C,true,Rx,0,8,08,E9,2A,00,44,66,FC,52,
4296622629,1B700030,true,Rx,0,8,2C,88,1C,00,00,C0,03,00,
4296628336,01C04026,true,Rx,0,8,80,00,80,00,80,00,80,00,
4296628611,02000026,true,Rx,0,8,7F,34,00,DC,4A,00,E0,AC,
4296628890,02104136,true,Rx,0,8,BB,00,3F,FF,07,E0,00,00,
4296629182,02804026,true,Rx,0,8,37,FF,77,FF,F2,00,0E,0C,
4296629472,02C00020,true,Rx,0,8,00,00,00,00,00,00,00,00,
4296629751,0300410E,true,Rx,0,8,B7,DB,98,33,87,DB,FC,00,
4296630043,19A00002,true,Rx,0,8,02,00,00,00,00,00,00,F7,
4296631236,1B200002,true,Rx,0,8,00,00,00,00,00,00,04,51,
4296632134,0100082C,true,Rx,0,8,00,C0,B2,CE,65,F2,00,B8,
4296632412,0110483C,true,Rx,0,8,08,E9,2A,00,44,66,FC,52,
4296638532,00800006,true,Rx,0,8,49,EA,0D,EA,41,EA,A6,6B,
4296638818,0090411E,true,Rx,0,8,42,00,E0,00,00,00,00,00,
4296639100,0300410E,true,Rx,0,8,B7,DB,18,F6,87,DB,FC,00,
4296639390,03800006,true,Rx,0,8,30,00,00,00,00,00,00,00,
4296642029,0100082C,true,Rx,0,8,00,C0,B2,CE,65,F2,00,B8,
4296642300,0110483C,true,Rx,0,8,08,E9,2A,00,44,66,FC,52,
4296642598,01C04026,true,Rx,0,8,80,00,80,00,80,00,80,00,
4296642877,02000026,true,Rx,0,8,7F,34,00,DC,4A,00,E0,AC,
4296643159,02104136,true,Rx,0,8,BB,00,3F,FF,07,E0,00,00,
4296643438,02804026,true,Rx,0,8,37,FF,77,FF,F2,00,0E,0C,
4296643739,02C00020,true,Rx,0,8,00,00,00,00,00,00,00,00,
4296648548,0300410E,true,Rx,0,8,77,DB,98,F6,07,DB,6C,00,
4296651923,0100082C,true,Rx,0,8,00,C0,B2,CE,65,F2,00,B8,
4296652200,0110483C,true,Rx,0,8,08,E9,AA,00,44,66,FC,52,
4296656323,01C04026,true,Rx,0,8,80,00,80,00,80,00,80,00,
4296656598,02000026,true,Rx,0,8,7F,34,00,DC,4A,00,E0,AC,
4296656889,02104136,true,Rx,0,8,BB,00,3F,FF,07,E0,00,00,
4296657169,02804026,true,Rx,0,8,37,FF,77,FF,F2,00,0E,0C,
4296657459,02C00020,true,Rx,0,8,00,01,00,00,00,02,75,81,
4296657750,19A00002,true,Rx,0,8,12,00,00,00,00,00,00,F7,
4296658580,00800006,true,Rx,0,8,89,EA,0D,EA,41,EA,26,6D,
4296658860,0090411E,true,Rx,0,8,02,00,E0,00,00,00,00,00,
4296659141,0300410E,true,Rx,0,8,B7,DB,18,F6,87,DB,FC,00,
4296659441,03800006,true,Rx,0,8,30,00,00,00,00,00,00,00,
4296659731,1B600002,true,Rx,0,8,00,80,00,40,00,17,08,00,
4296662304,0100082C,true,Rx,0,8,00,C0,B2,CE,65,F2,00,B8,
4296662590,0110483C,true,Rx,0,8,08,E9,2A,00,44,66,FC,52,
4296668556,0300410E,true,Rx,0,8,B7,DB,18,F6,87,DB,FC,00,
4296668841,19E00006,true,Rx,0,8,00,00,18,C0,5B,00,40,00,
4296670348,01C04026,true,Rx,0,8,80,00,80,00,80,00,80,00,
4296670627,02000026,true,Rx,0,8,7F,34,00,DC,4A,00,E0,AC,
4296670906,02104136,true,Rx,0,8,BB,00,3F,FF,07,E0,00,00,
4296671197,02804026,true,Rx,0,8,37,FF,77,FF,F2,00,0E,0C,
4296671488,02C00020,true,Rx,0,8,00,00,00,00,00,02,75,81,
4296672108,0100082C,true,Rx,0,8,00,C0,B2,CE,65,F2,00,B8,
4296672388,0110483C,true,Rx,0,8,08,E9,2A,00,44,66,FC,52,
4296678571,00800006,true,Rx,0,8,C9,EA,0D,EA,41,EA,26,6D,
4296678857,0090411E,true,Rx,0,8,02,00,E0,00,00,00,00,00,
4296679138,0300410E,true,Rx,0,8,37,DB,98,F6,07,DB,6C,00,
4296679407,03800006,true,Rx,0,8,34,00,86,B1,C8,4B,0B,9E,
4296682068,0100082C,true,Rx,0,8,00,C0,B2,CE,65,F2,00,B8,
4296682348,0110483C,true,Rx,0,8,08,E9,2A,00,44,66,FC,52,
4296684336,01C04026,true,Rx,0,8,80,00,80,00,80,00,80,00,
4296684617,02000026,true,Rx,0,8,7F,34,00,DC,4A,00,E0,AC,
4296684904,02104136,true,Rx,0,8,BB,00,3F,FF,07,E0,00,00,
4296685186,02804026,true,Rx,0,8,37,FF,77,FF,F2,00,0E,0C,
4296685476,02C00020,true,Rx,0,8,00,00,00,00,00,02,75,81,
4296685765,19A00002,true,Rx,0,8,6E,00,00,00,00,00,00,F7,
4296688605,0300410E,true,Rx,0,8,B7,DB,18,F6,87,DB,FC,00,
4296691937,0100082C,true,Rx,0,8,00,C8,B2,CE,65,F2,00,B8,
4296692215,0110483C,true,Rx,0,8,08,E9,2A,00,44,66,FC,52,
4296698338,01C04026,true,Rx,0,8,80,00,80,00,80,00,80,00,
4296698613,00800006,true,Rx,0,8,01,EA,0D,EA,41,EA,A6,6D,
4296698903,0090411E,true,Rx,0,8,C2,00,60,00,00,00,00,00,
4296699184,02000026,true,Rx,0,8,7F,34,00,DC,4A,00,E0,AC,
4296699474,02104136,true,Rx,0,8,BB,00,3F,FF,07,E0,00,00,
4296699753,02804026,true,Rx,0,8,37,FF,77,FF,F2,00,0E,0C,
4296700045,02C00020,true,Rx,0,8,00,00,00,00,00,02,75,81,
4296700325,0300410E,true,Rx,0,8,37,DB,18,F6,07,DB,6C,00,
4296700604,03800006,true,Rx,0,8,70,00,86,B1,C8,4B,0B,9E,
4296702172,0100082C,true,Rx,0,8,00,C8,B2,CE,65,F2,00,B8,
4296702450,0110483C,true,Rx,0,8,08,E9,AA,00,44,66,FC,52,
4296708602,0300410E,true,Rx,0,8,B7,DB,98,F6,87,DB,FC,00,
4296711945,0100082C,true,Rx,0,8,00,C8,B2,CE,65,F2,00,B8,
4296712233,0110483C,true,Rx,0,8,08,E9,2A,00,44,66,FC,52,
4296712523,01C04026,true,Rx,0,8,80,00,80,00,80,00,80,00,
4296712802,02000026,true,Rx,0,8,7F,34,00,DC,4A,00,E0,AC,
4296713084,02104136,true,Rx,0,8,BB,00,3F,FF,07,E0,00,00,
4296713363,02804026,true,Rx,0,8,37,FF,77,FF,F2,00,0E,0C,
4296713654,02C00020,true,Rx,0,8,00,00,00,00,00,02,75,81,
4296713944,19A00002,true,Rx,0,8,12,00,00,00,00,00,00,F7,
4296716647,1B200002,true,Rx,0,8,00,00,00,00,00,00,0F,71,
4296718613,00800006,true,Rx,0,8,49,EA,0D,EA,41,EA,26,6D,
4296718899,0090411E,true,Rx,0,8,02,00,E0,00,00,00,00,00,
4296719181,0300410E,true,Rx,0,8,B7,DB,18,F6,87,DB,FC,00,
4296719460,03800006,true,Rx,0,8,30,00,86,B1,C8,4B,0B,9E,
4296719740,19E00006,true,Rx,0,8,00,00,18,E0,5B,00,40,00,
4296722147,0100082C,true,Rx,0,8,00,C8,B2,CE,65,F2,00,B8,
4296722426,0110483C,true,Rx,0,8,08,E9,2A,00,44,66,FC,52,
4296726371,01C04026,true,Rx,0,8,80,00,80,00,80,00,80,00,
4296726648,02000026,true,Rx,0,8,7F,34,00,DC,4A,00,E0,AC,
4296726927,02104136,true,Rx,0,8,BB,00,3F,FF,07,E0,00,00,
4296727208,02804026,true,Rx,0,8,37,FF,77,F6,F2,00,0E,0C,
4296727498,02C00020,true,Rx,0,8,00,00,00,00,00,02,75,81,
4296727788,1A200020,true,Rx,0,8,0E,00,02,2F,00,00,02,2E,
4296728650,0300410E,true,Rx,0,8,37,DB,18,F6,07,DB,6C,00,
4296732080,0100082C,true,Rx,0,8,00,C8,B2,CE,65,F2,00,B8,
4296732359,0110483C,true,Rx,0,8,08,E9,2A,00,44,66,FC,52,
4296738628,00800006,true,Rx,0,8,89,EA,0D,EA,41,EA,26,6D,
4296738914,0090411E,true,Rx,0,8,02,00,E0,00,00,00,00,00,
4296739195,0300410E,true,Rx,0,8,B7,DB,98,F6,87,DB,FC,00,
4296739475,03800006,true,Rx,0,8,30,00,86,B1,C8,4B,0B,9E,
4296740373,01C04026,true,Rx,0,8,80,00,80,00,80,00,80,00,
4296740643,02000026,true,Rx,0,8,7F,34,00,DC,4A,00,E0,AC,
4296740937,02104136,true,Rx,0,8,BB,00,3F,FF,07,E0,00,00,
4296741218,02804026,true,Rx,0,8,37,FF,77,CD,F6,86,0E,07,
4296741509,02C00020,true,Rx,0,8,00,00,00,00,00,02,75,81,
4296741798,19A00002,true,Rx,0,8,02,00,00,00,00,00,00,F7,
4296742254,0100082C,true,Rx,0,8,00,C8,B2,CE,24,00,00,B9,
4296742534,0110483C,true,Rx,0,8,08,E9,2A,00,44,66,FC,52,
4296748633,0300410E,true,Rx,0,8,B7,DB,18,F6,87,DB,FC,00,
4296751935,0100082C,true,Rx,0,8,00,C8,B2,CE,24,00,00,B9,
4296752212,0110483C,true,Rx,0,8,08,E9,AA,00,44,66,FC,52,
4296754374,01C04026,true,Rx,0,8,80,00,80,00,80,00,80,00,
4296754653,02000026,true,Rx,0,8,7F,34,00,DC,4A,00,E0,AC,
4296754933,02104136,true,Rx,0,8,BB,00,3F,FF,07,E0,00,00,
4296755214,02804026,true,Rx,0,8,37,FF,77,90,F6,ED,0E,04,
4296755504,02C00020,true,Rx,0,8,00,00,00,00,00,02,75,81,
4296758679,00800006,true,Rx,0,8,C1,EA,0D,EA,41,EA,A6,6D,
4296758966,0090411E,true,Rx,0,8,42,00,60,00,00,00,00,00,
4296759246,0300410E,true,Rx,0,8,37,DB,18,F6,07,DB,6C,00,
4296759526,03800006,true,Rx,0,8,30,00,86,B1,C8,4B,0B,9E,
4296762043,0100082C,true,Rx,0,8,00,C8,B2,CE,24,00,00,B9,
4296762323,0110483C,true,Rx,0,8,08,E9,2A,00,44,66,FC,52,
4296768351,01C04026,true,Rx,0,8,80,00,80,00,80,00,80,00,
4296768626,02000026,true,Rx,0,8,7F,34,00,DC,4A,00,E0,AC,
4296768917,02104136,true,Rx,0,8,BB,00,3F,FF,07,E0,00,00,
4296769187,02804026,true,Rx,0,8,37,FF,77,47,F7,3C,0E,01,
4296769477,02C00020,true,Rx,0,8,00,00,00,00,00,02,75,81,
4296769757,0300410E,true,Rx,0,8,B7,DB,98,F6,87,DB,FC,00,
4296770048,19A00002,true,Rx,0,8,12,00,00,00,00,00,00,F7,
4296770327,19E00006,true,Rx,0,8,00,00,18,C0,5B,00,40,00,
4296772153,0100082C,true,Rx,0,8,00,C8,B2,CE,24,00,00,B9,
4296772438,0110483C,true,Rx,0,8,08,E9,2A,00,44,66,FC,52,
4296778672,00800006,true,Rx,0,8,09,EA,0D,EA,41,EA,26,6D,
4296778959,0090411E,true,Rx,0,8,02,00,E0,00,00,00,00,00,
4296779239,0300410E,true,Rx,0,8,37,DB,18,F6,07,DB,6C,00,
4296779508,03800006,true,Rx,0,8,30,00,86,B1,C8,4B,0B,9E,
4296782078,0100082C,true,Rx,0,8,00,C8,B2,CE,24,00,00,B9,
4296782357,0110483C,true,Rx,0,8,08,E9,2A,00,44,66,FC,52,
4296782647,01C04026,true,Rx,0,8,80,00,80,00,80,00,80,00,
4296782928,02000026,true,Rx,0,8,7F,34,00,DC,4A,00,E0,AC,
4296783218,02104136,true,Rx,0,8,BB,00,3F,FF,07,E0,00,00,
4296783489,02804026,true,Rx,0,8,37,FF,77,09,F7,30,0D,FF,
4296783778,02C00020,true,Rx,0,8,00,00,00,00,00,02,75,81,
4296787092,1BA0493C,true,Rx,0,8,02,01,05,02,03,01,01,02,
4296787378,1BE0493C,true,Rx,0,8,02,03,8B,00,1F,04,19,24,
4296788698,0300410E,true,Rx,0,8,B7,DB,18,F6,87,DB,FC,00,
4296791992,0100082C,true,Rx,0,8,00,C8,B2,CE,75,EE,00,B9,
4296792277,0110483C,true,Rx,0,8,08,E9,2A,00,44,66,FC,52,
4296796377,01C04026,true,Rx,0,8,80,00,80,00,80,00,80,00,
4296796653,02000026,true,Rx,0,8,7F,34,00,DC,4A,00,E0,AC,
4296796943,02104136,true,Rx,0,8,BB,00,3F,FF,07,E0,00,00,
4296797213,02804026,true,Rx,0,8,37,FF,77,04,F6,EA,0D,FD,
4296797504,02C00020,true,Rx,0,8,00,00,00,00,00,02,75,81,
4296797793,19A00002,true,Rx,0,8,6E,00,00,00,00,00,00,F7,
4296798717,00800006,true,Rx,0,8,49,EA,0D,EA,41,EA,A6,6D,
4296798998,0090411E,true,Rx,0,8,C2,00,E0,00,00,00,00,00,
4296799277,0300410E,true,Rx,0,8,B7,DB,98,F6,87,DB,FC,00,
4296799557,03800006,true,Rx,0,8,70,00,86,B1,C8,4B,0B,9E,
4296801653,1B200002,true,Rx,0,8,00,00,00,00,00,00,0F,71,
4296802274,0100082C,true,Rx,0,8,00,C8,B2,CE,65,EE,00,B9,
4296802551,0110483C,true,Rx,0,8,08,E9,AA,00,44,66,FC,52,
4296808703,0300410E,true,Rx,0,8,37,DB,18,F6,07,DB,6C,00,
4296810361,01C04026,true,Rx,0,8,80,00,80,00,80,00,80,00,
4296810641,02000026,true,Rx,0,8,7F,34,00,DC,4A,00,E0,AC,
4296810928,02104136,true,Rx,0,8,BB,00,3F,FF,07,E0,00,00,
4296811200,02804026,true,Rx,0,8,37,FF,77,24,F6,B3,0D,F2,
4296811489,02C00020,true,Rx,0,8,00,00,00,00,00,02,75,81,
4296812110,0100082C,true,Rx,0,8,00,C8,B2,CE,65,EE,00,B9,
4296812400,0110483C,true,Rx,0,8,08,E9,2A,00,44,66,FC,52,
4296818713,00800006,true,Rx,0,8,81,EA,0D,EA,41,EA,26,6D,
4296819001,0090411E,true,Rx,0,8,02,00,60,00,00,00,00,00,
4296819270,0300410E,true,Rx,0,8,B7,DB,18,F6,87,DB,FC,00,
4296819549,03800006,true,Rx,0,8,30,00,86,B1,C8,4B,0B,9E,
4296819840,19E00006,true,Rx,0,8,00,00,18,E0,5B,00,40,00,
4296822081,0100082C,true,Rx,0,8,00,C8,B2,CE,65,EE,00,B9,
4296822361,0110483C,true,Rx,0,8,08,E9,2A,00,44,66,FC,52,
4296824401,01C04026,true,Rx,0,8,80,00,80,00,80,00,80,00,
4296824680,02000026,true,Rx,0,8,7F,34,00,DC,4A,00,E0,AC,
4296824969,02104136,true,Rx,0,8,BB,00,3F,FF,07,E0,00,00,
4296825239,02804026,true,Rx,0,8,37,FF,77,5B,F6,89,0D,E4,
4296825529,02C00020,true,Rx,0,8,00,00,00,00,00,02,75,81,
4296825820,19A00002,true,Rx,0,8,12,00,00,00,00,00,00,F7,
4296828739,0300410E,true,Rx,0,8,B7,DB,18,F6,87,DB,FC,00,
4296829037,1B600002,true,Rx,0,8,00,80,00,40,00,17,4C,00,
4296832085,0100082C,true,Rx,0,8,00,C8,B2,CE,65,EE,00,B9,
4296832365,0110483C,true,Rx,0,8,08,E9,2A,00,44,66,FC,52,
4296832645,1AE0092C,true,Rx,0,8,40,00,22,E0,40,00,00,00,
4296832945,1B700030,true,Rx,0,8,2C,00,1C,00,00,C0,00,00,
4296838393,01C04026,true,Rx,0,8,80,00,80,00,80,00,80,00,
4296838668,02000026,true,Rx,0,8,7F,34,00,DC,4A,00,E0,AC,
4296838948,00800006,true,Rx,0,8,C9,EA,0D,EA,41,EA,A6,6D,
4296839229,0090411E,true,Rx,0,8,42,00,E0,00,00,00,00,00,
4296839519,02104136,true,Rx,0,8,BB,00,3F,FF,07,E0,00,00,
4296839799,02804026,true,Rx,0,8,37,FF,77,6B,F6,F0,0D,D8,
4296840080,02C00020,true,Rx,0,8,00,00,00,00,00,02,75,81,
4296840360,0300410E,true,Rx,0,8,37,DB,A8,F6,07,DB,6C,00,
4296840638,03800006,true,Rx,0,8,34,00,86,B1,C8,4B,0B,9E,
4296842228,0100082C,true,Rx,0,8,00,C8,B2,CE,65,EE,00,B9,
4296842506,0110483C,true,Rx,0,8,08,E9,2A,00,44,66,FC,52,
4296848740,0300410E,true,Rx,0,8,B7,DB,28,F6,87,DB,FC,00,
4296851939,0100082C,true,Rx,0,8,00,C8,93,5F,E5,EE,00,B9,
4296852216,0110483C,true,Rx,0,8,08,E9,AA,00,44,66,FC,52,
4296852505,01C04026,true,Rx,0,8,80,00,80,00,80,00,80,00,
4296852786,02000026,true,Rx,0,8,7F,34,00,DC,4A,00,E0,AC,
4296853066,02104136,true,Rx,0,8,BB,00,3F,FF,07,E0,00,00,
4296853346,02804026,true,Rx,0,8,37,FF,77,52,F7,3E,0D,D8,
4296853636,02C00020,true,Rx,0,8,00,00,00,00,00,02,75,81,
4296853926,19A00002,true,Rx,0,8,02,00,00,00,00,00,00,F7,
4296858755,00800006,true,Rx,0,8,01,EA,0D,EA,41,EA,26,6D,
4296859052,0090411E,true,Rx,0,8,02,00,60,00,00,00,00,00,
4296859331,0300410E,true,Rx,0,8,37,DB,28,F6,07,DB,6C,00,
4296859601,03800006,true,Rx,0,8,30,00,86,B1,C8,4B,0B,9E,
4296862056,0100082C,true,Rx,0,8,00,C0,93,5F,65,EE,00,B9,
4296862335,0110483C,true,Rx,0,8,08,E9,2A,00,44,66,FC,52,
4296866364,01C04026,true,Rx,0,8,80,00,80,00,80,00,80,00,
4296866640,02000026,true,Rx,0,8,7F,34,00,DC,4A,00,E0,AC,
4296866930,02104136,true,Rx,0,8,BB,00,3F,FF,07,E0,00,00,
4296867201,02804026,true,Rx,0,8,37,FF,77,1F,F7,63,0D,E1,
4296867491,02C00020,true,Rx,0,8,00,00,00,00,00,02,75,81,
4296868783,0300410E,true,Rx,0,8,B7,DB,A8,F6,87,DB,FC,00,
4296869064,19E00006,true,Rx,0,8,00,00,18,C0,5B,00,40,00,
4296872124,0100082C,true,Rx,0,8,00,C0,93,5F,65,EE,00,B9,
4296872403,0110483C,true,Rx,0,8,08,E9,2A,00,44,66,FC,52,
4296878775,00800006,true,Rx,0,8,49,EA,0D,EA,41,EA,3E,6D,
4296879062,0090411E,true,Rx,0,8,02,00,E0,00,00,00,00,00,
4296879331,0300410E,true,Rx,0,8,B7,DB,28,F6,87,DB,FC,00,
4296879611,03800006,true,Rx,0,8,30,00,86,B1,C8,4B,0B,9E,
4296880366,01C04026,true,Rx,0,8,80,00,80,00,80,00,80,00,
4296880645,02000026,true,Rx,0,8,7F,34,00,DC,4A,00,E0,AC,
4296880929,02104136,true,Rx,0,8,BB,00,3F,FF,07,E0,00,00,
4296881210,02804026,true,Rx,0,8,37,FF,76,EF,F7,60,0D,EC,
4296881500,02C00020,true,Rx,0,8,00,00,00,00,00,02,75,81,
4296881791,19A00002,true,Rx,0,8,12,00,00,00,00,00,00,F7,
4296882256,0100082C,true,Rx,0,8,00,C0,93,5F,75,EE,00,B9,
4296882536,0110483C,true,Rx,0,8,08,E9,2A,00,44,66,FC,52,
4296882826,0340412E,true,Rx,0,8,00,00,00,00,00,00,00,00,
4296883126,19000026,true,Rx,0,8,00,00,00,00,00,00,00,00,
4296886648,1B200002,true,Rx,0,8,00,00,00,00,00,00,0F,71,
4296888778,0300410E,true,Rx,0,8,37,DB,A8,F6,07,DB,6C,00,
4296891976,0100082C,true,Rx,0,8,00,C0,93,5F,65,EE,00,B9,
4296892263,0110483C,true,Rx,0,8,08,E9,2A,00,44,66,FC,52,
4296892553,0340412E,true,Rx,0,8,00,00,00,00,00,00,00,00,
4296894418,01C04026,true,Rx,0,8,80,00,80,00,80,00,80,00,
4296894697,02000026,true,Rx,0,8,7F,34,00,DC,4A,00,E0,AC,
4296894978,02104136,true,Rx,0,8,BB,00,3F,FF,07,E0,00,00,
4296895258,02804026,true,Rx,0,8,37,FF,76,F4,F7,0F,0D,F7,
4296895548,02C00020,true,Rx,0,8,00,00,00,00,00,02,75,81,
4296897369,19000026,true,Rx,0,8,00,00,00,00,00,00,04,00,
4296898819,00800006,true,Rx,0,8,89,EA,0E,6A,41,EA,AE,6D,
4296899110,0090411E,true,Rx,0,8,C2,00,E0,00,00,00,00,00,
4296899379,0300410E,true,Rx,0,8,B8,B1,28,F6,87,DB,FC,00,
4296899659,03800006,true,Rx,0,8,78,00,86,B1,C8,4B,0B,9E,
4296902178,0100082C,true,Rx,0,8,00,C0,93,5F,65,EE,00,B9,
4296902464,0110483C,true,Rx,0,8,08,E9,AA,00,44,66,FC,52,
4296902744,0340412E,true,Rx,0,8,50,80,00,FD,80,00,00,00,
4296908374,01C04026,true,Rx,0,8,80,00,80,00,80,00,80,00,
4296908661,02000026,true,Rx,0,8,7F,34,00,DC,4A,00,E0,AC,
4296908940,02104136,true,Rx,0,8,BB,00,3F,FF,07,E0,00,00,
4296909221,02804026,true,Rx,0,8,37,FF,77,1A,F6,CE,0D,FF,
4296909512,02C00020,true,Rx,0,8,00,00,00,00,00,02,75,81,
4296909781,0300410E,true,Rx,0,8,B8,B1,28,F6,87,DB,FC,00,
4296910071,19A00002,true,Rx,0,8,6E,00,00,00,00,00,00,F7,
4296912162,0100082C,true,Rx,0,8,00,C0,93,5F,65,EE,00,B9,
4296912441,0110483C,true,Rx,0,8,08,E9,2A,00,44,66,FC,52,
4296912730,0340412E,true,Rx,0,8,71,80,00,ED,80,00,00,00,
4296913021,19000026,true,Rx,0,8,00,00,00,00,38,13,04,00,
4296918804,00800006,true,Rx,0,8,C9,EA,0E,6A,41,EA,2E,6D,
4296919091,0090411E,true,Rx,0,8,02,00,E0,00,00,00,00,00,
4296919370,0300410E,true,Rx,0,8,38,B1,A8,F6,07,DB,6C,00,
4296919640,03800006,true,Rx,0,8,38,00,86,B1,C8,4B,0B,9E,
4296919930,19E00006,true,Rx,0,8,00,00,18,E0,5B,00,40,00,
4296922140,0100082C,true,Rx,0,8,00,C0,93,5F,65,EE,00,B9,
4296922420,0110483C,true,Rx,0,8,08,E9,2A,00,44,66,FC,52,
4296922710,01C04026,true,Rx,0,8,80,00,80,00,80,00,80,00,
4296922980,02000026,true,Rx,0,8,7F,34,00,DC,4A,00,E0,AC,
4296923272,02104136,true,Rx,0,8,BB,00,3F,FF,07,E0,00,00,
4296923551,02804026,true,Rx,0,8,37,FF,77,55,F6,9F,0E,01,
4296923841,02C00020,true,Rx,0,8,00,00,00,00,00,02,75,81,
4296924122,0340412E,true,Rx,0,8,72,80,00,DD,80,00,00,00,
4296927356,19000026,true,Rx,0,8,00,00,01,40,38,11,84,00,
4296928837,0300410E,true,Rx,0,8,B8,B1,28,F6,87,DB,FC,00,
4296932013,0100082C,true,Rx,0,8,00,C0,93,5F,65,EE,00,B9,
4296932298,0110483C,true,Rx,0,8,08,E9,2A,00,44,66,FC,52,
4296932579,0340412E,true,Rx,0,8,73,80,00,CD,80,00,00,00,
4296936405,01C04026,true,Rx,0,8,80,00,80,00,80,00,80,00,
4296936691,02000026,true,Rx,0,8,7F,34,00,DC,4A,00,E0,AC,
4296936970,02104136,true,Rx,0,8,BB,00,3F,FF,07,E0,00,00,
4296937252,02804026,true,Rx,0,8,37,FF,77,89,F6,C0,0E,07,
4296937541,02C00020,true,Rx,0,8,00,00,00,00,00,02,75,81,
4296937831,19A00002,true,Rx,0,8,12,00,00,00,00,00,00,F7,
4296938910,00800006,true,Rx,0,8,01,EA,0E,6A,41,EA,2E,6D,
4296939202,0090411E,true,Rx,0,8,02,00,60,00,00,00,00,00,
4296939472,0300410E,true,Rx,0,8,38,B1,28,F6,07,DB,6C,00,
4296939751,03800006,true,Rx,0,8,38,00,86,B1,C8,4B,0B,9E,
4296942240,0100082C,true,Rx,0,8,00,C0,93,5F,65,EE,00,B9,
4296942527,0110483C,true,Rx,0,8,08,E9,2A,00,44,66,FC,52,
4296942806,0340412E,true,Rx,0,8,74,80,00,BD,80,00,00,00,
4296943097,19000026,true,Rx,0,8,00,00,01,40,38,11,84,00,
4296948841,0300410E,true,Rx,0,8,B8,B1,A8,20,88,B6,FC,00,
4296950437,01C04026,true,Rx,0,8,80,00,80,00,80,00,80,00,
4296950716,02000026,true,Rx,0,8,7F,34,00,DC,4A,00,E0,AC,
4296950996,02104136,true,Rx,0,8,BB,00,3F,FF,07,E0,00,00,
4296951275,02804026,true,Rx,0,8,37,FF,77,88,F7,1A,0E,04,
4296951565,02C00020,true,Rx,0,8,00,00,00,00,00,02,75,81,
4296952072,0100082C,true,Rx,0,8,00,C0,93,5F,65,EE,00,B9,
4296952352,0110483C,true,Rx,0,8,08,E9,AA,00,44,66,FC,52,
4296952632,0340412E,true,Rx,0,8,75,80,00,AD,80,00,00,00,
4296957374,19000026,true,Rx,0,8,00,00,01,40,38,11,84,00,
4296958846,00800006,true,Rx,0,8,4A,6D,0E,69,43,FE,AE,6D,
4296959136,0090411E,true,Rx,0,8,42,00,E0,00,00,00,00,00,
4296959425,0300410E,true,Rx,0,8,B8,AF,28,20,88,B6,FC,00,
4296959684,03800006,true,Rx,0,8,38,00,86,B1,C8,4B,0B,9E,
4296962158,0100082C,true,Rx,0,8,00,C0,93,5F,65,EE,00,B9,
4296962439,0110483C,true,Rx,0,8,08,E9,2A,00,44,66,FC,52,
4296962718,0340412E,true,Rx,0,8,76,80,00,9D,80,00,00,00,
4296964400,01C04026,true,Rx,0,8,80,00,80,00,80,00,80,00,
4296964679,02000026,true,Rx,0,8,7F,34,00,DC,4A,00,E0,AC,
4296964970,02104136,true,Rx,0,8,BB,00,3F,FF,07,E0,00,00,
4296965240,02804026,true,Rx,0,8,37,FF,77,64,F7,60,0E,01,
4296965533,02C00020,true,Rx,0,8,00,00,00,00,00,02,75,81,
4296965823,19A00002,true,Rx,0,8,02,00,00,00,00,00,00,F7,
4296968885,0300410E,true,Rx,0,8,38,AF,28,20,08,B6,6C,00,
4296969166,19E00006,true,Rx,0,8,00,00,18,C0,5B,00,40,00,
4296971514,1B200002,true,Rx,0,8,00,00,00,00,00,00,0F,71,
4296972028,0100082C,true,Rx,0,8,00,C0,93,5F,65,EE,00,B9,
4296972308,0110483C,true,Rx,0,8,08,E9,2A,00,44,66,FC,52,
4296972588,0340412E,true,Rx,0,8,77,80,00,8D,80,00,00,00,
4296972878,19000026,true,Rx,0,8,00,00,01,40,38,11,84,00,
4296978370,01C04026,true,Rx,0,8,80,00,80,00,80,00,80,00,
4296978647,02000026,true,Rx,0,8,7F,34,00,DC,4A,00,E0,AC,
4296978916,00800006,true,Rx,0,8,8A,6D,0E,69,43,FE,2E,6D,
4296979207,0090411E,true,Rx,0,8,02,00,E0,00,00,00,00,00,
4296979488,02104136,true,Rx,0,8,BB,00,3F,FF,07,E0,00,00,
4296979767,02804026,true,Rx,0,8,37,FF,77,2B,F7,63,0D,FF,
4296980058,02C00020,true,Rx,0,8,00,00,00,00,00,02,75,81,
4296980338,0300410E,true,Rx,0,8,B8,AF,A8,20,88,B6,FC,00,
4296980616,03800006,true,Rx,0,8,38,00,86,B1,C8,4B,0B,9E,
4296982195,0100082C,true,Rx,0,8,00,C0,93,5F,65,EE,00,B9,
4296982473,0110483C,true,Rx,0,8,08,E9,2A,00,44,66,FC,52,
4296982763,0340412E,true,Rx,0,8,78,80,00,7D,80,00,00,00,
4296987374,19000026,true,Rx,0,8,00,00,01,40,38,11,84,00,
4296988897,0300410E,true,Rx,0,8,B8,B1,28,20,88,B6,FC,00,
4296992042,0100082C,true,Rx,0,8,00,C0,93,5F,65,EE,00,B9,
4296992317,0110483C,true,Rx,0,8,08,E9,2A,00,44,66,FC,52,
4296992608,01C04026,true,Rx,0,8,80,00,80,00,80,00,80,00,
4296992887,02000026,true,Rx,0,8,7F,34,00,DC,4A,00,E0,AC,
4296993169,02104136,true,Rx,0,8,BB,00,3F,FF,07,E0,00,00,
4296993448,02804026,true,Rx,0,8,37,FF,76,E4,F7,63,0D,FF,
4296993738,02C00020,true,Rx,0,8,00,00,00,00,00,02,75,81,
4296994019,0340412E,true,Rx,0,8,79,80,00,6D,80,00,00,00,
4296994308,19A00002,true,Rx,0,8,12,00,00,00,00,00,00,F7,
4296998895,00800006,true,Rx,0,8,C2,6D,0E,6A,43,FE,AE,6D,
4296999181,0090411E,true,Rx,0,8,C2,00,60,00,00,00,00,00,
4296999462,0300410E,true,Rx,0,8,38,B1,28,20,08,B6,6C,00,
4296999731,03800006,true,Rx,0,8,78,00,86,B1,C8,4B,0B,9E,
4297000022,1B600002,true,Rx,0,8,00,80,00,00,00,17,4C,00,
4297002128,0100082C,true,Rx,0,8,00,C0,93,5F,65,EE,00,B9,
4297002409,0110483C,true,Rx,0,8,08,E9,AA,00,44,66,FC,52,
4297002688,0340412E,true,Rx,0,8,7A,80,00,5D,80,00,00,00,
4297002978,19000026,true,Rx,0,8,00,00,01,40,38,11,84,00,
4297006398,01C04026,true,Rx,0,8,80,00,80,00,80,00,80,00,
4297006677,02000026,true,Rx,0,8,7F,34,00,DC,4A,00,E0,AC,
4297006976,02104136,true,Rx,0,8,BB,00,3F,FF,07,E0,00,00,
4297007236,02804026,true,Rx,0,8,37,FF,76,94,F7,63,0E,01,
4297007526,02C00020,true,Rx,0,8,00,00,00,00,00,02,75,81,
4297008929,0300410E,true,Rx,0,8,B8,B1,A8,20,88,B6,FC,00,
4297012126,0100082C,true,Rx,0,8,00,C0,93,5F,75,EE,00,B9,
4297012402,0110483C,true,Rx,0,8,08,E9,2A,00,44,66,FC,52,
4297012682,0340412E,true,Rx,0,8,7B,80,00,4D,80,00,00,00,
4297017378,19000026,true,Rx,0,8,00,00,01,40,38,11,84,00,
4297018912,00800006,true,Rx,0,8,0A,6D,0E,6A,43,FE,2E,6D,
4297019192,0090411E,true,Rx,0,8,02,00,E0,00,00,00,00,00,
4297019471,0300410E,true,Rx,0,8,38,B1,28,20,08,B6,6C,00,
4297019750,03800006,true,Rx,0,8,38,00,86,B1,C8,4B,0B,9E,
4297020042,19E00006,true,Rx,0,8,00,00,18,E0,5B,00,40,00,
4297020332,01C04026,true,Rx,0,8,80,00,80,00,80,00,80,00,
4297020612,02000026,true,Rx,0,8,7F,34,00,DC,4A,00,E0,AC,
4297020902,02104136,true,Rx,0,8,BB,00,3F,FF,07,E0,00,00,
4297021183,02804026,true,Rx,0,8,37,FF,76,3E,F7,63,0D,FF,
4297021471,02C00020,true,Rx,0,8,00,00,00,00,00,02,75,81,
4297021751,19A00002,true,Rx,0,8,6E,00,00,00,00,00,00,F7,
4297022393,0100082C,true,Rx,0,8,00,C0,93,5F,65,EE,00,B9,
4297022673,0110483C,true,Rx,0,8,08,E9,2A,00,44,66,FC,52,
4297022962,0340412E,true,Rx,0,8,7C,80,00,3D,80,00,00,00,
4297028915,0300410E,true,Rx,0,8,B8,AF,28,20,88,B6,FC,00,
4297031949,0100082C,true,Rx,0,8,00,C0,93,5F,65,EE,00,B9,
4297032225,0110483C,true,Rx,0,8,08,E9,2A,00,44,66,FC,52,
4297032506,0340412E,true,Rx,0,8,7D,80,00,2D,80,00,00,00,
4297032795,19000026,true,Rx,0,8,00,00,01,40,38,11,84,00,
4297034385,01C04026,true,Rx,0,8,80,00,80,00,80,00,80,00,
4297034655,02000026,true,Rx,0,8,7F,34,00,DC,4A,00,E0,AC,
4297034945,02104136,true,Rx,0,8,BB,00,3F,FF,07,E0,00,00,
4297035225,02804026,true,Rx,0,8,37,FF,75,E5,F7,63,0D,FF,
4297035516,02C00020,true,Rx,0,8,00,00,00,00,00,02,75,81,
4297037161,1BA0493C,true,Rx,0,8,03,03,02,01,02,02,01,02,
4297038950,00800006,true,Rx,0,8,4A,6D,0E,69,43,FE,2E,6D,
4297039242,0090411E,true,Rx,0,8,02,00,E0,00,00,00,00,00,
4297039522,0300410E,true,Rx,0,8,B8,AF,A8,20,88,B6,FC,00,
4297039791,03800006,true,Rx,0,8,38,00,86,B1,C8,4B,0B,9E,
4297042105,0100082C,true,Rx,0,8,00,C0,93,5F,65,EE,00,B9,
4297042392,0110483C,true,Rx,0,8,08,E9,2A,00,44,66,FC,52,
4297042671,0340412E,true,Rx,0,8,7E,80,00,1D,80,00,00,00,
4297042960,1A200020,true,Rx,0,8,4E,00,00,00,00,00,02,2E,
4297043252,1B700030,true,Rx,0,8,2C,00,1C,00,00,C0,00,00,
4297047385,19000026,true,Rx,0,8,00,00,01,40,38,11,84,00,
4297048381,01C04026,true,Rx,0,8,80,00,80,00,80,00,80,00,
4297048652,02000026,true,Rx,0,8,7F,34,00,DC,4A,00,E0,AC,
4297048941,02104136,true,Rx,0,8,BB,00,3F,FF,07,E0,00,00,
4297049223,02804026,true,Rx,0,8,37,FF,75,89,F7,63,0D,FF,
4297049505,02C00020,true,Rx,0,8,00,00,00,00,00,02,75,81,
4297049784,0300410E,true,Rx,0,8,38,AF,28,20,08,B6,6C,00,
4297050076,19A00002,true,Rx,0,8,12,00,00,00,00,00,00,F7,
4297052190,0100082C,true,Rx,0,8,00,C0,93,5F,65,EE,00,B9,
4297052460,0110483C,true,Rx,0,8,08,E9,AA,00,44,66,FC,52,
4297052749,0340412E,true,Rx,0,8,7F,80,00,0D,80,00,00,00,
4297056540,1B200002,true,Rx,0,8,00,00,00,00,00,00,0F,71,
4297058940,00800006,true,Rx,0,8,82,6D,0E,69,43,FE,AE,6D,
4297059229,0090411E,true,Rx,0,8,42,00,60,00,00,00,00,00,
4297059508,0300410E,true,Rx,0,8,B8,AF,28,20,88,B6,FC,00,
4297059787,03800006,true,Rx,0,8,38,00,86,B1,C8,4B,0B,9E,
4297062099,0100082C,true,Rx,0,8,00,C0,93,5F,65,EE,00,B9,
4297062369,0110483C,true,Rx,0,8,08,E9,2A,00,44,66,FC,52,
4297062669,01C04026,true,Rx,0,8,80,00,80,00,80,00,80,00,
4297062938,02000026,true,Rx,0,8,7F,34,00,DC,4A,00,E0,AC,
4297063233,02104136,true,Rx,0,8,BB,00,3F,FF,07,E0,00,00,
4297063512,02804026,true,Rx,0,8,37,FF,75,2D,F7,63,0D,FF,
4297063803,02C00020,true,Rx,0,8,00,00,00,00,00,02,75,81,
4297064084,0340412E,true,Rx,0,8,70,80,00,FD,80,00,00,00,
4297064373,19000026,true,Rx,0,8,00,00,01,40,38,11,84,00,
4297068975,0300410E,true,Rx,0,8,B8,AF,A8,20,87,DD,FC,00,
4297069263,19E00006,true,Rx,0,8,00,00,18,C0,5B,00,40,00,
4297071991,0100082C,true,Rx,0,8,00,C0,93,5F,65,EE,00,B9,
4297072271,0110483C,true,Rx,0,8,08,E9,2A,00,44,66,FC,52,
4297072551,0340412E,true,Rx,0,8,71,80,00,ED,80,00,00,00,
4297076415,01C04026,true,Rx,0,8,80,00,80,00,80,00,80,00,
4297076690,02000026,true,Rx,0,8,7F,34,00,DC,4A,00,E0,AC,
4297076971,02104136,true,Rx,0,8,BB,00,3F,FF,07,E0,00,00,
4297077251,02804026,true,Rx,0,8,37,FF,74,CF,F7,63,0D,FF,
4297077541,02C00020,true,Rx,0,8,00,00,00,00,00,02,75,81,
4297077832,19000026,true,Rx,0,8,00,FF,01,40,38,11,8C,00,
4297078112,19A00002,true,Rx,0,8,02,00,00,00,00,00,00,F7,
4297078997,00800006,true,Rx,0,8,C9,EB,0E,69,41,EB,2E,6D,
4297079288,0090411E,true,Rx,0,8,02,1F,E0,E7,00,00,00,00,
4297079567,0300410E,true,Rx,0,8,38,AF,28,20,07,DD,6C,00,
4297079836,03800006,true,Rx,0,8,38,00,86,B1,C8,4B,0B,9E,
4297082316,0100082C,true,Rx,0,8,00,C0,93,5F,65,EE,00,B9,
4297082591,0110483C,true,Rx,0,8,08,E9,2A,00,44,66,FC,52,
4297082881,0340412E,true,Rx,0,8,72,80,00,DD,80,00,00,00,
4297088974,0300410E,true,Rx,0,8,B8,9C,28,31,87,CC,FC,00,
4297090415,01C04026,true,Rx,0,8,80,00,80,00,80,00,80,00,
4297090696,02000026,true,Rx,0,8,7F,34,00,DC,4A,00,E0,AC,
4297090987,02104136,true,Rx,0,8,BB,00,3F,FF,07,E0,00,00,
4297091266,02804026,true,Rx,0,8,37,FF,74,70,F7,63,0D,FF,
4297091547,02C00020,true,Rx,0,8,00,00,00,00,00,02,75,81,
4297092095,0100082C,true,Rx,0,8,00,C0,93,5F,65,EE,00,B9,
4297092375,0110483C,true,Rx,0,8,08,E9,2A,00,44,66,FC,52,
4297092654,0340412E,true,Rx,0,8,73,80,00,CD,80,00,00,00,
4297092944,19000026,true,Rx,0,8,00,FF,01,40,38,11,84,00,
4297098993,00800006,true,Rx,0,8,01,E1,0E,5E,41,E1,AE,63,
4297099280,0090411E,true,Rx,0,8,C2,1F,60,E7,00,00,00,00,
4297099559,0300410E,true,Rx,0,8,38,9C,28,31,07,CC,6C,00,
4297099828,03800006,true,Rx,0,8,58,00,86,B1,C8,4B,0B,9E,
4297102130,0100082C,true,Rx,0,8,00,C0,93,5F,75,EE,00,B9,
4297102400,0110483C,true,Rx,0,8,08,E9,AA,00,44,66,FC,52,
4297102689,0340412E,true,Rx,0,8,74,80,00,BD,80,00,00,00,
4297104423,01C04026,true,Rx,0,8,80,00,80,00,80,00,80,00,
4297104693,02000026,true,Rx,0,8,7F,34,00,DC,4A,00,E0,AC,
4297104983,02104136,true,Rx,0,8,BB,00,3F,FF,07,E0,00,00,
4297105265,02804026,true,Rx,0,8,37,FF,74,12,F7,63,0D,FF,
4297105554,02C00020,true,Rx,0,8,00,00,00,00,00,02,75,81,
4297105844,19A00002,true,Rx,0,8,12,00,00,00,00,00,00,F7,
4297107382,19000026,true,Rx,0,8,00,FF,01,40,38,11,84,00,
4297109023,0300410E,true,Rx,0,8,B8,9E,A8,31,87,CC,FC,00,
4297112027,0100082C,true,Rx,0,8,00,C0,93,5F,65,EE,00,B9,
4297112303,0110483C,true,Rx,0,8,08,E9,2A,00,44,66,FC,52,
4297112593,0340412E,true,Rx,0,8,75,80,00,AD,80,00,00,00,
4297118428,01C04026,true,Rx,0,8,80,00,80,00,80,00,80,00,
4297118704,02000026,true,Rx,0,8,7F,34,00,DC,4A,00,E0,AC,
4297118994,02104136,true,Rx,0,8,BB,00,3F,FF,07,E0,00,00,
4297119275,00800006,true,Rx,0,8,49,E1,0E,5F,41,E1,2E,63,
4297119565,0090411E,true,Rx,0,8,02,1F,E0,E7,00,00,00,00,
4297119844,02804026,true,Rx,0,8,37,FF,73,B3,F7,63,0D,FF,
4297120136,02C00020,true,Rx,0,8,00,00,00,00,00,02,75,81,
4297120405,0300410E,true,Rx,0,8,B8,9E,28,31,87,CC,FC,00,
4297120684,03800006,true,Rx,0,8,18,00,86,B1,C8,4B,0B,9E,
4297120973,19E00006,true,Rx,0,8,00,00,18,E0,5B,00,40,00,
4297122223,0100082C,true,Rx,0,8,00,C0,93,5F,65,EE,00,B9,
4297122503,0110483C,true,Rx,0,8,08,E9,2A,00,44,66,FC,52,
4297122792,0340412E,true,Rx,0,8,76,80,00,9D,80,00,00,00,
4297123074,19000026,true,Rx,0,8,00,FF,01,40,38,11,84,00,
4297129014,0300410E,true,Rx,0,8,38,9E,A8,31,07,CC,6C,00,
4297131953,0100082C,true,Rx,0,8,00,C0,93,5F,65,EE,00,B9,
4297132231,0110483C,true,Rx,0,8,08,E9,2A,00,44,66,FC,52,
4297132520,01C04026,true,Rx,0,8,80,00,80,00,80,00,80,00,
4297132800,02000026,true,Rx,0,8,7F,34,00,DC,4A,00,E0,AC,
4297133081,02104136,true,Rx,0,8,BB,00,3F,FF,07,E0,00,00,
4297133361,02804026,true,Rx,0,8,37,FF,73,54,F7,63,0D,FF,
4297133650,02C00020,true,Rx,0,8,00,00,00,00,00,02,75,81,
4297133931,0340412E,true,Rx,0,8,77,80,00,8D,80,00,00,00,
4297134220,19A00002,true,Rx,0,8,6E,00,00,00,00,00,00,F7,
4297137443,19000026,true,Rx,0,8,00,FF,01,40,38,11,84,00,
4297139038,00800006,true,Rx,0,8,89,E1,0E,5F,41,E1,AE,63,
4297139329,0090411E,true,Rx,0,8,42,1F,E0,E7,00,00,00,00,
4297139608,0300410E,true,Rx,0,8,B8,9E,28,31,87,CC,FC,00,
4297139879,03800006,true,Rx,0,8,18,00,86,B1,C8,4B,0B,9E,
4297141573,1B200002,true,Rx,0,8,00,00,00,00,00,00,0F,71,
4297142210,0100082C,true,Rx,0,8,00,C0,93,5F,65,EE,00,B9,
4297142490,0110483C,true,Rx,0,8,08,E9,2A,00,44,66,FC,52,
4297142779,0340412E,true,Rx,0,8,78,80,00,7D,80,00,00,00,
4297146431,01C04026,true,Rx,0,8,80,00,80,00,80,00,80,00,
4297146707,02000026,true,Rx,0,8,7F,34,00,DC,4A,00,E0,AC,
4297146988,02104136,true,Rx,0,8,BB,00,3F,FF,07,E0,00,00,
4297147268,02804026,true,Rx,0,8,37,FF,72,F5,F7,63,0E,01,
4297147558,02C00020,true,Rx,0,8,00,00,00,00,00,02,75,81,
4297149067,0300410E,true,Rx,0,8,B8,9E,28,31,87,CC,FC,00,
4297152104,0100082C,true,Rx,0,8,00,C0,93,5F,65,EE,00,B9,
4297152374,0110483C,true,Rx,0,8,08,E9,AA,00,44,66,FC,52,
4297152662,0340412E,true,Rx,0,8,79,80,00,6D,80,00,00,00,
4297152953,19000026,true,Rx,0,8,00,FF,01,40,38,11,84,00,
4297159049,00800006,true,Rx,0,8,C9,E1,0E,5F,41,E1,2E,63,
4297159335,0090411E,true,Rx,0,8,02,1F,E0,E7,00,00,00,00,
4297159614,0300410E,true,Rx,0,8,38,9E,A8,31,07,CC,6C,00,
4297159884,03800006,true,Rx,0,8,18,00,86,B1,C8,4B,0B,9E,
4297160360,01C04026,true,Rx,0,8,80,00,80,00,80,00,80,00,
4297160641,02000026,true,Rx,0,8,7F,34,00,DC,4A,00,E0,AC,
4297160920,02104136,true,Rx,0,8,BB,00,3F,FF,07,E0,00,00,
4297161197,02804026,true,Rx,0,8,37,FF,72,95,F7,63,0D,FF,
4297161488,02C00020,true,Rx,0,8,00,00,00,00,00,02,75,81,
4297161777,19A00002,true,Rx,0,8,12,00,00,00,00,00,00,F7,
4297162254,0100082C,true,Rx,0,8,00,C0,93,5F,65,EE,00,B9,
4297162533,0110483C,true,Rx,0,8,08,E9,2A,00,44,66,FC,52,
4297162813,0340412E,true,Rx,0,8,7A,80,00,5D,80,00,00,00,
4297167378,19000026,true,Rx,0,8,00,FF,01,40,38,11,8C,00,
4297169059,0300410E,true,Rx,0,8,B8,9E,28,31,87,CC,FC,00,
4297169348,19E00006,true,Rx,0,8,00,00,18,C0,5B,00,40,00,
4297169636,1B600002,true,Rx,0,8,00,80,00,00,00,17,4C,00,
4297172149,0100082C,true,Rx,0,8,00,C0,93,5F,65,EE,00,B9,
4297172429,0110483C,true,Rx,0,8,08,E9,2A,00,44,66,FC,52,
4297172718,0340412E,true,Rx,0,8,7B,80,00,4D,80,00,00,00,
4297174401,01C04026,true,Rx,0,8,80,00,80,00,80,00,80,00,
4297174680,02000026,true,Rx,0,8,7F,34,00,DC,4A,00,E0,AC,
4297174959,02104136,true,Rx,0,8,BB,00,3F,FF,07,E0,00,00,
4297175241,02804026,true,Rx,0,8,37,FF,72,36,F7,63,0D,FF,
4297175523,02C00020,true,Rx,0,8,00,00,00,00,00,02,75,81,
4297179107,00800006,true,Rx,0,8,01,E1,0E,5F,41,E1,2E,63,
4297179386,0090411E,true,Rx,0,8,02,1F,60,E7,00,00,00,00,
4297179664,0300410E,true,Rx,0,8,38,9E,28,31,07,CC,6C,00,
4297179944,03800006,true,Rx,0,8,18,00,86,B1,C8,4B,0B,9E,
4297182026,0100082C,true,Rx,0,8,00,C0,93,5F,65,EE,00,B9,
4297182306,0110483C,true,Rx,0,8,08,E9,2A,00,44,66,FC,52,
4297182596,0340412E,true,Rx,0,8,7C,80,00,3D,80,00,00,00,
4297182876,19000026,true,Rx,0,8,00,FF,01,40,38,11,84,00,
4297188390,01C04026,true,Rx,0,8,80,00,80,00,80,00,80,00,
4297188665,02000026,true,Rx,0,8,7F,34,00,DC,4A,00,E0,AC,
4297188955,02104136,true,Rx,0,8,BB,00,3F,FF,07,E0,00,00,
4297189226,02804026,true,Rx,0,8,37,FF,71,D7,F7,63,0D,FF,
4297189516,02C00020,true,Rx,0,8,00,00,00,00,00,02,75,81,
4297189796,0300410E,true,Rx,0,8,B8,9E,A8,31,87,CA,FC,00,
4297190087,19A00002,true,Rx,0,8,02,00,00,00,00,00,00,F7,
4297192126,0100082C,true,Rx,0,8,00,C0,93,5F,75,EE,00,B9,
4297192405,0110483C,true,Rx,0,8,08,E9,2A,00,44,66,FC,52,
4297192683,0340412E,true,Rx,0,8,7D,80,00,2D,80,00,00,00,
4297197384,19000026,true,Rx,0,8,00,FF,01,40,38,11,84,00,
4297199094,00800006,true,Rx,0,8,49,E0,0E,5E,41,E0,AE,63,
4297199374,0090411E,true,Rx,0,8,C2,07,E1,13,00,00,00,00,
4297199651,0300410E,true,Rx,0,8,B8,9D,28,31,87,CA,FC,00,
4297199921,03800006,true,Rx,0,8,58,00,86,B1,C8,4B,0B,9E,
4297202148,0100082C,true,Rx,0,8,00,C0,93,5F,65,EE,00,B9,
4297202427,0110483C,true,Rx,0,8,08,E9,AA,00,44,66,FC,52,
4297202717,01C04026,true,Rx,0,8,80,00,80,00,80,00,80,00,
4297202998,02000026,true,Rx,0,8,7F,34,00,DC,4A,00,E0,AC,
4297203278,02104136,true,Rx,0,8,BB,00,3F,FF,07,E0,00,00,
4297203563,02804026,true,Rx,0,8,37,FF,71,78,F7,63,0D,FF,
4297203852,02C00020,true,Rx,0,8,00,00,00,00,00,02,75,81,
4297204133,0340412E,true,Rx,0,8,7E,80,00,1D,80,00,00,00,
4297209103,0300410E,true,Rx,0,8,38,9D,28,31,07,CA,6C,00,
4297211947,0100082C,true,Rx,0,8,00,C0,93,5F,65,EE,00,B9,
4297212235,0110483C,true,Rx,0,8,08,E9,2A,00,44,66,FC,52,
4297212514,0340412E,true,Rx,0,8,7F,80,00,0D,80,00,00,00,
4297212805,19000026,true,Rx,0,8,00,FF,01,40,38,11,84,00,
4297216395,01C04026,true,Rx,0,8,80,00,80,00,80,00,80,00,
4297216671,02000026,true,Rx,0,8,7F,34,00,DC,4A,00,E0,AC,
4297216961,02104136,true,Rx,0,8,BB,00,3F,FF,07,E0,00,00,
4297217231,02804026,true,Rx,0,8,37,FF,71,18,F7,63,0E,01,
4297217522,02C00020,true,Rx,0,8,00,00,00,00,00,02,75,81,
4297217812,19A00002,true,Rx,0,8,12,00,00,00,00,00,00,F7,
4297219128,00800006,true,Rx,0,8,89,E0,0E,5E,41,E0,2E,63,
4297219418,0090411E,true,Rx,0,8,02,07,E1,13,00,00,00,00,
4297219698,0300410E,true,Rx,0,8,B8,9D,A8,31,87,CA,FC,00,
4297219967,03800006,true,Rx,0,8,18,00,86,B1,C8,4B,0B,9E,
4297220258,19E00006,true,Rx,0,8,00,00,18,E0,5B,00,40,00,
4297222274,0100082C,true,Rx,0,8,00,C0,93,5F,65,EE,00,B9,
4297222550,0110483C,true,Rx,0,8,08,E9,2A,00,44,66,FC,52,
4297222841,0340412E,true,Rx,0,8,70,80,00,FD,80,00,00,00,
4297226601,1B200002,true,Rx,0,8,00,00,00,00,00,00,0F,71,
4297227384,19000026,true,Rx,0,8,00,FF,01,40,38,11,8C,00,
4297229123,0300410E,true,Rx,0,8,B8,9D,28,31,87,CA,FC,00,
4297230401,01C04026,true,Rx,0,8,80,00,80,00,80,00,80,00,
4297230680,02000026,true,Rx,0,8,7F,34,00,DC,4A,00,E0,AC,
4297230969,02104136,true,Rx,0,8,BB,00,3F,FF,07,E0,00,00,
4297231241,02804026,true,Rx,0,8,37,FF,70,B9,F7,63,0D,FF,
4297231530,02C00020,true,Rx,0,8,00,00,00,00,00,02,75,81,
4297232192,0100082C,true,Rx,0,8,00,C0,93,5F,65,EE,00,B9,
4297232471,0110483C,true,Rx,0,8,08,E9,2A,00,44,66,FC,52,
4297232759,0340412E,true,Rx,0,8,71,80,00,ED,80,00,00,00,
4297239139,00800006,true,Rx,0,8,C1,E0,0E,5F,41,E0,AE,63,
4297239414,0090411E,true,Rx,0,8,42,07,61,13,00,00,00,00,
4297239694,0300410E,true,Rx,0,8,38,9D,28,31,07,CA,6C,00,
4297239974,03800006,true,Rx,0,8,18,00,86,B1,C8,4B,0B,9E,
4297242059,0100082C,true,Rx,0,8,00,C0,93,5F,65,EE,00,B9,
4297242338,0110483C,true,Rx,0,8,08,E9,2A,00,44,66,FC,52,
4297242628,0340412E,true,Rx,0,8,72,80,00,DD,80,00,00,00,
4297242908,19000026,true,Rx,0,8,00,FF,01,40,38,11,84,00,
4297244397,01C04026,true,Rx,0,8,80,00,80,00,80,00,80,00,
4297244666,02000026,true,Rx,0,8,7F,34,00,DC,4A,00,E0,AC,
4297244956,02104136,true,Rx,0,8,BB,00,3F,FF,07,E0,00,00,
4297245238,02804026,true,Rx,0,8,37,FF,70,5A,F7,63,0D,FF,
4297245527,02C00020,true,Rx,0,8,00,00,00,00,00,02,75,81,
4297245808,19A00002,true,Rx,0,8,6E,00,00,00,00,00,00,F7,
4297249161,0300410E,true,Rx,0,8,B8,9D,A8,31,87,CA,FC,00,
4297251987,0100082C,true,Rx,0,8,00,C0,93,5F,65,EE,00,B9,
4297252262,0110483C,true,Rx,0,8,08,E9,AA,00,44,66,FC,52,
4297252541,0340412E,true,Rx,0,8,73,80,00,CD,80,00,00,00,
4297252832,1AE0092C,true,Rx,0,8,80,00,22,E0,41,A0,00,00,
4297253113,1B700030,true,Rx,0,8,3C,87,1C,00,00,C0,03,00,
4297257392,19000026,true,Rx,0,8,00,FF,01,40,38,11,8C,00,
4297258389,01C04026,true,Rx,0,8,80,00,80,00,80,00,80,00,
4297258668,02000026,true,Rx,0,8,7F,34,00,DC,4A,00,E0,AC,
4297258959,02104136,true,Rx,0,8,BB,00,3F,FF,07,E0,00,00,
4297259239,00800006,true,Rx,0,8,09,E0,0E,5F,41,E0,2E,63,
4297259521,0090411E,true,Rx,0,8,02,07,E1,13,00,00,00,00,
4297259801,02804026,true,Rx,0,8,37,FF,70,00,F7,63,0D,FF,
4297260092,02C00020,true,Rx,0,8,00,00,00,00,00,02,75,81,
4297260372,0300410E,true,Rx,0,8,38,9D,28,31,07,CA,6C,00,
4297260652,03800006,true,Rx,0,8,18,00,86,B1,C8,4B,0B,9E,
4297262297,0100082C,true,Rx,0,8,00,C0,93,5F,65,EE,00,B9,
4297262576,0110483C,true,Rx,0,8,08,E9,2A,00,44,66,FC,52,
4297262867,0340412E,true,Rx,0,8,74,80,00,BD,80,00,00,00,
4297269158,0300410E,true,Rx,0,8,B8,9D,28,31,87,CA,FC,00,
4297269433,19E00006,true,Rx,0,8,00,00,18,C0,5B,00,40,00,
4297271976,0100082C,true,Rx,0,8,00,C0,93,5F,65,EE,00,B9,
4297272256,0110483C,true,Rx,0,8,08,E9,2A,00,44,66,FC,52,
4297272556,01C04026,true,Rx,0,8,80,00,80,00,80,00,80,00,
4297272827,02000026,true,Rx,0,8,7F,34,00,DC,4A,00,E0,AC,
4297273117,02104136,true,Rx,0,8,BB,00,3F,FF,07,E0,00,00,
4297273391,02804026,true,Rx,0,8,37,FF,70,00,F7,63,0D,FF,
4297273682,02C00020,true,Rx,0,8,00,00,00,00,00,02,75,81,
4297273961,0340412E,true,Rx,0,8,75,80,00,AD,80,00,00,00,
4297274253,19000026,true,Rx,0,8,00,FF,01,40,38,11,84,00,
4297274543,19A00002,true,Rx,0,8,12,00,00,00,00,00,00,F7,
4297279177,00800006,true,Rx,0,8,49,E0,0E,5F,41,E0,2E,63,
4297279463,0090411E,true,Rx,0,8,02,03,E1,25,00,00,00,00,
4297279743,0300410E,true,Rx,0,8,B8,9D,A8,31,87,C9,FC,00,
4297280014,03800006,true,Rx,0,8,18,00,86,B1,C8,4B,0B,9E,
4297282077,0100082C,true,Rx,0,8,00,C0,93,5F,75,EE,00,B9,
4297282356,0110483C,true,Rx,0,8,08,E9,2A,00,44,66,FC,52,
4297282635,0340412E,true,Rx,0,8,76,80,00,9D,80,00,00,00,
4297286416,01C04026,true,Rx,0,8,80,00,80,00,80,00,80,00,
4297286692,02000026,true,Rx,0,8,7F,34,00,DC,4A,00,E0,AC,
4297286971,02104136,true,Rx,0,8,BB,00,3F,FF,07,E0,00,00,
4297287252,02804026,true,Rx,0,8,37,FF,70,00,F7,63,0D,FF,
4297287543,02C00020,true,Rx,0,8,00,00,00,00,00,02,75,81,
4297287822,19000026,true,Rx,0,8,00,FF,01,40,38,11,84,00,
4297288104,1BA0493C,true,Rx,0,8,04,17,10,03,01,02,01,02,
4297288393,1BE0493C,true,Rx,0,8,10,00,00,00,00,59,56,31,
4297289218,0300410E,true,Rx,0,8,38,9D,28,31,07,C9,6C,00,
4297292152,0100082C,true,Rx,0,8,00,C0,93,5F,65,EE,00,B9,
4297292432,0110483C,true,Rx,0,8,08,E9,2A,00,44,66,FC,52,
4297292710,0340412E,true,Rx,0,8,77,80,00,8D,80,00,00,00,
4297299195,00800006,true,Rx,0,8,81,E0,0E,5E,41,E0,AE,63,
4297299470,0090411E,true,Rx,0,8,C2,03,61,25,00,00,00,00,
4297299751,0300410E,true,Rx,0,8,B8,9C,28,31,87,C9,FC,00,
4297300021,03800006,true,Rx,0,8,58,00,86,B1,C8,4B,0B,9E,
4297300363,01C04026,true,Rx,0,8,80,00,80,00,80,00,80,00,
4297300642,02000026,true,Rx,0,8,7F,34,00,DC,4A,00,E0,AC,
4297300922,02104136,true,Rx,0,8,BB,00,3F,FF,07,E0,00,00,
4297301203,02804026,true,Rx,0,8,37,FF,70,00,F7,63,0D,FF,
4297301492,02C00020,true,Rx,0,8,00,00,00,00,00,02,75,81,
4297301781,19A00002,true,Rx,0,8,02,00,00,00,00,00,00,F7,
4297302228,0100082C,true,Rx,0,8,00,C0,93,5F,65,EE,00,B9,
4297302507,0110483C,true,Rx,0,8,08,E9,AA,00,44,66,FC,52,
4297302798,0340412E,true,Rx,0,8,78,80,00,7D,80,00,00,00,
4297303088,19000026,true,Rx,0,8,00,FF,01,40,38,11,8C,00,
4297309198,0300410E,true,Rx,0,8,B8,9C,A8,31,87,C9,FC,00,
4297311557,1B200002,true,Rx,0,8,00,00,00,00,00,00,0F,71,
4297311999,0100082C,true,Rx,0,8,00,C0,93,5F,65,EE,00,B9,
4297312278,0110483C,true,Rx,0,8,08,E9,2A,00,44,66,FC,52,
4297312557,0340412E,true,Rx,0,8,79,80,00,6D,80,00,00,00,
4297314405,01C04026,true,Rx,0,8,80,00,80,00,80,00,80,00,
4297314684,02000026,true,Rx,0,8,7F,34,00,DC,4A,00,E0,AC,
4297314975,02104136,true,Rx,0,8,BB,00,3F,FF,07,E0,00,00,
4297315245,02804026,true,Rx,0,8,37,FF,70,00,F7,63,0D,FF,
4297315535,02C00020,true,Rx,0,8,00,00,00,00,00,02,75,81,
4297317387,19000026,true,Rx,0,8,00,FF,01,40,38,11,84,00,
4297319239,00800006,true,Rx,0,8,C9,E0,0E,5E,41,E0,2E,63,
4297319529,0090411E,true,Rx,0,8,02,03,E1,25,00,00,00,00,
4297319807,0300410E,true,Rx,0,8,38,9C,28,31,07,C9,6C,00,
4297320078,03800006,true,Rx,0,8,18,00,86,B1,C8,4B,0B,9E,
4297320369,19E00006,true,Rx,0,8,00,00,18,E0,5B,00,40,00,
4297322205,0100082C,true,Rx,0,8,00,C0,93,5F,65,EE,00,B9,
4297322484,0110483C,true,Rx,0,8,08,E9,2A,00,44,66,FC,52,
4297322765,0340412E,true,Rx,0,8,7A,80,00,5D,80,00,00,00,
4297328398,01C04026,true,Rx,0,8,80,00,80,00,80,00,80,00,
4297328673,02000026,true,Rx,0,8,7F,34,00,DC,4A,00,E0,AC,
4297328964,02104136,true,Rx,0,8,BB,00,3F,FF,07,E0,00,00,
4297329234,02804026,true,Rx,0,8,37,FF,70,00,F7,63,0D,FF,
4297329525,02C00020,true,Rx,0,8,00,00,00,00,00,02,75,81,
4297329804,0300410E,true,Rx,0,8,B8,9C,28,31,87,C9,FC,00,
4297330095,19A00002,true,Rx,0,8,12,00,00,00,00,00,00,F7,
4297332123,0100082C,true,Rx,0,8,00,C0,93,5F,65,EE,00,B9,
4297332402,0110483C,true,Rx,0,8,08,E9,2A,00,44,66,FC,52,
4297332681,0340412E,true,Rx,0,8,7B,80,00,4D,80,00,00,00,
4297332971,19000026,true,Rx,0,8,00,FF,01,40,38,11,8C,00,
4297339231,00800006,true,Rx,0,8,01,E0,0E,5E,41,E0,2E,63,
4297339518,0090411E,true,Rx,0,8,02,03,61,25,00,00,00,00,
4297339797,0300410E,true,Rx,0,8,38,9C,28,31,07,C9,6C,00,
4297340068,03800006,true,Rx,0,8,18,00,86,B1,C8,4B,0B,9E,
4297340359,1B600002,true,Rx,0,8,00,80,00,00,00,17,4C,00,
4297342114,0100082C,true,Rx,0,8,00,C0,93,5F,65,EE,00,B9,
4297342394,0110483C,true,Rx,0,8,08,E9,2A,00,44,66,FC,52,
4297342685,01C04026,true,Rx,0,8,80,00,80,00,80,00,80,00,
4297342964,02000026,true,Rx,0,8,7F,34,00,DC,4A,00,E0,AC,
4297343255,02104136,true,Rx,0,8,BB,00,3F,FF,07,E0,00,00,
4297343530,02804026,true,Rx,0,8,37,FF,70,00,F7,63,0E,01,
4297343819,02C00020,true,Rx,0,8,00,00,00,00,00,02,75,81,
4297344100,0340412E,true,Rx,0,8,7C,80,00,3D,80,00,00,00,
4297347451,19000026,true,Rx,0,8,00,FF,01,40,38,11,84,00,
4297349243,0300410E,true,Rx,0,8,B8,9C,A8,31,87,C9,FC,00,
4297352037,0100082C,true,Rx,0,8,00,C0,93,5F,65,EE,00,B9,
4297352323,0110483C,true,Rx,0,8,08,E9,AA,00,44,66,FC,52,
4297352603,0340412E,true,Rx,0,8,7D,80,00,2D,80,00,00,00,
4297356428,01C04026,true,Rx,0,8,80,00,80,00,80,00,80,00,
4297356714,02000026,true,Rx,0,8,7F,34,00,DC,4A,00,E0,AC,
4297356994,02104136,true,Rx,0,8,BB,00,3F,FF,07,E0,00,00,
4297357275,02804026,true,Rx,0,8,37,FF,70,00,F7,63,0D,FF,
4297357565,02C00020,true,Rx,0,8,00,00,00,00,00,02,75,81,
4297357844,19A00002,true,Rx,0,8,6E,00,00,00,00,00,00,F7,
4297358136,1A200020,true,Rx,0,8,8E,00,02,2E,00,00,02,2E,
4297359277,00800006,true,Rx,0,8,49,E0,0E,5E,41,E0,AE,63,
4297359568,0090411E,true,Rx,0,8,42,03,E1,25,00,00,00,00,
4297359837,0300410E,true,Rx,0,8,B8,9C,28,31,87,C9,FC,00,
4297360117,03800006,true,Rx,0,8,18,00,86,B1,C8,4B,0B,9E,
4297362255,0100082C,true,Rx,0,8,00,C0,93,5F,65,EE,00,B9,
4297362541,0110483C,true,Rx,0,8,08,E9,2A,00,44,66,FC,52,
4297362821,0340412E,true,Rx,0,8,7E,80,00,1D,80,00,00,00,
4297363101,19000026,true,Rx,0,8,00,FF,01,40,38,11,84,00,
4297369250,0300410E,true,Rx,0,8,38,9C,A8,31,07,C9,6C,00,
4297369537,19E00006,true,Rx,0,8,00,00,18,C0,5B,00,40,00,
4297370394,01C04026,true,Rx,0,8,80,00,80,00,80,00,80,00,
4297370673,02000026,true,Rx,0,8,7F,34,00,DC,4A,00,E0,AC,
4297370952,02104136,true,Rx,0,8,BB,00,3F,FF,07,E0,00,00,
4297371234,02804026,true,Rx,0,8,37,FF,70,00,F7,63,0D,FF,
4297371518,02C00020,true,Rx,0,8,00,00,00,00,00,02,75,81,
4297372159,0100082C,true,Rx,0,8,00,C0,93,5F,75,EE,00,B9,
4297372448,0110483C,true,Rx,0,8,08,E9,2A,00,44,66,FC,52,
4297372729,0340412E,true,Rx,0,8,7F,80,00,0D,80,00,00,00,
4297377383,19000026,true,Rx,0,8,00,FF,01,40,38,11,8C,00,
4297379276,00800006,true,Rx,0,8,89,E0,0E,5E,41,E0,2E,63,
4297379552,0090411E,true,Rx,0,8,02,02,E1,33,00,00,00,00,
4297379831,0300410E,true,Rx,0,8,B8,9C,28,31,87,C9,FC,00,
4297380102,03800006,true,Rx,0,8,18,00,86,B1,C8,4B,0B,9E,
4297382134,0100082C,true,Rx,0,8,00,C0,93,5F,65,EE,00,B9,
4297382424,0110483C,true,Rx,0,8,08,E9,2A,00,44,66,FC,52,
4297382704,0340412E,true,Rx,0,8,70,80,00,FD,80,00,00,00,
4297384437,01C04026,true,Rx,0,8,80,00,80,00,80,00,80,00,
4297384717,02000026,true,Rx,0,8,7F,34,00,DC,49,00,E0,AC,
4297385009,02104136,true,Rx,0,8,BB,00,3F,FF,07,E0,00,00,
4297385288,02804026,true,Rx,0,8,37,FF,70,00,F7,63,0D,FF,
4297385570,02C00020,true,Rx,0,8,00,00,00,00,00,02,75,81,
4297385860,19A00002,true,Rx,0,8,12,00,00,00,00,00,00,F7,
4297389302,0300410E,true,Rx,0,8,B8,9C,28,31,87,C9,FC,00,
4297391941,0100082C,true,Rx,0,8,00,C0,93,5F,65,EE,00,B9,
4297392217,0110483C,true,Rx,0,8,08,E9,2A,00,44,66,FC,52,
4297392508,0340412E,true,Rx,0,8,71,80,00,ED,80,00,00,00,
4297392787,19000026,true,Rx,0,8,00,FF,01,40,38,11,84,00,
4297396555,1B200002,true,Rx,0,8,00,00,00,00,00,00,0F,71,
4297398397,01C04026,true,Rx,0,8,80,00,80,00,80,00,80,00,
4297398673,02000026,true,Rx,0,8,7F,34,00,DC,4A,00,E0,AC,
4297398953,02104136,true,Rx,0,8,BB,00,3F,FF,07,E0,00,00,
4297399233,02804026,true,Rx,0,8,37,FF,70,00,F7,63,0D,FF,
4297399513,00800006,true,Rx,0,8,C9,E0,0E,5E,41,E0,AE,63,
4297399803,0090411E,true,Rx,0,8,C2,02,E1,33,00,00,00,00,
4297400083,02C00020,true,Rx,0,8,00,00,00,00,00,02,75,81,
4297400364,0300410E,true,Rx,0,8,38,9C,A8,31,07,C9,6C,00,
4297400642,03800006,true,Rx,0,8,58,00,86,B1,C8,4B,0B,9E,
4297402222,0100082C,true,Rx,0,8,00,C0,93,5F,65,EE,00,B9,
4297402503,0110483C,true,Rx,0,8,08,E9,AA,00,44,66,FC,52,
4297402782,0340412E,true,Rx,0,8,72,80,00,DD,80,00,00,00,
4297407392,19000026,true,Rx,0,8,00,FF,01,40,38,11,8C,00,
4297409296,0300410E,true,Rx,0,8,B8,9C,28,31,87,C9,FC,00,
4297412040,0100082C,true,Rx,0,8,00,C0,93,5F,65,EE,00,B9,
4297412325,0110483C,true,Rx,0,8,08,E9,2A,00,44,66,FC,52,
4297412616,01C04026,true,Rx,0,8,80,00,80,00,80,00,80,00,
4297412885,02000026,true,Rx,0,8,7F,34,00,DC,4A,00,E0,AC,
4297413176,02104136,true,Rx,0,8,BB,00,3F,FF,07,E0,00,00,
4297413457,02804026,true,Rx,0,8,37,FF,70,00,F7,63,0D,FF,
4297413746,02C00020,true,Rx,0,8,00,00,00,00,00,02,75,81,
4297414028,0340412E,true,Rx,0,8,73,80,00,CD,80,00,00,00,
4297414316,19A00002,true,Rx,0,8,02,00,00,00,00,00,00,F7,
4297419317,00800006,true,Rx,0,8,01,E0,0E,5E,41,E0,2E,63,
4297419604,0090411E,true,Rx,0,8,02,02,61,33,00,00,00,00,
4297419883,0300410E,true,Rx,0,8,38,9C,28,31,07,C9,6C,00,
4297420155,03800006,true,Rx,0,8,18,00,86,B1,C8,4B,0B,9E,
4297420444,19E00006,true,Rx,0,8,00,00,18,E0,5B,00,40,00,
4297422097,0100082C,true,Rx,0,8,00,C0,93,5F,65,EF,00,B9,
4297422377,0110483C,true,Rx,0,8,08,E9,2A,00,44,66,FC,52,
4297422657,0340412E,true,Rx,0,8,74,80,00,BD,80,00,00,00,
4297422947,19000026,true,Rx,0,8,00,FF,01,40,38,11,84,00,
4297426400,01C04026,true,Rx,0,8,80,00,80,00,80,00,80,00,
4297426676,02000026,true,Rx,0,8,7F,34,00,DC,4A,00,E0,AC,
4297426965,02104136,true,Rx,0,8,BB,00,3F,FF,07,E0,00,00,
4297427237,02804026,true,Rx,0,8,37,FF,70,00,F7,63,0D,FF,
4297427526,02C00020,true,Rx,0,8,00,00,00,00,00,02,75,81,
4297429344,0300410E,true,Rx,0,8,B8,9C,A8,31,87,C9,FC,00,
4297432083,0100082C,true,Rx,0,8,00,C0,93,5F,65,EF,00,B9,
4297432362,0110483C,true,Rx,0,8,08,E9,2A,00,44,66,FC,52,
4297432651,0340412E,true,Rx,0,8,75,80,00,AD,80,00,00,00,
4297437385,19000026,true,Rx,0,8,00,FF,01,40,38,11,8C,00,
4297439331,00800006,true,Rx,0,8,49,E0,0E,5E,41,E0,AE,63,
4297439607,0090411E,true,Rx,0,8,42,02,E1,33,00,00,00,00,
4297439886,0300410E,true,Rx,0,8,B8,9C,28,31,87,C9,FC,00,
4297440168,03800006,true,Rx,0,8,18,00,86,B1,C8,4B,0B,9E,
4297440458,01C04026,true,Rx,0,8,80,00,80,00,80,00,80,00,
4297440737,02000026,true,Rx,0,8,7F,34,00,DC,4A,00,E0,AC,
4297441019,02104136,true,Rx,0,8,BB,00,3F,FF,07,E0,00,00,
4297441298,02804026,true,Rx,0,8,37,FF,70,1B,F7,63,0D,FF,
4297441586,02C00020,true,Rx,0,8,00,00,00,00,00,02,75,81,
4297441877,19A00002,true,Rx,0,8,12,00,00,00,00,00,00,F7,
4297442322,0100082C,true,Rx,0,8,00,C0,93,5F,65,EF,00,B9,
4297442603,0110483C,true,Rx,0,8,08,E9,2A,00,44,66,FC,52,
4297442882,0340412E,true,Rx,0,8,76,80,00,9D,80,00,00,00,
4297449331,0300410E,true,Rx,0,8,38,9C,28,31,07,C9,6C,00,
4297451948,0100082C,true,Rx,0,8,00,C0,93,5F,65,EF,00,B9,
4297452224,0110483C,true,Rx,0,8,08,E9,AA,00,44,66,FC,52,
4297452505,0340412E,true,Rx,0,8,77,80,00,8D,80,00,00,00,
4297452795,19000026,true,Rx,0,8,00,FF,01,40,38,11,84,00,
4297454415,01C04026,true,Rx,0,8,80,00,80,00,80,00,80,00,
4297454694,02000026,true,Rx,0,8,7F,34,00,DC,4A,00,E0,AC,
4297454974,02104136,true,Rx,0,8,BB,00,3F,FF,07,E0,00,00,
4297455255,02804026,true,Rx,0,8,37,FF,70,76,F7,63,0D,FF,
4297455546,02C00020,true,Rx,0,8,00,00,00,00,00,02,75,81,
4297459375,00800006,true,Rx,0,8,89,E0,0E,5E,41,E0,2E,63,
4297459660,0090411E,true,Rx,0,8,02,02,E1,33,00,00,00,00,
4297459929,0300410E,true,Rx,0,8,B8,9C,A8,31,87,C9,FC,00,
4297460211,03800006,true,Rx,0,8,18,00,86,B1,C8,4B,0B,9E,
4297462109,0100082C,true,Rx,0,8,00,C0,93,5F,65,EF,00,B9,
4297462400,0110483C,true,Rx,0,8,08,E9,2A,00,44,66,FC,52,
4297462679,0340412E,true,Rx,0,8,78,80,00,7D,80,00,00,00,
4297462958,1B700030,true,Rx,0,8,2C,87,1C,00,00,C0,03,00,
4297467396,19000026,true,Rx,0,8,00,FF,01,40,38,11,8C,00,
4297468392,01C04026,true,Rx,0,8,80,00,80,00,80,00,80,00,
4297468663,02000026,true,Rx,0,8,7F,34,00,DC,4A,00,E0,AC,
4297468952,02104136,true,Rx,0,8,BB,00,3F,FF,07,E0,00,00,
4297469233,02804026,true,Rx,0,8,37,FF,70,D3,F7,63,0D,FF,
4297469516,02C00020,true,Rx,0,8,00,00,00,00,00,02,75,81,
4297469795,0300410E,true,Rx,0,8,B8,9C,28,31,87,C9,FC,00,
4297470077,19A00002,true,Rx,0,8,6E,00,00,00,00,00,00,F7,
4297470367,19E00006,true,Rx,0,8,00,00,18,C0,5B,00,40,00,
4297472338,0100082C,true,Rx,0,8,00,C0,93,5F,65,EF,00,B9,
4297472619,0110483C,true,Rx,0,8,08,E9,2A,00,44,66,FC,52,
4297472898,0340412E,true,Rx,0,8,79,80,00,6D,80,00,00,00,
4297479375,00800006,true,Rx,0,8,C1,E0,0E,5E,41,E0,2E,63,
4297479650,0090411E,true,Rx,0,8,02,02,61,33,00,00,00,00,
4297479929,0300410E,true,Rx,0,8,38,9C,28,31,07,C9,6C,00,
4297480211,03800006,true,Rx,0,8,18,00,86,B1,C8,4B,0B,9E,
4297481655,1B200002,true,Rx,0,8,00,00,00,00,00,00,0F,71,
4297482049,0100082C,true,Rx,0,8,00,C0,93,5F,65,EF,00,B9,
4297482328,0110483C,true,Rx,0,8,08,E9,2A,00,44,66,FC,52,
4297482619,01C04026,true,Rx,0,8,80,00,80,00,80,00,80,00,
4297482888,02000026,true,Rx,0,8,7F,34,00,DC,4A,00,E0,AC,
4297483180,02104136,true,Rx,0,8,BB,00,3F,FF,07,E0,00,00,
4297483456,02804026,true,Rx,0,8,37,FF,71,31,F7,63,0D,FF,
4297483745,02C00020,true,Rx,0,8,00,00,00,00,00,02,75,81,
4297484027,0340412E,true,Rx,0,8,7A,80,00,5D,80,00,00,00,
4297484317,19000026,true,Rx,0,8,00,FF,01,40,38,11,84,00,
4297489382,0300410E,true,Rx,0,8,B8,9C,A8,31,87,C9,FC,00,
4297491968,0100082C,true,Rx,0,8,00,C0,93,5F,65,EF,00,B9,
4297492245,0110483C,true,Rx,0,8,08,E9,2A,00,44,66,FC,52,
4297492525,0340412E,true,Rx,0,8,7B,80,00,4D,80,00,00,00,
4297496413,01C04026,true,Rx,0,8,80,00,80,00,80,00,80,00,
4297496688,02000026,true,Rx,0,8,7F,34,00,DC,4A,00,E0,AC,
4297496968,02104136,true,Rx,0,8,BB,00,3F,FF,07,E0,00,00,
4297497249,02804026,true,Rx,0,8,37,FF,71,8F,F7,63,0D,FF,
4297497539,02C00020,true,Rx,0,8,00,00,00,00,00,02,75,81,
4297497819,19000026,true,Rx,0,8,00,FF,01,40,38,11,84,00,
4297498110,19A00002,true,Rx,0,8,12,00,00,00,00,00,00,F7,
4297499417,00800006,true,Rx,0,8,09,E0,0E,5E,41,E0,AE,63,
4297499696,0090411E,true,Rx,0,8,C2,00,E1,36,00,00,00,00,
4297499976,0300410E,true,Rx,0,8,38,9C,28,31,07,C9,6C,00,
4297500257,03800006,true,Rx,0,8,58,00,86,B1,C8,4B,0B,9E,
4297502363,0100082C,true,Rx,0,8,00,C0,93,5F,65,EF,00,B9,
4297502639,0110483C,true,Rx,0,8,08,E9,AA,00,44,66,FC,52,
4297502928,0340412E,true,Rx,0,8,7C,80,00,3D,80,00,00,00,
4297509388,0300410E,true,Rx,0,8,B8,9C,28,31,87,C9,FC,00,
4297509683,1B600002,true,Rx,0,8,00,80,08,1C,00,17,4C,00,
4297510387,01C04026,true,Rx,0,8,80,00,80,00,80,00,80,00,
4297510666,02000026,true,Rx,0,8,7F,34,00,DC,4A,00,E0,AC,
4297510946,02104136,true,Rx,0,8,BB,00,3F,FF,07,E0,00,00,
4297511228,02804026,true,Rx,0,8,37,FF,71,ED,F7,63,0D,FF,
4297511522,02C00020,true,Rx,0,8,00,00,00,00,00,02,75,81,
4297512194,0100082C,true,Rx,0,8,00,C0,93,5F,75,EF,00,B9,
4297512475,0110483C,true,Rx,0,8,08,E9,2A,00,44,66,FC,52,
4297512764,0340412E,true,Rx,0,8,7D,80,00,2D,80,00,00,00,
4297513055,19000026,true,Rx,0,8,00,FF,01,40,38,11,8C,00,
4297519401,00800006,true,Rx,0,8,49,E0,0E,5E,41,E0,2E,63,
4297519697,0090411E,true,Rx,0,8,02,00,E1,36,00,00,00,00,
4297519966,0300410E,true,Rx,0,8,B8,9C,A8,31,87,C9,FC,00,
4297520248,03800006,true,Rx,0,8,18,00,86,B1,C8,4B,0B,9E,
4297520528,19E00006,true,Rx,0,8,00,00,18,E0,5B,00,40,00,
4297522099,0100082C,true,Rx,0,8,00,C0,93,5F,65,EF,00,B9,
4297522379,0110483C,true,Rx,0,8,08,E9,2A,00,44,66,FC,52,
4297522669,0340412E,true,Rx,0,8,7E,80,00,1D,80,00,00,00,
4297524423,01C04026,true,Rx,0,8,80,00,80,00,80,00,80,00,
4297524703,02000026,true,Rx,0,8,7F,34,00,DC,4A,00,E0,AC,
4297524994,02104136,true,Rx,0,8,BB,00,3F,FF,07,E0,00,00,
4297525263,02804026,true,Rx,0,8,37,FF,72,4C,F7,63,0D,FF,
4297525556,02C00020,true,Rx,0,8,00,00,00,00,00,02,75,81,
4297525846,19A00002,true,Rx,0,8,02,00,00,00,00,00,00,F7,
4297527394,19000026,true,Rx,0,8,00,FF,01,40,38,11,84,00,
4297529447,0300410E,true,Rx,0,8,38,9C,28,31,07,C9,6C,00,
4297532024,0100082C,true,Rx,0,8,00,C0,93,5F,65,EF,00,B9,
4297532311,0110483C,true,Rx,0,8,08,E9,2A,00,44,66,FC,52,
4297532590,0340412E,true,Rx,0,8,7F,80,00,0D,80,00,00,00,
4297536974,1BA0493C,true,Rx,0,8,05,03,01,01,01,02,01,03,
4297537261,1BE0493C,true,Rx,0,8,01,00,2A,BC,81,DD,02,04,
4297538417,01C04026,true,Rx,0,8,80,00,80,00,80,00,80,00,
4297538697,02000026,true,Rx,0,8,7F,34,00,DC,4A,00,E0,AC,
4297538987,02104136,true,Rx,0,8,BB,00,3F,FF,07,E0,00,00,
4297539260,02804026,true,Rx,0,8,37,FF,72,AB,F7,63,0D,FF,
4297539539,00800006,true,Rx,0,8,81,E0,0E,5E,41,E0,AE,63,
4297539829,0090411E,true,Rx,0,8,42,00,61,36,00,00,00,00,
4297540121,02C00020,true,Rx,0,8,00,00,00,00,00,02,75,81,
4297540400,0300410E,true,Rx,0,8,B8,9C,28,31,87,C9,FC,00,
4297540669,03800006,true,Rx,0,8,18,00,86,B1,C8,4B,0B,9E,
4297542203,0100082C,true,Rx,0,8,00,C0,93,5F,65,EF,00,B9,
4297542484,0110483C,true,Rx,0,8,08,E9,2A,00,44,66,FC,52,
4297542773,0340412E,true,Rx,0,8,70,80,00,FD,80,00,00,00,
4297543055,19000026,true,Rx,0,8,00,FF,01,40,38,11,8C,00,
4297549432,0300410E,true,Rx,0,8,B8,9C,A8,31,87,C9,FC,00,
4297551977,0100082C,true,Rx,0,8,00,C0,93,5F,65,EF,00,B9,
4297552254,0110483C,true,Rx,0,8,08,E9,AA,00,44,66,FC,52,
4297552544,01C04026,true,Rx,0,8,80,00,80,00,80,00,80,00,
4297552823,02000026,true,Rx,0,8,7F,34,00,DC,4A,00,E0,AC,
4297553106,02104136,true,Rx,0,8,BB,00,3F,FF,07,E0,00,00,
4297553385,02804026,true,Rx,0,8,37,FF,73,0A,F7,63,0D,FF,
4297553675,02C00020,true,Rx,0,8,00,00,00,00,00,02,75,81,
4297553955,0340412E,true,Rx,0,8,71,80,00,ED,80,00,00,00,
4297554244,19A00002,true,Rx,0,8,12,00,00,00,00,00,00,F7,
4297557456,19000026,true,Rx,0,8,00,FF,01,40,38,11,84,00,
4297559454,00800006,true,Rx,0,8,C9,E0,0E,5E,41,E0,2E,63,
4297559733,0090411E,true,Rx,0,8,02,00,E1,36,00,00,00,00,
4297560015,0300410E,true,Rx,0,8,38,9C,28,31,07,C9,6C,00,
4297560294,03800006,true,Rx,0,8,18,00,86,B1,C8,4B,0B,9E,
4297562146,0100082C,true,Rx,0,8,00,C0,93,5F,65,EF,00,B9,
4297562427,0110483C,true,Rx,0,8,08,E9,2A,00,44,66,FC,52,
4297562716,0340412E,true,Rx,0,8,72,80,00,DD,80,00,00,00,
4297566431,01C04026,true,Rx,0,8,80,00,80,00,80,00,80,00,
4297566706,02000026,true,Rx,0,8,7F,34,00,DC,4A,00,E0,AC,
4297566998,02104136,true,Rx,0,8,BB,00,3F,FF,07,E0,00,00,
4297567267,02804026,true,Rx,0,8,37,FF,73,6A,F7,63,0D,FF,
4297567557,02C00020,true,Rx,0,8,00,00,00,00,00,02,75,81,
4297567848,1B200002,true,Rx,0,8,00,00,00,00,00,00,0F,71,
4297569482,0300410E,true,Rx,0,8,B8,9C,28,31,87,C9,FC,00,
4297569761,19E00006,true,Rx,0,8,00,00,18,C0,5B,00,40,00,
4297572122,0100082C,true,Rx,0,8,00,C0,93,5F,65,EF,00,B9,
4297572402,0110483C,true,Rx,0,8,08,E9,2A,00,44,66,FC,52,
4297572679,0340412E,true,Rx,0,8,73,80,00,CD,80,00,00,00,
4297572969,19000026,true,Rx,0,8,00,FF,01,40,38,11,84,00,
4297579468,00800006,true,Rx,0,8,01,E0,0E,5E,41,E0,2E,63,
4297579754,0090411E,true,Rx,0,8,02,00,61,36,00,00,00,00,
4297580035,0300410E,true,Rx,0,8,38,9C,28,31,07,C9,6C,00,
4297580315,03800006,true,Rx,0,8,18,00,86,B1,C8,4B,0B,9E,
4297580604,01C04026,true,Rx,0,8,80,00,80,00,80,00,80,00,
4297580885,02000026,true,Rx,0,8,7F,34,00,DC,4A,00,E0,AC,
4297581166,02104136,true,Rx,0,8,BB,00,3F,FF,07,E0,00,00,
4297581447,02804026,true,Rx,0,8,37,FF,73,C9,F7,63,0D,FF,
4297581735,02C00020,true,Rx,0,8,00,00,00,00,00,02,75,81,
4297582025,19A00002,true,Rx,0,8,6E,00,00,00,00,00,00,F7,
4297582306,0100082C,true,Rx,0,8,00,C0,93,5F,65,EF,00,B9,
4297582585,0110483C,true,Rx,0,8,08,E9,2A,00,44,66,FC,52,
4297582864,0340412E,true,Rx,0,8,74,80,00,BD,80,00,00,00,
4297587395,19000026,true,Rx,0,8,00,FF,01,40,38,11,8C,00,
4297589476,0300410E,true,Rx,0,8,B8,9C,A8,31,87,C9,FC,00,
4297592053,0100082C,true,Rx,0,8,00,C0,93,5F,65,EF,00,B9,
4297592330,0110483C,true,Rx,0,8,08,E9,2A,00,44,66,FC,52,
4297592609,0340412E,true,Rx,0,8,75,80,00,AD,80,00,00,00,
4297594453,01C04026,true,Rx,0,8,80,00,80,00,80,00,80,00,
4297594734,02000026,true,Rx,0,8,7F,34,00,DC,4A,00,E0,AC,
4297595014,02104136,true,Rx,0,8,BB,00,3F,FF,07,E0,00,00,
4297595295,02804026,true,Rx,0,8,37,FF,74,28,F7,63,0D,FF,
4297595584,02C00020,true,Rx,0,8,00,00,00,00,00,02,75,81,
4297599504,00800006,true,Rx,0,8,49,E0,0E,5E,41,E0,AE,63,
4297599790,0090411E,true,Rx,0,8,C2,01,E1,3C,01,00,00,00,
4297600061,0300410E,true,Rx,0,8,B8,9C,28,31,87,C9,FC,00,
4297600340,03800006,true,Rx,0,8,58,00,86,B1,C8,4B,0B,9E,
4297602084,0100082C,true,Rx,0,8,00,C0,93,5F,75,EF,00,B9,
4297602364,0110483C,true,Rx,0,8,08,E9,AA,00,44,66,FC,52,
4297602643,0340412E,true,Rx,0,8,76,80,00,9D,80,00,00,00,
4297602934,19000026,true,Rx,0,8,00,FF,01,40,38,11,84,00,
4297608438,01C04026,true,Rx,0,8,80,00,80,00,80,00,80,00,
4297608713,02000026,true,Rx,0,8,7F,34,00,DC,4A,00,E0,AC,
4297609005,02104136,true,Rx,0,8,BB,00,3F,FF,07,E0,00,00,
4297609275,02804026,true,Rx,0,8,37,FF,74,88,F7,63,0D,FF,
4297609564,02C00020,true,Rx,0,8,00,00,00,00,00,02,75,81,
4297609845,0300410E,true,Rx,0,8,38,9C,A8,31,07,C9,6C,00,
4297610136,19A00002,true,Rx,0,8,12,00,00,00,00,00,00,F7,
4297612132,0100082C,true,Rx,0,8,00,C0,93,5F,65,EF,00,B9,
4297612412,0110483C,true,Rx,0,8,08,E9,2A,00,44,66,FC,52,
4297612690,0340412E,true,Rx,0,8,77,80,00,8D,80,00,00,00,
4297617402,19000026,true,Rx,0,8,00,FF,01,40,38,11,8C,00,
4297619512,00800006,true,Rx,0,8,89,E0,0E,5E,41,E0,2E,63,
4297619788,0090411E,true,Rx,0,8,02,01,E1,3C,01,00,00,00,
4297620069,0300410E,true,Rx,0,8,B8,9C,28,31,87,C9,FC,00,
4297620349,03800006,true,Rx,0,8,18,00,86,B1,C8,4B,0B,9E,
4297620629,19E00006,true,Rx,0,8,00,00,18,E0,5B,00,40,00,
4297622241,0100082C,true,Rx,0,8,00,C0,93,5F,65,EF,00,B9,
4297622520,0110483C,true,Rx,0,8,08,E9,2A,00,44,66,FC,52,
4297622810,01C04026,true,Rx,0,8,80,00,80,00,80,00,80,00,
4297623092,02000026,true,Rx,0,8,7F,34,00,DC,4A,00,E0,AC,
4297623381,02104136,true,Rx,0,8,BB,00,3F,FF,07,E0,00,00,
4297623655,02804026,true,Rx,0,8,37,FF,74,E7,F7,63,0D,FF,
4297623945,02C00020,true,Rx,0,8,00,00,00,00,00,02,75,81,
4297624236,0340412E,true,Rx,0,8,78,80,00,7D,80,00,00,00,
4297629515,0300410E,true,Rx,0,8,B8,9B,28,31,87,C9,FC,00,
4297631946,0100082C,true,Rx,0,8,00,C0,93,5F,65,EF,00,B9,
4297632234,0110483C,true,Rx,0,8,08,E9,2A,00,44,66,FC,52,
4297632513,0340412E,true,Rx,0,8,79,80,00,6D,80,00,00,00,
4297632803,19000026,true,Rx,0,8,00,FF,01,40,38,11,84,00,
4297636446,01C04026,true,Rx,0,8,80,00,80,00,80,00,80,00,
4297636733,02000026,true,Rx,0,8,7F,34,00,DC,4A,00,E0,AC,
4297637013,02104136,true,Rx,0,8,BB,00,3F,FF,07,E0,00,00,
4297637293,02804026,true,Rx,0,8,37,FF,75,46,F7,63,0E,01,
4297637583,02C00020,true,Rx,0,8,00,00,00,00,00,02,75,81,
4297637863,19A00002,true,Rx,0,8,02,00,00,00,00,00,00,F7,
4297639549,00800006,true,Rx,0,8,C9,DF,0E,5D,41,DF,2E,63,
4297639840,0090411E,true,Rx,0,8,02,23,E1,D2,01,00,00,00,
4297640110,0300410E,true,Rx,0,8,38,9B,A8,31,07,C9,6C,00,
4297640389,03800006,true,Rx,0,8,18,00,86,B1,C8,4B,0B,9E,
4297642249,0100082C,true,Rx,0,8,00,C0,93,5F,65,EF,00,B9,
4297642535,0110483C,true,Rx,0,8,08,E9,2A,00,44,66,FC,52,
4297642814,0340412E,true,Rx,0,8,7A,80,00,5D,80,00,00,00,
4297647394,19000026,true,Rx,0,8,00,FF,01,40,38,11,8C,00,
4297649538,0300410E,true,Rx,0,8,B8,99,28,32,87,C9,FC,00,
4297650422,01C04026,true,Rx,0,8,80,00,80,00,80,00,80,00,
4297650702,02000026,true,Rx,0,8,7F,34,00,DC,4A,00,E0,AC,
4297650993,02104136,true,Rx,0,8,BB,00,3F,FF,07,E0,00,00,
4297651272,02804026,true,Rx,0,8,37,FF,75,A5,F7,63,0D,FF,
4297651553,02C00020,true,Rx,0,8,00,00,00,00,00,02,75,81,
4297651847,1B200002,true,Rx,0,8,00,00,00,00,00,00,0F,71,
4297652211,0100082C,true,Rx,0,8,00,C0,93,5F,65,EF,00,B9,
4297652490,0110483C,true,Rx,0,8,08,E9,AA,00,44,66,FC,52,
4297652769,0340412E,true,Rx,0,8,7B,80,00,4D,80,00,00,00,
4297659546,00800006,true,Rx,0,8,01,DF,0E,5C,41,DF,AE,62,
4297659833,0090411E,true,Rx,0,8,42,23,61,D2,01,00,00,00,
4297660103,0300410E,true,Rx,0,8,38,99,28,32,07,C9,6C,00,
4297660382,03800006,true,Rx,0,8,18,00,86,B1,C8,4B,0B,9E,
4297662054,0100082C,true,Rx,0,8,00,C0,93,5F,65,EF,00,B9,
4297662334,0110483C,true,Rx,0,8,08,E9,2A,00,44,66,FC,52,
4297662614,0340412E,true,Rx,0,8,7C,80,00,3D,80,00,00,00,
4297662904,19000026,true,Rx,0,8,00,FF,01,40,38,11,84,00,
4297664434,01C04026,true,Rx,0,8,80,00,80,00,80,00,80,00,
4297664713,02000026,true,Rx,0,8,7F,34,00,DC,4A,00,E0,AC,
4297664994,02104136,true,Rx,0,8,BB,00,3F,FF,07,E0,00,00,
4297665275,02804026,true,Rx,0,8,37,FF,76,05,F7,63,0D,FF,
4297665564,02C00020,true,Rx,0,8,00,00,00,00,00,02,75,81,
4297665858,19A00002,true,Rx,0,8,12,00,00,00,00,00,00,F7,
4297669577,0300410E,true,Rx,0,8,B8,99,28,32,87,C9,FC,00,
4297669864,19E00006,true,Rx,0,8,00,00,18,C0,5B,00,40,00,
4297672027,0100082C,true,Rx,0,8,00,C0,93,5F,65,EF,00,B9,
4297672308,0110483C,true,Rx,0,8,08,E9,2A,00,44,66,FC,52,
4297672597,0340412E,true,Rx,0,8,7D,80,00,2D,80,00,00,00,
4297672878,1A200020,true,Rx,0,8,CE,00,02,2E,00,00,02,2E,
4297673158,1AE0092C,true,Rx,0,8,C0,00,22,E0,41,A0,00,00,
4297673438,1B700030,true,Rx,0,8,2C,87,1C,00,00,C0,03,00,
4297677403,19000026,true,Rx,0,8,00,FF,01,40,38,11,8C,00,
4297678432,01C04026,true,Rx,0,8,80,00,80,00,80,00,80,00,
4297678711,02000026,true,Rx,0,8,7F,34,00,DC,4A,00,E0,AC,
4297678992,02104136,true,Rx,0,8,BB,00,3F,FF,07,E0,00,00,
4297679272,02804026,true,Rx,0,8,37,FF,76,64,F7,63,0D,FF,
4297679564,02C00020,true,Rx,0,8,00,00,00,00,00,02,75,81,
4297679844,00800006,true,Rx,0,8,49,DF,0E,5B,41,DF,2E,69,
4297680114,0090411E,true,Rx,0,8,02,4E,E2,A2,01,00,00,00,
4297680394,0300410E,true,Rx,0,8,B8,97,A8,32,87,C8,FC,00,
4297680674,03800006,true,Rx,0,8,18,00,86,B1,C8,4B,0B,9E,
4297680964,1B600002,true,Rx,0,8,00,80,08,0C,00,17,4C,00,
4297682385,0100082C,true,Rx,0,8,00,C0,93,5F,65,EF,00,B9,
4297682664,0110483C,true,Rx,0,8,08,E9,2A,00,44,66,FC,52,
4297682955,0340412E,true,Rx,0,8,7E,80,00,1D,80,00,00,00,
4297689577,0300410E,true,Rx,0,8,38,97,28,32,07,C8,6C,00,
4297691966,0100082C,true,Rx,0,8,00,C0,93,5F,75,EF,00,B9,
4297692244,0110483C,true,Rx,0,8,08,E9,2A,00,44,66,FC,52,
4297692534,01C04026,true,Rx,0,8,80,00,80,00,80,00,80,00,
4297692814,02000026,true,Rx,0,8,7F,34,00,DC,4A,00,E0,AC,
4297693095,02104136,true,Rx,0,8,BB,00,3F,FF,07,E0,00,00,
4297693374,02804026,true,Rx,0,8,37,FF,76,C3,F7,63,0D,FF,
4297693665,02C00020,true,Rx,0,8,00,00,00,00,00,02,75,81,
4297693944,0340412E,true,Rx,0,8,7F,80,00,0D,80,00,00,00,
4297694233,19000026,true,Rx,0,8,00,FF,01,40,38,11,84,00,
4297694514,19A00002,true,Rx,0,8,6E,00,00,00,00,00,00,F7,
4297699591,00800006,true,Rx,0,8,89,DF,0E,5B,41,DF,AE,69,
4297699867,0090411E,true,Rx,0,8,C2,4E,E2,A2,02,00,00,00,
4297700148,0300410E,true,Rx,0,8,B8,97,B8,34,87,C8,FC,00,
4297700417,03800006,true,Rx,0,8,58,00,86,B1,C8,4B,0B,9E,
4297702100,0100082C,true,Rx,0,8,00,C0,93,5F,65,EF,00,B9,
4297702379,0110483C,true,Rx,0,8,08,E9,AA,00,44,66,FC,52,
4297702669,0340412E,true,Rx,0,8,70,80,00,FD,80,00,00,00,
4297706437,01C04026,true,Rx,0,8,80,00,80,00,80,00,80,00,
4297706714,02000026,true,Rx,0,8,7F,34,00,DC,4A,00,E0,AC,
4297707004,02104136,true,Rx,0,8,BB,00,3F,FF,07,E0,00,00,
4297707273,02804026,true,Rx,0,8,37,FF,77,23,F7,63,0E,01,
4297707564,02C00020,true,Rx,0,8,00,00,00,00,00,02,75,81,
4297707854,19000026,true,Rx,0,8,00,FF,01,40,38,11,84,00,
4297709622,0300410E,true,Rx,0,8,B8,A4,38,34,87,D8,FC,00,
4297712176,0100082C,true,Rx,0,8,00,C0,93,5F,65,EF,00,B9,
4297712456,0110483C,true,Rx,0,8,08,E9,2A,00,44,66,FC,52,
4297712733,0340412E,true,Rx,0,8,71,80,00,ED,80,00,00,00,
4297719612,00800006,true,Rx,0,8,C1,E8,0E,62,41,E8,2E,78,
4297719888,0090411E,true,Rx,0,8,02,4E,62,A2,02,00,00,00,
4297720169,0300410E,true,Rx,0,8,38,A4,38,34,07,D8,6C,00,
4297720460,01C04026,true,Rx,0,8,80,00,80,00,80,00,80,00,
4297720739,02000026,true,Rx,0,8,7F,34,00,DC,4A,00,E0,AC,
4297721019,02104136,true,Rx,0,8,BB,00,3F,FF,07,E0,00,00,
4297721300,02804026,true,Rx,0,8,37,FF,77,6D,F7,63,0E,01,
4297721590,02C00020,true,Rx,0,8,00,00,00,00,00,02,75,81,
4297721867,03800006,true,Rx,0,8,18,00,86,B1,C8,4B,0B,9E,
4297722149,19A00002,true,Rx,0,8,12,00,00,00,00,00,00,F7,
4297722439,0100082C,true,Rx,0,8,00,C0,93,5F,65,EF,00,B9,
4297722718,0110483C,true,Rx,0,8,08,E9,2A,00,44,66,FC,52,
4297723000,0340412E,true,Rx,0,8,72,80,00,DD,80,00,00,00,
4297723289,19000026,true,Rx,0,8,00,FF,01,40,38,11,8C,00,
4297723580,19E00006,true,Rx,0,8,00,00,18,E0,5B,00,40,00,
4297729609,0300410E,true,Rx,0,8,B8,A4,B8,34,87,D8,FC,00,
4297731979,0100082C,true,Rx,0,8,00,C0,93,5F,65,EF,00,B9,
4297732256,0110483C,true,Rx,0,8,08,E7,2A,00,44,66,FC,52,
4297732535,0340412E,true,Rx,0,8,73,80,00,CD,80,00,00,00,
4297734433,01C04026,true,Rx,0,8,80,00,80,00,80,00,80,00,
4297734702,02000026,true,Rx,0,8,7F,34,00,DC,4A,00,E0,AC,
4297734992,02104136,true,Rx,0,8,BB,00,3F,FF,07,E0,00,00,
4297735273,02804026,true,Rx,0,8,37,FF,77,9B,F7,63,0D,FF,
4297735562,02C00020,true,Rx,0,8,00,00,00,00,00,02,75,81,
4297736692,1B200002,true,Rx,0,8,00,00,00,00,00,00,0F,71,
4297737396,19000026,true,Rx,0,8,00,FF,01,40,38,11,84,00,
4297739662,00800006,true,Rx,0,8,09,E8,0E,62,41,E8,2E,78,
4297739941,0090411E,true,Rx,0,8,02,40,E3,26,02,00,00,00,
4297740220,0300410E,true,Rx,0,8,38,A4,38,34,07,D8,6C,00,
4297740500,03800006,true,Rx,0,8,18,00,86,B1,C8,4B,0B,9E,
4297742170,0100082C,true,Rx,0,8,00,C0,93,5F,65,EF,00,B9,
4297742459,0110483C,true,Rx,0,8,08,E7,22,00,44,66,FC,52,
4297742740,0340412E,true,Rx,0,8,74,80,00,BD,80,00,00,00,
4297748412,01C04026,true,Rx,0,8,80,00,80,00,80,00,80,00,
4297748687,02000026,true,Rx,0,8,7F,34,00,DC,4A,00,E0,AC,
4297748967,02104136,true,Rx,0,8,BB,00,3F,FF,07,E0,00,00,
4297749248,02804026,true,Rx,0,8,37,FF,77,B7,F7,63,0D,FF,
4297749538,02C00020,true,Rx,0,8,00,00,00,00,00,02,75,81,
4297749818,0300410E,true,Rx,0,8,B8,A3,38,25,87,D7,FC,00,
4297750109,19A00002,true,Rx,0,8,02,00,00,00,00,00,00,F7,
4297752096,0100082C,true,Rx,0,8,00,C0,93,5F,65,EF,00,B9,
4297752375,0110483C,true,Rx,0,8,08,E7,A2,00,44,66,FC,52,
4297752663,0340412E,true,Rx,0,8,75,80,00,AD,80,00,00,00,
4297752944,19000026,true,Rx,0,8,00,FF,01,40,38,11,8C,00,
4297759639,00800006,true,Rx,0,8,49,E8,0E,62,41,E8,AE,7C,
4297759925,0090411E,true,Rx,0,8,42,3E,E3,91,02,00,00,00,
4297760205,0300410E,true,Rx,0,8,B8,A3,B8,25,87,D7,FC,00,
4297760475,03800006,true,Rx,0,8,18,00,86,B1,C8,4B,0B,9E,
4297762106,0100082C,true,Rx,0,8,00,C0,93,5F,65,EF,00,B9,
4297762385,0110483C,true,Rx,0,8,08,E7,22,00,44,66,FC,52,
4297762676,01C04026,true,Rx,0,8,80,00,80,00,80,00,80,00,
4297762955,02000026,true,Rx,0,8,7F,34,00,DC,4A,00,E0,AC,
4297763246,02104136,true,Rx,0,8,BB,00,3F,FF,07,E0,00,00,
4297763526,02804026,true,Rx,0,8,37,FF,77,C7,F7,63,0D,FF,
4297763812,02C00020,true,Rx,0,8,00,00,00,00,00,02,75,81,
4297764093,0340412E,true,Rx,0,8,76,80,00,9D,80,00,00,00,
4297767473,19000026,true,Rx,0,8,00,FF,01,40,38,11,84,00,
4297769655,0300410E,true,Rx,0,8,38,A3,38,25,07,D7,6C,00,
4297769940,19E00006,true,Rx,0,8,00,00,18,C0,5B,00,40,00,
4297772083,0100082C,true,Rx,0,8,00,C0,93,5F,65,EF,00,B9,
4297772362,0110483C,true,Rx,0,8,08,E7,22,00,44,66,FC,52,
4297772653,0340412E,true,Rx,0,8,77,80,00,8D,80,00,00,00,
4297776419,01C04026,true,Rx,0,8,80,00,80,00,80,00,80,00,
4297776695,02000026,true,Rx,0,8,7F,34,00,DC,4A,00,E0,AC,
4297776974,02104136,true,Rx,0,8,BB,00,3F,FF,07,E0,00,00,
4297777255,02804026,true,Rx,0,8,37,FF,77,D4,F7,63,0E,01,
4297777546,02C00020,true,Rx,0,8,00,00,00,00,00,02,75,81,
4297777835,19A00002,true,Rx,0,8,12,00,00,00,00,00,00,F7,
4297779697,00800006,true,Rx,0,8,81,E8,0E,61,41,E8,2E,7F,
4297779977,0090411E,true,Rx,0,8,02,3E,63,91,02,00,00,00,
4297780247,0300410E,true,Rx,0,8,B8,A1,38,25,87,D7,FC,00,
4297780527,03800006,true,Rx,0,8,18,00,86,B1,C8,4B,0B,9E,
4297782230,0100082C,true,Rx,0,8,00,C0,93,5F,75,EF,00,B9,
4297782517,0110483C,true,Rx,0,8,08,E7,22,00,44,66,FC,52,
4297782798,0340412E,true,Rx,0,8,78,80,00,7D,80,00,00,00,
4297783089,19000026,true,Rx,0,8,00,FF,01,40,38,11,84,00,
4297787061,1BA0493C,true,Rx,0,8,06,02,01,07,04,01,02,01,
4297787337,1BE0493C,true,Rx,0,8,02,46,8B,00,36,04,19,24,
4297789684,0300410E,true,Rx,0,8,B8,A1,38,25,87,D7,FC,00,
4297790419,01C04026,true,Rx,0,8,80,00,80,00,80,00,80,00,
4297790698,02000026,true,Rx,0,8,7F,34,00,DC,4A,00,E0,AC,
4297790989,02104136,true,Rx,0,8,BB,00,3F,FF,07,E0,00,00,
4297791261,02804026,true,Rx,0,8,37,FF,77,DD,F7,63,0E,01,
4297791551,02C00020,true,Rx,0,8,00,00,00,00,00,02,75,81,
4297792131,0100082C,true,Rx,0,8,00,C0,93,5F,65,EF,00,B9,
4297792410,0110483C,true,Rx,0,8,08,E7,22,00,44,66,FC,52,
4297792701,0340412E,true,Rx,0,8,79,80,00,6D,80,00,00,00,
4297797399,19000026,true,Rx,0,8,00,FF,01,40,38,11,8C,00,
4297799696,00800006,true,Rx,0,8,C9,E8,0E,61,41,E8,AE,7F,
4297799971,0090411E,true,Rx,0,8,C2,42,E3,F8,04,00,00,00,
4297800252,0300410E,true,Rx,0,8,38,A1,B8,26,07,D7,6C,00,
4297800522,03800006,true,Rx,0,8,58,00,86,B1,C8,4B,0B,9E,
4297802204,0100082C,true,Rx,0,8,00,C0,93,5F,65,EF,00,B9,
4297802483,0110483C,true,Rx,0,8,08,E7,A2,00,44,66,FC,52,
4297802764,0340412E,true,Rx,0,8,7A,80,00,5D,80,00,00,00,
4297804425,01C04026,true,Rx,0,8,80,00,80,00,80,00,80,00,
4297804704,02000026,true,Rx,0,8,7F,34,00,DC,4A,00,E0,AC,
4297804985,02104136,true,Rx,0,8,BB,00,3F,FF,07,E0,00,00,
4297805276,02804026,true,Rx,0,8,37,FF,77,E3,F7,63,0D,FF,
4297805565,02C00020,true,Rx,0,8,00,00,00,00,00,02,75,81,
4297805850,19A00002,true,Rx,0,8,6E,00,00,00,00,00,00,F7,
4297809713,0300410E,true,Rx,0,8,B8,9E,38,26,87,D6,FC,00,
4297811989,0100082C,true,Rx,0,8,00,C0,93,5F,65,EF,00,B9,
4297812265,0110483C,true,Rx,0,8,08,E7,22,00,44,66,FC,52,
4297812544,0340412E,true,Rx,0,8,7B,80,00,4D,80,00,00,00,
4297812835,19000026,true,Rx,0,8,00,FF,01,40,38,11,84,00,
4297818436,01C04026,true,Rx,0,8,80,00,80,00,80,00,80,00,
4297818711,02000026,true,Rx,0,8,7F,34,00,DC,49,00,E0,AC,
4297818993,02104136,true,Rx,0,8,BB,00,3F,FF,07,E0,00,00,
4297819272,02804026,true,Rx,0,8,37,FF,77,E5,F7,63,0D,FD,
4297819563,02C00020,true,Rx,0,8,00,00,00,00,00,02,75,81,
4297819853,00800006,true,Rx,0,8,01,E7,0E,5F,41,E7,2E,82,
4297820133,0090411E,true,Rx,0,8,02,42,63,F8,04,00,00,00,
4297820414,0300410E,true,Rx,0,8,38,9E,38,26,07,D6,6C,00,
4297820691,03800006,true,Rx,0,8,18,00,86,B1,C8,4B,0B,9E,
4297820981,19E00006,true,Rx,0,8,00,00,18,E0,5B,00,40,00,
4297821674,1B200002,true,Rx,0,8,00,00,00,00,00,00,0F,71,
4297822305,0100082C,true,Rx,0,8,00,C0,93,5F,65,EF,00,B9,
4297822588,0110483C,true,Rx,0,8,08,E7,22,00,44,66,FC,52,
4297822877,0340412E,true,Rx,0,8,7C,80,00,3D,80,00,00,00,
4297827408,19000026,true,Rx,0,8,00,FF,01,40,38,11,8C,00,
4297829715,0300410E,true,Rx,0,8,B8,9E,B8,26,87,D6,FC,00,
4297832054,0100082C,true,Rx,0,8,00,C0,93,5F,65,EF,00,B9,
4297832330,0110483C,true,Rx,0,8,08,E7,22,00,44,66,FC,52,
4297832620,01C04026,true,Rx,0,8,80,00,80,00,80,00,80,00,
4297832900,02000026,true,Rx,0,8,7F,34,00,DC,49,00,E0,AC,
4297833181,02104136,true,Rx,0,8,BB,00,3F,FF,07,E0,00,00,
4297833462,02804026,true,Rx,0,8,37,FF,77,E4,F7,63,0D,FF,
4297833751,02C00020,true,Rx,0,8,00,00,00,00,00,02,75,81,
4297834032,0340412E,true,Rx,0,8,7D,80,00,2D,80,00,00,00,
4297834322,19A00002,true,Rx,0,8,12,00,00,00,00,00,00,F7,
4297839717,00800006,true,Rx,0,8,49,E7,0E,5E,41,E7,AE,84,
4297840004,0090411E,true,Rx,0,8,42,3B,E4,94,04,00,00,00,
4297840274,0300410E,true,Rx,0,8,B8,9C,38,27,87,D6,FC,00,
4297840553,03800006,true,Rx,0,8,18,00,86,B1,C8,4B,0B,9E,
4297842091,0100082C,true,Rx,0,8,00,C0,93,5F,65,EF,00,B9,
4297842370,0110483C,true,Rx,0,8,08,E7,22,00,44,66,FC,52,
4297842651,0340412E,true,Rx,0,8,7E,80,00,1D,80,00,00,00,
4297842940,19000026,true,Rx,0,8,00,FF,01,40,38,11,84,00,
4297846442,01C04026,true,Rx,0,8,80,00,80,00,80,00,80,00,
4297846728,02000026,true,Rx,0,8,7F,34,00,DC,49,00,E0,AC,
4297847008,02104136,true,Rx,0,8,BB,00,3F,FF,07,E0,00,00,
4297847289,02804026,true,Rx,0,8,37,FF,77,E7,F7,63,0E,01,
4297847578,02C00020,true,Rx,0,8,00,00,00,00,00,02,75,81,
4297849757,0300410E,true,Rx,0,8,38,9C,B8,27,07,D6,6C,00,
4297850048,1B600002,true,Rx,0,8,00,80,08,0C,00,17,4C,00,
4297852192,0100082C,true,Rx,0,8,00,C0,93,5F,65,EF,00,B9,
4297852471,0110483C,true,Rx,0,8,08,E7,A2,00,44,66,FC,52,
4297852750,0340412E,true,Rx,0,8,7F,80,00,0D,80,00,00,00,
4297857401,19000026,true,Rx,0,8,00,FF,01,40,38,11,8C,00,
4297859749,00800006,true,Rx,0,8,89,E7,0E,5B,41,E7,2E,85,
4297860036,0090411E,true,Rx,0,8,02,20,E4,BD,04,00,00,00,
4297860306,0300410E,true,Rx,0,8,B8,97,38,27,87,D5,FC,00,
4297860596,01C04026,true,Rx,0,8,80,00,80,00,80,00,80,00,
4297860875,02000026,true,Rx,0,8,7F,34,00,DC,4A,00,E0,AC,
4297861157,02104136,true,Rx,0,8,BB,00,3F,FF,07,E0,00,00,
4297861436,02804026,true,Rx,0,8,37,FF,77,E9,F7,63,0D,FF,
4297861736,02C00020,true,Rx,0,8,00,00,00,00,00,02,75,81,
4297862006,03800006,true,Rx,0,8,18,00,86,B1,C8,4B,0B,9E,
4297862295,19A00002,true,Rx,0,8,02,00,00,00,00,00,00,F7,
4297862586,0100082C,true,Rx,0,8,00,C0,93,5F,65,EF,00,00,
4297862865,0110483C,true,Rx,0,8,08,E7,22,00,44,66,FC,52,
4297863146,0340412E,true,Rx,0,8,70,80,00,FD,80,00,00,00,
4297869748,0300410E,true,Rx,0,8,B8,97,38,27,87,D5,FC,00,
4297870035,19E00006,true,Rx,0,8,00,00,18,C0,5B,00,40,00,
4297872073,0100082C,true,Rx,0,8,00,C0,93,5F,65,EF,00,00,
4297872352,0110483C,true,Rx,0,8,08,E7,22,00,44,66,FC,52,
4297872633,0340412E,true,Rx,0,8,71,80,00,ED,80,00,00,00,
4297872923,19000026,true,Rx,0,8,00,FF,01,40,38,11,84,00,
4297874463,01C04026,true,Rx,0,8,80,00,80,00,80,00,80,00,
4297874732,02000026,true,Rx,0,8,7F,34,00,DC,4A,00,E0,AC,
4297875024,02104136,true,Rx,0,8,BB,00,3F,FF,07,E0,00,00,
4297875303,02804026,true,Rx,0,8,37,FF,77,E9,F7,63,0D,FF,
4297875594,02C00020,true,Rx,0,8,00,00,00,00,00,02,75,81,
4297880116,00800006,true,Rx,0,8,C9,E7,0E,5B,41,E7,2E,85,
4297880402,0090411E,true,Rx,0,8,02,41,E5,0C,04,00,00,00,
4297880682,0300410E,true,Rx,0,8,38,97,B8,27,07,D5,6C,00,
4297880962,03800006,true,Rx,0,8,18,00,86,B1,C8,4B,0B,9E,
4297882130,0100082C,true,Rx,0,8,00,C0,93,5F,65,EF,00,00,
4297882411,0110483C,true,Rx,0,8,08,E7,22,00,44,66,FC,52,
4297882692,0340412E,true,Rx,0,8,72,80,00,DD,80,00,00,00,
4297882971,1B700030,true,Rx,0,8,3C,87,1C,00,00,C0,03,00,
4297887412,19000026,true,Rx,0,8,00,FF,01,40,38,11,8C,00,
4297888439,01C04026,true,Rx,0,8,80,00,80,00,80,00,80,00,
4297888720,02000026,true,Rx,0,8,7F,34,00,DC,4A,00,E0,AC,
4297889000,02104136,true,Rx,0,8,BB,00,3F,FF,07,E0,00,00,
4297889280,02804026,true,Rx,0,8,37,FF,77,E8,F7,63,0D,FF,
4297889573,02C00020,true,Rx,0,8,00,00,00,00,00,02,75,81,
4297889842,0300410E,true,Rx,0,8,B8,96,38,29,87,D5,FC,00,
4297890133,19A00002,true,Rx,0,8,12,00,00,00,00,00,00,F7,
4297892227,0100082C,true,Rx,0,8,00,C0,93,5F,65,EF,00,00,
4297892507,0110483C,true,Rx,0,8,08,E7,22,00,44,66,FC,52,
4297892787,0340412E,true,Rx,0,8,73,80,00,CD,80,00,00,00,
4297899791,00800006,true,Rx,0,8,01,E6,0E,5A,41,E6,AE,88,
4297900068,0090411E,true,Rx,0,8,C2,41,65,0C,05,00,00,00,
4297900349,0300410E,true,Rx,0,8,38,96,38,29,07,D5,6C,00,
4297900618,03800006,true,Rx,0,8,58,00,86,B1,C8,4B,0B,9E,
4297902084,0100082C,true,Rx,0,8,00,C0,93,5F,65,EF,00,00,
4297902363,0110483C,true,Rx,0,8,08,E7,A2,00,44,66,FC,52,
4297902654,01C04026,true,Rx,0,8,80,00,80,00,80,00,80,00,
4297902933,02000026,true,Rx,0,8,7F,34,00,DC,4A,00,E0,AC,
4297903215,02104136,true,Rx,0,8,BB,00,3F,FF,07,E0,00,00,
4297903494,02804026,true,Rx,0,8,37,FF,77,E6,F7,63,0D,FF,
4297903784,02C00020,true,Rx,0,8,00,00,00,00,00,02,75,81,
4297904064,0340412E,true,Rx,0,8,74,80,00,BD,80,00,00,00,
4297904354,19000026,true,Rx,0,8,00,FF,01,40,38,11,84,00,
4297907732,1B200002,true,Rx,0,8,00,00,00,00,00,00,0F,71,
4297909791,0300410E,true,Rx,0,8,B8,93,B8,29,87,D4,FC,00,
4297912047,0100082C,true,Rx,0,8,00,C0,93,5F,75,EF,00,00,
4297912333,0110483C,true,Rx,0,8,08,E7,22,00,44,66,FC,52,
4297912613,0340412E,true,Rx,0,8,75,80,00,AD,80,00,00,00,
4297916459,01C04026,true,Rx,0,8,80,00,80,00,80,00,80,00,
4297916734,02000026,true,Rx,0,8,7F,34,00,DC,4A,00,E0,AC,
4297917025,02104136,true,Rx,0,8,BB,00,3F,FF,07,E0,00,00,
4297917305,02804026,true,Rx,0,8,37,FF,77,E7,F7,63,0E,01,
4297917595,02C00020,true,Rx,0,8,00,00,00,00,00,02,75,81,
4297917875,19000026,true,Rx,0,8,00,FF,01,40,38,11,84,00,
4297918166,19A00002,true,Rx,0,8,6E,00,00,00,00,00,00,F7,
4297919833,00800006,true,Rx,0,8,49,E6,0E,56,41,E6,2E,8C,
4297920115,0090411E,true,Rx,0,8,02,3F,E5,53,05,00,00,00,
4297920384,0300410E,true,Rx,0,8,B8,8F,38,29,87,D4,FC,00,
4297920663,03800006,true,Rx,0,8,18,00,86,B1,C8,4B,0B,9E,
4297920954,19E00006,true,Rx,0,8,00,00,18,E0,5B,00,40,00,
4297922471,0100082C,true,Rx,0,8,00,C0,93,5F,65,EF,00,00,
4297922751,0110483C,true,Rx,0,8,08,E7,22,00,44,66,FC,52,
4297923031,0340412E,true,Rx,0,8,76,80,00,9D,80,00,00,00,
4297929809,0300410E,true,Rx,0,8,38,8F,38,29,07,D4,6C,00,
4297930426,01C04026,true,Rx,0,8,80,00,80,00,80,00,80,00,
4297930705,02000026,true,Rx,0,8,7F,34,00,DC,4A,00,E0,AC,
4297930987,02104136,true,Rx,0,8,BB,00,3F,FF,07,E0,00,00,
4297931266,02804026,true,Rx,0,8,37,FF,77,E9,F7,63,0D,FF,
4297931556,02C00020,true,Rx,0,8,00,00,00,00,00,02,75,81,
4297932140,0100082C,true,Rx,0,8,00,C0,93,5F,65,EF,00,00,
4297932420,0110483C,true,Rx,0,8,08,E7,22,00,44,66,FC,52,
4297932700,0340412E,true,Rx,0,8,77,80,00,8D,80,00,00,00,
4297932990,19000026,true,Rx,0,8,00,FF,01,40,38,11,8C,00,
4297939818,00800006,true,Rx,0,8,89,E5,0E,54,41,E5,2E,8E,
4297940096,0090411E,true,Rx,0,8,02,4E,E5,E6,05,00,00,00,
4297940375,0300410E,true,Rx,0,8,B8,8C,B8,29,87,D3,FC,00,
4297940654,03800006,true,Rx,0,8,18,00,86,B1,C8,4B,0B,9E,
4297942120,0100082C,true,Rx,0,8,00,C0,93,5F,65,EF,00,00,
4297942401,0110483C,true,Rx,0,8,08,E7,22,00,44,66,FC,52,
4297942680,0340412E,true,Rx,0,8,78,80,00,7D,80,00,00,00,
4297944444,01C04026,true,Rx,0,8,80,00,80,00,80,00,80,00,
4297944725,02000026,true,Rx,0,8,7F,34,00,DC,4A,00,E0,AC,
4297945005,02104136,true,Rx,0,8,BB,00,3F,FF,07,E0,00,00,
4297945285,02804026,true,Rx,0,8,37,FF,77,E8,F7,63,0D,FF,
4297945575,02C00020,true,Rx,0,8,00,00,00,00,00,02,75,81,
4297945865,19A00002,true,Rx,0,8,12,00,00,00,00,00,00,F7,
4297947399,19000026,true,Rx,0,8,00,FF,01,40,38,11,84,00,
4297949860,0300410E,true,Rx,0,8,B8,8B,38,2A,87,D3,FC,00,
4297952055,0100082C,true,Rx,0,8,00,C0,93,5F,65,EF,00,00,
4297952330,0110483C,true,Rx,0,8,08,E7,A2,00,44,66,FC,52,
4297952621,0340412E,true,Rx,0,8,79,80,00,6D,80,00,00,00,
4297958414,01C04026,true,Rx,0,8,80,00,80,00,80,00,80,00,
4297958690,02000026,true,Rx,0,8,7F,34,00,DC,4A,00,E0,AC,
4297958980,02104136,true,Rx,0,8,BB,00,3F,FF,07,E0,00,00,
4297959250,02804026,true,Rx,0,8,37,FF,77,E8,F7,63,0D,FF,
4297959541,02C00020,true,Rx,0,8,00,00,00,00,00,02,75,81,
4297959861,00800006,true,Rx,0,8,C1,E5,0E,54,41,E5,AE,8E,
4297960143,0090411E,true,Rx,0,8,42,4E,65,E6,05,00,00,00,
4297960422,0300410E,true,Rx,0,8,38,8B,38,2A,07,D3,6C,00,
4297960690,03800006,true,Rx,0,8,18,00,86,B1,C8,4B,0B,9E,
4297962217,0100082C,true,Rx,0,8,00,C0,93,5F,65,EF,00,00,
4297962496,0110483C,true,Rx,0,8,08,E7,22,00,44,66,FC,52,
4297962775,0340412E,true,Rx,0,8,7A,80,00,5D,80,00,00,00,
4297963066,19000026,true,Rx,0,8,00,FF,01,40,38,11,8C,00,
4297969846,0300410E,true,Rx,0,8,B8,86,B8,2A,87,D3,FC,00,
4297970134,19E00006,true,Rx,0,8,00,00,18,C0,5B,00,40,00,
4297972027,0100082C,true,Rx,0,8,00,C0,93,5F,65,EF,00,00,
4297972306,0110483C,true,Rx,0,8,08,E7,22,00,44,66,FC,52,
4297972597,01C04026,true,Rx,0,8,80,00,80,00,80,00,80,00,
4297972876,02000026,true,Rx,0,8,7F,34,00,DC,4A,00,E0,AC,
4297973158,02104136,true,Rx,0,8,BB,00,3F,FF,07,E0,00,00,
4297973437,02804026,true,Rx,0,8,37,FF,77,E8,F7,63,0D,FF,
4297973727,02C00020,true,Rx,0,8,00,00,00,00,00,02,75,81,
4297974007,0340412E,true,Rx,0,8,7B,80,00,4D,80,00,00,00,
4297974297,19A00002,true,Rx,0,8,02,00,00,00,00,00,00,F7,
4297977470,19000026,true,Rx,0,8,00,FF,01,40,38,11,84,00,
4297980304,00800006,true,Rx,0,8,09,E5,0E,51,41,E5,2E,8E,
4297980589,0090411E,true,Rx,0,8,01,F4,E5,DB,05,00,00,00,
4297980860,0300410E,true,Rx,0,8,38,86,38,2A,07,D3,6C,00,
4297981140,03800006,true,Rx,0,8,18,00,86,B1,C8,4B,0B,9E,
4297982192,0100082C,true,Rx,0,8,00,C0,93,5F,65,EF,00,00,
4297982475,0110483C,true,Rx,0,8,08,E7,22,00,44,66,FC,52,
4297982755,0340412E,true,Rx,0,8,7C,80,00,3D,80,00,00,00,
4297986435,01C04026,true,Rx,0,8,80,00,80,00,80,00,80,00,
4297986710,02000026,true,Rx,0,8,7F,34,00,DC,4A,00,E0,AC,
4297986992,02104136,true,Rx,0,8,BB,00,3F,FF,07,E0,00,00,
4297987271,02804026,true,Rx,0,8,37,FF,77,E8,F7,63,0D,FF,
4297987561,02C00020,true,Rx,0,8,00,00,00,00,00,02,75,81,
4297987841,1A200020,true,Rx,0,8,0F,00,AA,2E,00,00,02,2E,
4297990044,0300410E,true,Rx,0,8,B8,83,38,2B,87,D2,FC,00,
4297992101,0100082C,true,Rx,0,8,00,C0,93,5F,65,EF,00,00,
4297992382,0110483C,true,Rx,0,8,08,E7,22,00,44,66,FC,52,
4297992670,0340412E,true,Rx,0,8,7D,80,00,2D,80,00,00,00,
4297992949,19000026,true,Rx,0,8,00,FF,01,40,38,11,84,00,
4297993241,1B200002,true,Rx,0,8,00,00,00,00,00,00,0F,71,
4298000065,00800006,true,Rx,0,8,41,E5,0E,4C,41,E5,AE,8E,
4298000341,0090411E,true,Rx,0,8,C1,F4,65,DB,05,00,00,00,
4298000630,01C04026,true,Rx,0,8,80,00,80,00,80,00,80,00,
4298000911,02000026,true,Rx,0,8,7F,34,00,DC,4A,00,E0,AC,
4298001201,02104136,true,Rx,0,8,BB,00,3F,FF,07,E0,00,00,
4298001470,02804026,true,Rx,0,8,37,FF,77,E8,F7,63,0D,FF,
4298001761,02C00020,true,Rx,0,8,00,00,00,00,00,02,75,81,
4298002042,0300410E,true,Rx,0,8,B8,7F,38,2B,87,D2,FC,00,
4298002331,0100082C,true,Rx,0,8,00,C0,93,5F,75,EF,00,00,
4298002610,0110483C,true,Rx,0,8,08,E7,A2,00,44,66,FC,52,
4298002890,0340412E,true,Rx,0,8,7E,80,00,1D,80,00,00,00,
4298003162,03800006,true,Rx,0,8,58,00,86,B1,C8,4B,0B,9E,
4298003451,19A00002,true,Rx,0,8,12,00,00,00,00,00,00,F7,
4298007411,19000026,true,Rx,0,8,00,FF,01,40,38,11,8C,00,
4298009904,0300410E,true,Rx,0,8,38,7F,B8,2B,07,D2,6C,00,
4298012069,0100082C,true,Rx,0,8,00,C0,93,5F,65,EF,00,00,
4298012355,0110483C,true,Rx,0,8,08,E7,22,00,44,66,FC,52,
4298012635,0340412E,true,Rx,0,8,7F,80,00,0D,80,00,00,00,
4298014438,01C04026,true,Rx,0,8,80,00,80,00,80,00,80,00,
4298014718,02000026,true,Rx,0,8,7F,34,00,DC,4B,00,E0,AC,
4298014999,02104136,true,Rx,0,8,BB,00,3F,FF,07,E0,00,00,
4298015278,02804026,true,Rx,0,8,37,FF,77,E9,F7,63,0D,FF,
4298015569,02C00020,true,Rx,0,8,00,00,00,00,00,02,75,81,
4298019967,00800006,true,Rx,0,8,89,E5,0E,4A,41,E5,2E,8E,
4298020254,0090411E,true,Rx,0,8,01,F7,E6,11,05,00,00,00,
4298020523,0300410E,true,Rx,0,8,B8,7B,38,2B,87,D2,FC,00,
4298020803,03800006,true,Rx,0,8,18,00,86,B1,C8,4B,0B,9E,
4298021094,19E00006,true,Rx,0,8,00,00,18,E0,5B,00,40,00,
4298021383,1B600002,true,Rx,0,8,00,80,08,0C,00,17,4C,00,
4298022142,0100082C,true,Rx,0,8,00,C0,93,5F,65,EF,00,00,
4298022423,0110483C,true,Rx,0,8,08,E7,22,00,44,66,FC,52,
4298022712,0340412E,true,Rx,0,8,70,80,00,FD,80,00,00,00,
4298022993,19000026,true,Rx,0,8,00,FF,01,40,38,11,84,00,
4298028410,01C04026,true,Rx,0,8,80,00,80,00,80,00,80,00,
4298028686,02000026,true,Rx,0,8,7F,34,00,DC,4A,00,E0,AC,
4298028965,02104136,true,Rx,0,8,BB,00,3F,FF,07,E0,00,00,
4298029247,02804026,true,Rx,0,8,37,FF,77,E9,F7,63,0D,FF,
4298029536,02C00020,true,Rx,0,8,00,00,00,00,00,02,75,81,
4298029826,19A00002,true,Rx,0,8,6E,00,00,00,00,00,00,F7,
4298030097,0300410E,true,Rx,0,8,B8,7B,38,2B,87,D2,FC,00,
4298032166,0100082C,true,Rx,0,8,00,C0,93,5F,65,EF,00,00,
4298032446,0110483C,true,Rx,0,8,08,E7,22,00,44,66,FC,52,
4298032734,0340412E,true,Rx,0,8,71,80,00,ED,80,00,00,00,
4298037043,1BA0493C,true,Rx,0,8,07,01,03,00,02,01,01,01,
4298037411,19000026,true,Rx,0,8,00,FF,01,40,38,11,8C,00,
4298039935,00800006,true,Rx,0,8,C9,E5,0E,4A,41,E5,2E,8E,
4298040216,0090411E,true,Rx,0,8,01,F4,E5,E2,05,00,00,00,
4298040495,0300410E,true,Rx,0,8,38,7B,B8,2B,07,D2,6C,00,
4298040775,03800006,true,Rx,0,8,18,00,86,B1,C8,4B,0B,9E,
4298042233,0100082C,true,Rx,0,8,00,C0,93,5F,65,EF,00,00,
4298042513,0110483C,true,Rx,0,8,08,E7,22,00,44,66,FC,52,
4298042802,01C04026,true,Rx,0,8,80,00,80,00,80,00,80,00,
4298043075,02000026,true,Rx,0,8,7F,34,00,DC,4B,00,E0,AC,
4298043367,02104136,true,Rx,0,8,BB,00,3F,FF,07,E0,00,00,
4298043636,02804026,true,Rx,0,8,37,FF,77,E8,F7,63,0D,FF,
4298043927,02C00020,true,Rx,0,8,00,00,00,00,00,02,75,81,
4298044217,0340412E,true,Rx,0,8,72,80,00,DD,80,00,00,00,
4298049925,0300410E,true,Rx,0,8,B8,77,38,2B,87,D2,FC,00,
4298051995,0100082C,true,Rx,0,8,00,C0,93,5F,65,EF,00,00,
4298052272,0110483C,true,Rx,0,8,08,E7,A2,00,44,66,FC,52,
4298052551,0340412E,true,Rx,0,8,73,80,00,CD,80,00,00,00,
4298052841,19000026,true,Rx,0,8,00,FF,01,40,38,11,84,00,
4298056421,01C04026,true,Rx,0,8,80,00,80,00,80,00,80,00,
4298056696,02000026,true,Rx,0,8,7F,34,00,DC,4A,00,E0,AC,
4298056989,02104136,true,Rx,0,8,BB,00,3F,FF,07,E0,00,00,
4298057258,02804026,true,Rx,0,8,37,FF,77,E8,F7,63,0D,FF,
4298057547,02C00020,true,Rx,0,8,00,00,00,00,00,02,75,81,
4298057838,19A00002,true,Rx,0,8,12,00,00,00,00,00,00,F7,
4298059968,00800006,true,Rx,0,8,01,E5,0E,48,41,E5,AE,8E,
4298060259,0090411E,true,Rx,0,8,41,F4,65,E2,05,00,00,00,
4298060536,0300410E,true,Rx,0,8,38,77,38,2B,07,D2,6C,00,
4298060807,03800006,true,Rx,0,8,18,00,86,B1,C8,4B,0B,9E,
4298062231,0100082C,true,Rx,0,8,00,C0,93,5F,65,EF,00,00,
4298062511,0110483C,true,Rx,0,8,08,E7,22,00,44,66,FC,52,
4298062801,0340412E,true,Rx,0,8,74,80,00,BD,80,00,00,00,
4298067412,19000026,true,Rx,0,8,00,FF,01,40,38,11,8C,00,
4298069959,0300410E,true,Rx,0,8,B8,75,B8,2B,87,D2,FC,00,
4298070245,19E00006,true,Rx,0,8,00,00,18,C0,5B,00,40,00,
4298070535,01C04026,true,Rx,0,8,80,00,80,00,80,00,80,00,
4298070815,02000026,true,Rx,0,8,7F,34,00,DC,4B,00,E0,AC,
4298071096,02104136,true,Rx,0,8,BB,00,3F,FF,07,E0,00,00,
4298071375,02804026,true,Rx,0,8,37,FF,77,E8,F7,63,0D,FF,
4298071666,02C00020,true,Rx,0,8,00,00,00,00,00,02,75,81,
4298072225,0100082C,true,Rx,0,8,00,C0,93,5F,65,EF,00,00,
4298072504,0110483C,true,Rx,0,8,08,E7,22,00,44,66,FC,52,
4298072783,0340412E,true,Rx,0,8,75,80,00,AD,80,00,00,00,
4298077680,1B200002,true,Rx,0,8,00,00,00,00,00,00,0F,71,
4298079956,00800006,true,Rx,0,8,49,E5,0E,45,41,E5,2E,8E,
4298080243,0090411E,true,Rx,0,8,02,40,E6,22,05,00,00,00,
4298080522,0300410E,true,Rx,0,8,B8,72,38,2B,87,D2,FC,00,
4298080792,03800006,true,Rx,0,8,18,00,86,B1,C8,4B,0B,9E,
4298082094,0100082C,true,Rx,0,8,00,C0,93,5F,65,EF,00,00,
4298082374,0110483C,true,Rx,0,8,08,E7,22,00,44,66,FC,52,
4298082664,0340412E,true,Rx,0,8,76,80,00,9D,80,00,00,00,
4298082944,19000026,true,Rx,0,8,00,FF,01,40,38,11,84,00,
4298084432,01C04026,true,Rx,0,8,80,00,80,00,80,00,80,00,
4298084712,02000026,true,Rx,0,8,7F,34,00,DC,4A,00,E0,AC,
4298085003,02104136,true,Rx,0,8,BB,00,3F,FF,07,E0,00,00,
4298085273,02804026,true,Rx,0,8,B7,FF,77,E9,F7,63,3D,FF,
4298085563,02C00020,true,Rx,0,8,00,00,00,00,00,02,75,81,
4298085853,19A00002,true,Rx,0,8,02,00,00,00,00,00,00,F7,
4298089996,0300410E,true,Rx,0,8,38,72,38,2B,07,D2,6C,00,
4298092013,0100082C,true,Rx,0,8,00,C0,93,5F,75,EF,00,00,
4298092289,0110483C,true,Rx,0,8,08,E7,22,00,44,66,FC,52,
4298092579,0340412E,true,Rx,0,8,77,80,00,8D,80,00,00,00,
4298092858,1AE0092C,true,Rx,0,8,00,00,22,E0,41,A0,00,00,
4298093140,1B700030,true,Rx,0,8,2C,87,1C,00,00,C0,03,00,
4298097427,19000026,true,Rx,0,8,00,FF,01,40,38,11,8C,00,
4298098466,01C04026,true,Rx,0,8,80,00,80,00,80,00,80,00,
4298098756,02000026,true,Rx,0,8,7F,34,00,DC,4B,00,E0,AC,
4298099036,02104136,true,Rx,0,8,BB,00,3F,FF,07,E0,00,00,
4298099317,02804026,true,Rx,0,8,B7,FF,77,EB,F7,63,3D,FF,
4298099598,02C00020,true,Rx,0,8,00,00,00,00,00,02,75,81,
4298100014,00800006,true,Rx,0,8,89,E5,0E,43,41,E5,AE,8E,
4298100293,0090411E,true,Rx,0,8,C1,D4,E5,DF,05,00,00,00,
4298100572,0300410E,true,Rx,0,8,B8,6F,B8,2B,87,D2,FC,00,
4298100842,03800006,true,Rx,0,8,58,00,86,B1,C8,4B,0B,9E,
4298102354,0100082C,true,Rx,0,8,00,C0,93,5F,65,EF,00,00,
4298102633,0110483C,true,Rx,0,8,08,E7,A2,00,44,66,FC,52,
4298102913,0340412E,true,Rx,0,8,78,80,00,7D,80,00,00,00,
4298109989,0300410E,true,Rx,0,8,B8,6F,38,2B,87,D2,FC,00,
4298111974,0100082C,true,Rx,0,8,00,C0,93,5F,65,EF,00,00,
4298112252,0110483C,true,Rx,0,8,08,E7,22,00,44,66,FC,52,
4298112541,01C04026,true,Rx,0,8,80,00,80,00,80,00,80,00,
4298112820,02000026,true,Rx,0,8,7F,34,00,DC,4B,00,E0,AC,
4298113112,02104136,true,Rx,0,8,BB,00,3F,FF,07,E0,00,00,
4298113381,02804026,true,Rx,0,8,B7,FF,77,EB,F7,63,3D,FF,
4298113672,02C00020,true,Rx,0,8,00,00,00,00,00,02,75,81,
4298113962,0340412E,true,Rx,0,8,79,80,00,6D,80,00,00,00,
4298114241,19000026,true,Rx,0,8,00,FF,01,40,38,11,84,00,
4298114532,19A00002,true,Rx,0,8,12,00,00,00,00,00,00,F7,
4298120004,00800006,true,Rx,0,8,C1,E5,0E,43,41,E5,2E,8E,
4298120279,0090411E,true,Rx,0,8,01,D4,65,DF,05,00,00,00,
4298120560,0300410E,true,Rx,0,8,38,6F,38,2B,07,D2,6C,00,
4298120839,03800006,true,Rx,0,8,18,00,86,B1,C8,4B,0B,9E,
4298121130,19E00006,true,Rx,0,8,00,00,18,E0,5B,00,40,00,
4298122082,0100082C,true,Rx,0,8,00,C0,93,5F,65,EF,00,00,
4298122362,0110483C,true,Rx,0,8,08,E7,22,00,44,66,FC,52,
4298122652,0340412E,true,Rx,0,8,7A,80,00,5D,80,00,00,00,
4298126502,01C04026,true,Rx,0,8,80,00,80,00,80,00,80,00,
4298126779,02000026,true,Rx,0,8,7F,34,00,DC,4B,00,E0,AC,
4298127070,02104136,true,Rx,0,8,BB,00,3F,FF,07,E0,00,00,
4298127339,02804026,true,Rx,0,8,B7,FF,77,E9,F7,63,3D,FF,
4298127630,02C00020,true,Rx,0,8,00,00,00,00,00,02,75,81,
4298127919,19000026,true,Rx,0,8,00,FF,01,40,38,11,84,00,
4298130039,0300410E,true,Rx,0,8,B8,6C,B8,2B,87,D2,FC,00,
4298132170,0100082C,true,Rx,0,8,00,C0,93,5F,65,EF,00,00,
4298132449,0110483C,true,Rx,0,8,08,E7,22,00,44,66,FC,52,
4298132737,0340412E,true,Rx,0,8,7B,80,00,4D,80,00,00,00,
4298140020,00800006,true,Rx,0,8,09,E5,0E,41,41,E5,2E,8E,
4298140305,0090411E,true,Rx,0,8,01,F9,E5,D8,05,00,00,00,
4298140596,01C04026,true,Rx,0,8,80,00,80,00,80,00,80,00,
4298140875,02000026,true,Rx,0,8,7F,34,00,DC,4B,00,E0,AC,
4298141156,02104136,true,Rx,0,8,BB,00,3F,FF,07,E0,00,00,
4298141436,02804026,true,Rx,0,8,B7,FF,77,E8,F7,63,3D,FF,
4298141726,02C00020,true,Rx,0,8,00,00,00,00,00,02,75,81,
4298142006,0300410E,true,Rx,0,8,38,6C,38,2B,07,D2,6C,00,
4298142295,0100082C,true,Rx,0,8,00,C0,93,5F,65,EF,00,00,
4298142575,0110483C,true,Rx,0,8,08,E7,22,00,44,66,FC,52,
4298142855,0340412E,true,Rx,0,8,7C,80,00,3D,80,00,00,00,
4298143136,03800006,true,Rx,0,8,18,00,86,B1,C8,4B,0B,9E,
4298143415,19000026,true,Rx,0,8,00,FF,01,40,38,11,8C,00,
4298143706,19A00002,true,Rx,0,8,6E,00,00,00,00,00,00,F7,
4298150033,0300410E,true,Rx,0,8,B8,6A,38,2B,87,D2,FC,00,
4298151976,0100082C,true,Rx,0,8,00,C0,93,5F,65,EF,00,00,
4298152254,0110483C,true,Rx,0,8,08,E7,A2,00,44,66,FC,52,
